!Agilent Technologies,E8362C,MY49020356,A.09.42.23
!Agilent E8362C: A.09.42.23
!Date: Saturday, September 11, 2021 04:11:15
!Correction: S11(Full 2 Port(1,2)) 
!S21(Full 2 Port(1,2)) 
!S12(Full 2 Port(1,2)) 
!S22(Full 2 Port(1,2)) 
!S2P File: Measurements: S11, S21, S12, S22:
# Hz S  MA   R 50
10950000000 1.0340902 -41.816662 2.376956e-005 30.05344 7.7079312e-005 99.104225 0.71123916 -158.62447
10950034375 1.0342833 -41.823296 3.0361229e-005 -29.413162 5.6169931e-005 57.263992 0.70992041 -158.68642
10950068750 1.0340173 -41.826538 4.4443579e-005 2.1158948 4.5674169e-005 62.58717 0.71005422 -158.66
10950103125 1.0347204 -41.804428 3.0814706e-005 6.6591115 3.5612149e-005 10.982095 0.70976013 -158.66025
10950137500 1.0348425 -41.807446 1.8674811e-005 50.05785 7.8059507e-005 36.655998 0.7104069 -158.71059
10950171875 1.0370872 -41.804684 2.2714412e-005 13.033493 1.2056365e-005 117.22426 0.71043897 -158.69295
10950206250 1.0357759 -41.886627 4.1384807e-005 29.10902 5.558474e-005 75.658516 0.71057153 -158.67195
10950240625 1.0357178 -41.862747 5.814826e-005 -2.0489681 4.212388e-005 -73.422974 0.70943516 -158.69258
10950275000 1.0358136 -41.877071 2.2871649e-005 -68.980507 2.6747397e-005 63.956539 0.70997363 -158.70013
10950309375 1.035012 -41.792797 3.268115e-005 15.42271 4.2351472e-005 73.279549 0.70995861 -158.63708
10950343750 1.035713 -41.748543 3.8528928e-005 -56.51767 3.6216305e-005 63.420712 0.71026677 -158.72659
10950378125 1.0345815 -41.774822 1.5099997e-005 20.755674 3.8410468e-005 58.369846 0.71071947 -158.74313
10950412500 1.0345885 -41.78474 2.587639e-005 -19.665756 4.1712545e-005 137.58258 0.71021152 -158.74695
10950446875 1.035338 -41.88279 6.3734833e-006 -118.01398 3.8911305e-005 -14.361371 0.70963275 -158.69797
10950481250 1.0346694 -41.86002 4.5450186e-005 34.890438 4.3664622e-005 82.505638 0.70959765 -158.63586
10950515625 1.0362722 -41.821709 2.5122419e-005 -57.928425 3.3522534e-005 134.20117 0.70907378 -158.71321
10950550000 1.034199 -41.775276 3.0880266e-005 -7.1147075 4.1124084e-005 42.769966 0.71008301 -158.702
10950584375 1.0337111 -41.820187 2.4429599e-005 48.12291 5.9419592e-005 68.745033 0.70996284 -158.79373
10950618750 1.0333509 -41.812447 3.258172e-005 53.421692 4.1895291e-005 36.569664 0.70872581 -158.81615
10950653125 1.0331841 -41.80587 1.9448033e-005 47.491249 6.010208e-005 52.465569 0.70965523 -158.8141
10950687500 1.0342956 -41.797062 3.0595627e-005 61.895653 3.9026374e-005 154.46094 0.7104196 -158.73175
10950721875 1.0351446 -41.800056 1.9084868e-005 -61.918972 6.6477915e-005 82.721184 0.70992053 -158.75313
10950756250 1.0344281 -41.874451 5.0060858e-005 51.988926 9.2921437e-005 45.808968 0.71054196 -158.72409
10950790625 1.0343899 -41.815834 2.0842772e-005 18.721262 5.2789735e-005 52.974239 0.71020806 -158.73105
10950825000 1.0347003 -41.804871 3.0979518e-005 -6.7205033 3.0595187e-005 -9.9598179 0.70874161 -158.68037
10950859375 1.035031 -41.827633 3.1906035e-005 -28.176323 6.276233e-005 51.133415 0.70903647 -158.71469
10950893750 1.0350139 -41.782715 1.9095e-005 -10.815449 8.1509112e-005 38.084621 0.70858157 -158.71463
10950928125 1.035342 -41.702545 3.3899541e-005 -38.115135 3.7034071e-005 48.442776 0.70978731 -158.69682
10950962500 1.0352437 -41.794167 4.1467883e-005 -2.984401 4.6696157e-005 75.799042 0.70922804 -158.71736
10950996875 1.0344199 -41.795685 5.1242921e-005 34.834068 6.8981935e-005 58.996586 0.71006453 -158.72072
10951031250 1.0343891 -41.771729 4.5089804e-005 39.276031 3.3485034e-005 45.08699 0.71059239 -158.75261
10951065625 1.0348619 -41.756989 2.8671693e-005 -22.606575 4.9977629e-005 -11.066412 0.70985138 -158.79041
10951100000 1.0334461 -41.764286 6.418366e-005 35.719494 3.485363e-005 14.003633 0.70897257 -158.8152
10951134375 1.0346184 -41.797462 3.6980782e-005 16.940123 5.9907932e-005 -15.757762 0.70991433 -158.8345
10951168750 1.0343137 -41.80048 3.4703058e-005 -2.2241585 4.4050557e-005 89.079391 0.71013355 -158.77827
10951203125 1.0334463 -41.843552 2.8048358e-005 67.986107 7.8170633e-005 86.239159 0.71014374 -158.73149
10951237500 1.033865 -41.862484 2.8396335e-005 39.647144 6.3918982e-005 74.678345 0.70977861 -158.82272
10951271875 1.0349172 -41.853664 2.0610851e-005 -13.979523 1.4427743e-005 168.48253 0.71094525 -158.78697
10951306250 1.0348002 -41.853458 3.1524381e-005 36.524384 2.0301606e-005 49.452831 0.71105206 -158.718
10951340625 1.0342373 -41.900173 1.741505e-005 12.088153 2.5947738e-005 68.461227 0.71023256 -158.7845
10951375000 1.0334586 -41.870193 1.6934508e-005 10.85138 8.8312874e-005 53.815765 0.70930362 -158.80319
10951409375 1.0345666 -41.862724 1.13677e-005 -160.83118 3.8975373e-005 97.133842 0.70895362 -158.77654
10951443750 1.0342968 -41.849758 5.8748941e-005 -7.3938479 3.6582558e-005 77.343422 0.70943016 -158.79944
10951478125 1.0350548 -41.840744 3.7745995e-005 -16.413937 3.1092553e-005 108.0761 0.70949352 -158.7708
10951512500 1.0349029 -41.776321 3.6407346e-005 19.509682 1.1936974e-005 74.987236 0.70899737 -158.77545
10951546875 1.0354838 -41.791073 4.174322e-005 42.723301 5.3791169e-005 60.26189 0.70952702 -158.8114
10951581250 1.0346932 -41.81641 2.0680325e-005 22.021107 3.4312263e-005 -22.05765 0.70915812 -158.80156
10951615625 1.0338842 -41.802864 4.9589591e-005 68.075714 2.4710909e-005 10.513238 0.70914894 -158.8333
10951650000 1.0339901 -41.851868 3.6695688e-005 4.2024765 3.8233975e-005 76.700508 0.70940781 -158.84915
10951684375 1.0343702 -41.784824 3.577907e-005 11.446542 7.2930823e-005 42.459385 0.71070498 -158.88895
10951718750 1.0342033 -41.795238 3.5757596e-006 8.7265806 5.5813707e-005 61.175861 0.71068847 -158.87582
10951753125 1.0344882 -41.810913 3.0085286e-005 31.438766 3.2581625e-005 69.112267 0.71105421 -158.85672
10951787500 1.0341544 -41.808826 2.318712e-005 18.714996 2.2510423e-005 41.144047 0.7109862 -158.79623
10951821875 1.0342833 -41.792255 3.1652669e-006 -73.021889 9.8939654e-006 121.11819 0.71025002 -158.84923
10951856250 1.0348022 -41.809967 3.7267986e-005 -45.983528 5.7143192e-005 16.474031 0.70982498 -158.80951
10951890625 1.0352576 -41.857224 1.4168733e-005 -46.4967 3.789023e-005 -22.975538 0.7097317 -158.87949
10951925000 1.0338614 -41.868202 5.1113977e-005 34.32938 2.1392612e-005 22.14797 0.7094323 -158.80579
10951959375 1.0353545 -41.810364 2.201604e-005 10.225994 4.7170099e-005 116.55247 0.70971984 -158.92358
10951993750 1.034628 -41.828289 3.7967387e-005 -18.238279 4.1890427e-005 119.97511 0.70890856 -158.91747
10952028125 1.0346447 -41.900223 2.3806395e-005 44.952972 5.5744273e-005 96.942375 0.70866972 -158.82578
10952062500 1.0337341 -41.810413 3.7279933e-005 7.2924728 2.3831562e-005 30.721682 0.70833713 -158.88187
10952096875 1.033749 -41.794949 4.3210468e-005 30.129658 0.00010860497 65.026077 0.70892209 -158.85817
10952131250 1.0358527 -41.795429 4.6028013e-005 68.947632 4.6693211e-005 73.05854 0.70912153 -158.91362
10952165625 1.0351285 -41.799789 5.1031089e-005 21.265167 3.8976697e-005 102.3151 0.70982867 -158.94359
10952200000 1.0358144 -41.849285 2.9130279e-005 -25.316198 1.8860963e-005 114.6087 0.70986402 -158.91772
10952234375 1.0346344 -41.784187 3.2204171e-005 -10.730079 3.8852224e-005 19.165579 0.7095415 -158.94029
10952268750 1.0361382 -41.843304 2.647839e-005 39.376373 0.00012443644 70.737488 0.70909202 -158.97206
10952303125 1.0354898 -41.827579 5.1686005e-005 0.34642109 2.7462202e-005 106.95312 0.70999026 -158.88699
10952337500 1.0351163 -41.842934 3.7784139e-005 -23.437071 7.123877e-005 114.70159 0.70923889 -158.93437
10952371875 1.0350986 -41.830658 4.3455173e-005 -31.625763 3.0382907e-005 60.715008 0.70905286 -159.01689
10952406250 1.0360159 -41.752079 2.4886142e-005 7.0130172 2.853689e-005 14.146429 0.70871383 -158.96645
10952440625 1.0351348 -41.775658 4.3717268e-005 -50.017708 6.309984e-005 31.805429 0.70880783 -159.01222
10952475000 1.0340793 -41.81934 2.8719176e-005 22.939983 4.2107462e-005 71.717735 0.70782828 -158.94846
10952509375 1.0347474 -41.811531 5.7584311e-005 6.2652636 4.1400479e-005 61.808662 0.70821619 -158.92862
10952543750 1.0344565 -41.861275 3.7844879e-005 -46.367252 2.8482275e-005 14.354031 0.70819646 -158.97531
10952578125 1.0348728 -41.859493 3.8880196e-005 9.0889788 3.0963009e-005 9.3568373 0.70876652 -158.91357
10952612500 1.0340797 -41.840015 8.6831888e-006 -51.621723 5.8207916e-005 89.839478 0.70881474 -158.88071
10952646875 1.0345758 -41.844547 3.0289093e-005 30.5772 6.8168731e-005 66.861366 0.70905364 -158.91246
10952681250 1.0355726 -41.850979 1.8332164e-005 -5.2010694 2.064056e-005 9.4859276 0.70899618 -158.92902
10952715625 1.0334827 -41.817936 3.2573345e-005 39.721878 1.9655752e-005 166.32285 0.70959759 -158.98079
10952750000 1.0345563 -41.79673 2.3564558e-005 78.163704 5.4535161e-005 75.179626 0.70896959 -158.93817
10952784375 1.0348762 -41.870052 2.948735e-005 -33.030437 3.3968317e-005 60.891056 0.71004617 -158.94963
10952818750 1.0349594 -41.831661 3.1000112e-005 48.75465 4.8134916e-005 64.617416 0.70978814 -158.92523
10952853125 1.0349742 -41.81691 2.1290891e-005 49.120018 4.0469164e-005 62.64093 0.70925498 -158.9381
10952887500 1.0347402 -41.802013 5.8995115e-006 133.59941 3.7152513e-005 43.544479 0.70917195 -159.02061
10952921875 1.0360935 -41.742779 5.5591641e-005 -40.956257 4.903895e-005 102.94862 0.70939434 -158.9904
10952956250 1.0346556 -41.821472 2.6993845e-005 -127.70802 5.8375717e-005 54.900097 0.71025538 -159.09488
10952990625 1.0358357 -41.814953 4.1460338e-005 116.62458 7.1452756e-005 35.699356 0.70952642 -159.00667
10953025000 1.0347592 -41.816467 4.1987267e-005 44.929607 6.5031498e-005 43.815144 0.70981574 -158.99889
10953059375 1.0341667 -41.80928 4.1798176e-005 11.561919 4.1743242e-005 86.844078 0.70989949 -159.01613
10953093750 1.0344803 -41.776379 2.0927348e-005 -43.94878 4.6225079e-005 45.073532 0.70878989 -159.04025
10953128125 1.0348511 -41.822865 4.67775e-006 -139.30815 4.548307e-005 55.350746 0.70880055 -158.99567
10953162500 1.034181 -41.840656 5.3602238e-005 -16.623787 1.9340438e-005 96.604378 0.70876402 -158.91356
10953196875 1.0345724 -41.821335 2.458893e-005 126.91463 3.9349285e-005 89.042793 0.70905495 -159.0385
10953231250 1.0344005 -41.80323 4.1798507e-005 -18.924931 2.1617378e-005 -49.153072 0.70893687 -159.09116
10953265625 1.0349631 -41.774338 3.3879624e-005 -41.929157 5.1699913e-005 135.43329 0.70897835 -159.03198
10953300000 1.0346799 -41.827694 1.2210955e-005 75.349007 3.7455993e-005 94.716682 0.70953643 -159.06009
10953334375 1.0342551 -41.857132 4.3686246e-005 43.300266 3.5359215e-005 13.820753 0.70968908 -159.08566
10953368750 1.0341917 -41.769638 2.9687515e-005 27.219408 6.2358798e-005 39.702564 0.70947176 -158.99724
10953403125 1.0343379 -41.786724 2.9690125e-005 97.868195 6.6313507e-005 54.196465 0.70936155 -159.09923
10953437500 1.0341049 -41.829811 5.0863349e-005 -41.393196 5.3654821e-005 -32.14233 0.71014935 -159.03751
10953471875 1.034662 -41.825649 2.6319949e-005 21.329494 7.1716648e-005 69.16037 0.70868868 -159.05217
10953506250 1.0364698 -41.825684 1.8375014e-005 -83.309128 8.1925937e-005 61.730061 0.70801979 -159.08038
10953540625 1.0345695 -41.874027 1.5113598e-005 7.26723 6.7030902e-005 127.12621 0.70889217 -159.14851
10953575000 1.0353985 -41.872337 2.5651443e-005 16.495026 8.5140135e-005 57.41444 0.70945889 -159.03539
10953609375 1.0356545 -41.862324 4.7275615e-005 7.5545702 5.5530651e-005 118.01189 0.70979494 -159.0692
10953643750 1.03537 -41.789059 1.6989228e-005 17.3225 9.233946e-006 44.958317 0.70904481 -159.1152
10953678125 1.0341825 -41.831944 2.7163502e-005 -30.93935 1.9260731e-005 7.4789119 0.70977658 -159.11931
10953712500 1.0341486 -41.781635 4.3153217e-005 28.233797 6.4794069e-005 99.738068 0.70999539 -159.11406
10953746875 1.0350819 -41.851521 2.3335776e-006 24.212885 6.2444888e-005 96.128372 0.70956165 -159.10187
10953781250 1.0345036 -41.828712 1.5144234e-005 38.018482 4.4730044e-005 77.875511 0.70882511 -158.9908
10953815625 1.0357672 -41.867905 3.4118093e-005 -65.311844 5.4519776e-005 41.137165 0.70967257 -159.10756
10953850000 1.0342492 -41.851437 6.5949944e-006 136.88283 3.8627499e-005 77.240646 0.70874357 -159.09802
10953884375 1.0343586 -41.853752 1.7032347e-005 -40.487823 5.6152032e-005 23.535641 0.70919114 -159.11031
10953918750 1.0338285 -41.821342 3.7116428e-005 -43.838158 4.6608919e-005 35.207813 0.70865774 -159.13243
10953953125 1.0341454 -41.797218 3.0756422e-005 12.56331 5.5189066e-005 60.510662 0.70915359 -159.15129
10953987500 1.0356526 -41.844524 3.8305141e-005 -33.482121 4.0443581e-005 120.33472 0.70961607 -159.15642
10954021875 1.0358713 -41.805935 2.7351451e-005 36.188988 4.6588419e-005 92.552681 0.70801854 -159.0901
10954056250 1.0347406 -41.850849 3.7195165e-005 15.672151 3.3149656e-005 -167.99591 0.70783246 -159.09401
10954090625 1.033924 -41.831772 2.8609953e-005 8.1147289 2.1078458e-005 -166.14984 0.7089836 -159.14473
10954125000 1.0342786 -41.812443 2.2760776e-005 -62.178192 2.8819726e-005 98.288902 0.70964527 -159.16577
10954159375 1.0340309 -41.854172 3.9659e-005 -13.099011 3.3852466e-005 47.99448 0.70894337 -159.17853
10954193750 1.0348895 -41.802273 3.6418685e-005 -31.060261 2.6188412e-005 103.70897 0.70860356 -159.15089
10954228125 1.0339869 -41.843525 6.4985494e-007 58.976627 2.7813296e-005 93.084183 0.70900118 -159.15643
10954262500 1.0332227 -41.800243 3.4690565e-005 -24.497595 6.0746206e-005 106.64109 0.70855916 -159.18309
10954296875 1.0346112 -41.82822 3.7499696e-005 -10.622566 3.7984672e-005 111.16615 0.70775217 -159.17363
10954331250 1.0353972 -41.807114 1.3674169e-005 149.17609 1.0524077e-005 26.592991 0.71002698 -159.11287
10954365625 1.0360802 -41.855507 2.3453753e-005 -30.927559 1.4681364e-005 -21.85573 0.70918763 -159.22041
10954400000 1.0350035 -41.87994 3.2376091e-005 44.045906 3.2663753e-005 97.074387 0.7094382 -159.16219
10954434375 1.0352679 -41.883778 3.8898208e-005 8.7754145 6.3327614e-005 153.37538 0.7084446 -159.19867
10954468750 1.0349634 -41.811928 1.812548e-005 -0.33837548 2.1226451e-005 111.3685 0.70825732 -159.20288
10954503125 1.0350021 -41.817207 5.5793906e-005 13.046044 5.1967381e-005 71.880844 0.70896113 -159.23201
10954537500 1.035193 -41.8428 9.8692508e-006 -22.807507 8.020299e-005 81.014702 0.70865846 -159.23741
10954571875 1.0335927 -41.817165 2.6228277e-005 74.052788 5.4732805e-005 120.56444 0.70940447 -159.20386
10954606250 1.0350796 -41.823833 8.7657399e-006 -93.713661 2.5414979e-006 -166.99303 0.70834184 -159.18303
10954640625 1.0352874 -41.797646 2.0859006e-005 10.949122 7.2911091e-005 55.379128 0.70868695 -159.22902
10954675000 1.0345392 -41.802731 6.7290166e-005 -4.883985 2.4195411e-005 116.81956 0.70811164 -159.15697
10954709375 1.0342276 -41.789543 2.6377624e-005 -37.311615 4.3347358e-005 154.15633 0.7078231 -159.17386
10954743750 1.0349439 -41.779251 4.9629532e-005 37.397701 1.4513646e-005 126.46712 0.70866978 -159.16203
10954778125 1.0340892 -41.84375 3.1893869e-005 169.10695 2.6691188e-005 -11.931575 0.70838106 -159.20332
10954812500 1.0330684 -41.901688 9.3668004e-006 72.150574 2.5514404e-005 97.696968 0.70921361 -159.30492
10954846875 1.0341368 -41.83889 2.1902353e-005 111.34766 3.318537e-005 58.574596 0.70853543 -159.26605
10954881250 1.0348555 -41.84304 3.8743627e-005 88.603058 2.3933881e-005 71.569191 0.70849442 -159.32585
10954915625 1.0346965 -41.823582 4.8388109e-005 -17.081448 4.2010488e-005 38.732082 0.70928335 -159.24757
10954950000 1.0338237 -41.836708 3.9485101e-005 -71.272202 5.0146078e-005 100.08955 0.70872468 -159.23792
10954984375 1.0350626 -41.843731 2.8254544e-005 60.527004 4.4466578e-005 24.476572 0.7087543 -159.19286
10955018750 1.0350997 -41.787125 1.211372e-005 20.022125 4.6661535e-005 56.74194 0.7092157 -159.20274
10955053125 1.0361067 -41.891117 4.2454045e-005 -13.179389 7.561213e-005 64.46476 0.70891511 -159.23914
10955087500 1.0343618 -41.866451 2.6927619e-005 -29.287769 2.8739958e-005 -34.596935 0.70938742 -159.27902
10955121875 1.0345876 -41.884167 1.8597761e-005 -61.263435 6.0944545e-005 95.018272 0.70925617 -159.33791
10955156250 1.0346667 -41.932453 3.2665223e-005 10.962772 3.0892803e-005 88.555916 0.7089873 -159.31577
10955190625 1.0342987 -41.84483 2.9112456e-005 -35.602646 7.0821938e-005 72.366905 0.70875418 -159.25487
10955225000 1.0350426 -41.84901 3.6786223e-005 -72.010033 9.0607566e-005 83.652992 0.70856154 -159.30853
10955259375 1.0360296 -41.853409 7.933304e-006 -77.391983 4.8418642e-005 78.678101 0.70878315 -159.32532
10955293750 1.0351563 -41.798115 2.6350679e-005 -81.972748 4.3225802e-005 83.757988 0.70870537 -159.35455
10955328125 1.0347817 -41.821152 3.79474e-005 22.553406 4.7393354e-005 61.566822 0.7086553 -159.3705
10955362500 1.035274 -41.839577 2.274506e-005 51.270683 6.9674577e-005 36.780106 0.70826799 -159.33005
10955396875 1.0353415 -41.816097 6.4905125e-006 -142.64508 4.7392859e-005 59.432838 0.70877069 -159.44095
10955431250 1.0347527 -41.862186 3.6007674e-005 -94.990936 1.5361844e-005 -155.94971 0.70807093 -159.34912
10955465625 1.0344001 -41.877419 1.9023009e-005 95.041145 5.7550064e-005 102.77872 0.70894736 -159.30896
10955500000 1.0341356 -41.918598 3.5591563e-006 -6.6426001 6.1012383e-005 64.776566 0.70891196 -159.3282
10955534375 1.033592 -41.878082 2.1493512e-005 50.922573 4.0377727e-005 104.87624 0.70809937 -159.26773
10955568750 1.0338565 -41.878529 1.9036763e-005 95.343987 4.5680306e-005 119.35983 0.70933175 -159.31682
10955603125 1.0338315 -41.918724 2.9237421e-005 158.07632 6.7978624e-005 83.069511 0.7088598 -159.39247
10955637500 1.034541 -41.801636 2.4571034e-005 85.675598 4.8041977e-005 118.62111 0.70874137 -159.40524
10955671875 1.0359092 -41.791653 1.9562935e-005 -89.813446 5.7052875e-005 61.74564 0.70854962 -159.43288
10955706250 1.0342557 -41.792961 7.7165078e-006 31.002672 5.5224697e-005 58.320515 0.70855832 -159.33449
10955740625 1.0352038 -41.785652 2.463453e-005 -4.1376686 2.4298972e-005 51.816437 0.70879418 -159.34996
10955775000 1.0354589 -41.902252 3.5349229e-005 112.34943 4.6284789e-005 61.350449 0.70880026 -159.33563
10955809375 1.0338972 -41.923462 1.618458e-005 -82.884583 4.7908758e-005 91.666878 0.7079978 -159.40619
10955843750 1.0354081 -41.87598 2.3947394e-005 -24.570509 5.1348747e-005 4.0415874 0.70767659 -159.42639
10955878125 1.0351411 -41.88192 2.0190093e-005 -18.210859 5.6775072e-005 82.605446 0.70861137 -159.356
10955912500 1.0346837 -41.89642 1.5947497e-005 -120.09908 2.0566089e-005 145.54486 0.70809788 -159.41853
10955946875 1.0344747 -41.894501 4.0971441e-005 21.981369 6.1355153e-005 70.657089 0.70752877 -159.33621
10955981250 1.0340141 -41.919319 4.0346454e-006 71.834618 1.9748313e-005 68.470375 0.70896924 -159.35536
10956015625 1.0333582 -41.850628 3.8489972e-005 64.546951 5.3328386e-005 60.73941 0.7088083 -159.38818
10956050000 1.0327873 -41.854374 3.7020862e-005 -12.789091 5.6037428e-005 101.31523 0.7086333 -159.35657
10956084375 1.0330811 -41.885624 3.2249071e-005 30.307709 3.066834e-005 70.797813 0.70909089 -159.54347
10956118750 1.0339369 -41.852657 2.5543193e-005 24.184212 7.2874987e-005 58.05658 0.70922154 -159.47136
10956153125 1.0336152 -41.806087 2.5390709e-005 110.1066 4.8538601e-005 141.42833 0.70872885 -159.42151
10956187500 1.0342964 -41.835445 2.6999676e-005 53.11871 3.0221499e-005 65.882881 0.70769048 -159.42378
10956221875 1.0348548 -41.847637 8.3362038e-006 91.603996 5.9602433e-005 91.418816 0.7079379 -159.45039
10956256250 1.0349101 -41.884418 1.3456181e-005 71.544167 5.8877962e-005 55.135834 0.70827711 -159.35043
10956290625 1.0347089 -41.884655 3.0086754e-005 0.81136853 2.9019968e-005 138.87752 0.70743471 -159.40936
10956325000 1.0335031 -41.816376 2.143762e-005 99.346199 7.3114275e-006 47.176121 0.7081604 -159.47821
10956359375 1.0338738 -41.794628 4.7686844e-005 -67.748749 6.039775e-005 111.12891 0.70854366 -159.34305
