!Agilent Technologies,E8362C,MY49020356,A.09.42.23
!Agilent E8362C: A.09.42.23
!Date: Saturday, September 11, 2021 04:14:22
!Correction: S11(Full 2 Port(1,2)) 
!S21(Full 2 Port(1,2)) 
!S12(Full 2 Port(1,2)) 
!S22(Full 2 Port(1,2)) 
!S2P File: Measurements: S11, S21, S12, S22:
# Hz S  MA   R 50
10950000000 1.0347633 -41.764637 4.1652067e-005 6.3820515 9.4906463e-005 -5.2123342 0.74074954 -146.44418
10950034375 1.0344268 -41.718208 5.1687512e-005 16.970587 7.3050937e-006 174.79671 0.7413649 -146.45856
10950068750 1.0349004 -41.748985 2.2679527e-005 42.404011 5.470726e-005 -30.817053 0.74097633 -146.40201
10950103125 1.0346657 -41.777138 3.3700664e-005 38.359566 7.0497183e-005 26.065084 0.74178034 -146.45238
10950137500 1.0353353 -41.788929 6.1668667e-005 29.670752 5.4261302e-005 42.654739 0.74144918 -146.49225
10950171875 1.0365384 -41.81316 1.4596575e-005 -107.0278 4.3743057e-005 -6.3220558 0.74036497 -146.4675
10950206250 1.0366131 -41.828419 4.7085578e-005 48.655209 0.00010647067 16.102528 0.74051338 -146.49237
10950240625 1.0361698 -41.77071 7.7508928e-005 27.951809 8.3197614e-005 32.866341 0.74074191 -146.48695
10950275000 1.0363823 -41.780476 3.9096289e-005 42.600147 6.4864988e-005 14.875906 0.74031895 -146.47588
10950309375 1.0361602 -41.71257 2.8635392e-005 79.350525 3.6237765e-005 36.154743 0.74107152 -146.46712
10950343750 1.0349345 -41.699574 4.6897589e-005 44.231205 6.2750558e-005 -13.079176 0.74154633 -146.53128
10950378125 1.0343233 -41.722469 4.1890464e-005 44.685699 7.296267e-005 -6.1384416 0.74128038 -146.54262
10950412500 1.0345342 -41.76899 6.1739156e-005 35.95903 5.4115299e-005 28.10494 0.7414518 -146.42758
10950446875 1.0352423 -41.764214 2.9858582e-005 5.1172123 7.7536126e-005 25.055511 0.74071515 -146.48172
10950481250 1.0354848 -41.766491 3.7870523e-005 51.186581 7.1943527e-005 26.030869 0.74093008 -146.4521
10950515625 1.0357226 -41.764706 4.7519843e-005 20.370064 6.0274589e-005 -6.9604125 0.74106902 -146.42387
10950550000 1.0341555 -41.757477 5.3310767e-005 13.590007 5.7288893e-005 4.9837656 0.74104756 -146.43504
10950584375 1.0337061 -41.740425 8.239186e-005 48.184864 5.8344409e-005 34.428085 0.74037123 -146.47453
10950618750 1.0336531 -41.756813 4.6448098e-005 51.436432 9.1902351e-005 35.213398 0.74057716 -146.5463
10950653125 1.0336536 -41.768452 4.8980073e-005 29.174276 3.8430186e-005 72.143196 0.74045444 -146.49506
10950687500 1.0346729 -41.808891 6.7412584e-005 21.366617 2.8451896e-005 3.2358153 0.74028921 -146.57304
10950721875 1.0355355 -41.792591 6.1118335e-005 23.664343 4.5777786e-005 -9.8359852 0.74062455 -146.53528
10950756250 1.0353743 -41.770813 2.0674544e-005 30.993141 6.5984466e-005 13.668552 0.74059945 -146.50888
10950790625 1.0355713 -41.730225 7.9173687e-006 52.948666 9.4551549e-005 11.821248 0.7398994 -146.49596
10950825000 1.0336919 -41.768299 3.9811432e-005 -11.726132 4.6250159e-005 32.429298 0.74004084 -146.47284
10950859375 1.0345727 -41.749931 3.9650015e-005 66.158478 3.1082356e-005 16.886581 0.73973078 -146.47697
10950893750 1.0343931 -41.765514 1.7667297e-005 101.8867 6.9335307e-005 -55.5807 0.73998368 -146.48343
10950928125 1.0352566 -41.748711 5.2452808e-005 46.586773 9.9723664e-005 17.774221 0.74036813 -146.51422
10950962500 1.0366117 -41.717804 4.5883509e-005 31.882853 6.2241219e-005 34.225597 0.7401334 -146.51566
10950996875 1.0348542 -41.738033 6.5318593e-005 7.0040622 1.8762385e-005 10.509523 0.74066913 -146.52084
10951031250 1.0354507 -41.796013 3.6457346e-005 39.015579 7.8393547e-005 42.494415 0.74024296 -146.47311
10951065625 1.0351288 -41.71273 6.0221606e-005 35.79562 6.1878935e-005 36.799 0.73974836 -146.57411
10951100000 1.0350764 -41.739082 2.1038213e-005 24.942747 7.4532036e-005 9.3822832 0.740592 -146.54889
10951134375 1.0339521 -41.786831 2.2030108e-005 20.428583 4.1702315e-005 -19.694618 0.74160224 -146.57314
10951168750 1.0350378 -41.755665 4.4178993e-005 41.896866 9.2692972e-005 15.084645 0.74076527 -146.55161
10951203125 1.034588 -41.776512 4.3297914e-005 57.542965 2.4771616e-005 95.317253 0.74072343 -146.57259
10951237500 1.0350753 -41.779282 5.4521184e-005 27.652885 6.2333282e-005 -11.436418 0.74043667 -146.60287
10951271875 1.0347667 -41.812366 6.4200402e-005 55.637531 6.0554004e-005 5.6701536 0.74033731 -146.58893
10951306250 1.0350033 -41.792397 4.103953e-005 8.4483871 6.2054656e-005 34.932213 0.74001688 -146.61571
10951340625 1.0335317 -41.799431 6.0067363e-005 64.529961 4.0206101e-005 -9.3439703 0.74053776 -146.55466
10951375000 1.0338368 -41.877235 4.3917305e-005 -17.242695 3.9095179e-005 18.919739 0.73994422 -146.58762
10951409375 1.0342772 -41.808357 6.1610153e-005 56.203091 6.0259925e-005 4.070857 0.73959118 -146.60965
10951443750 1.0337423 -41.771999 3.9129405e-005 83.644257 3.7340804e-005 48.177418 0.73976904 -146.55638
10951478125 1.0357273 -41.73542 5.366766e-005 -3.1484435 7.8577374e-005 33.536949 0.74065864 -146.54791
10951512500 1.0351363 -41.73563 3.5280766e-005 -31.795818 4.6453486e-005 18.025274 0.73992556 -146.54309
10951546875 1.0357009 -41.733639 5.0699928e-005 50.642658 5.4882534e-005 -9.9852457 0.74042362 -146.54784
10951581250 1.0356177 -41.716133 2.3840215e-005 24.160471 4.6217716e-005 -2.4388521 0.73967606 -146.62573
10951615625 1.0358206 -41.789764 9.2129842e-005 33.601635 5.0299153e-005 11.169099 0.73943186 -146.61841
10951650000 1.0357349 -41.757999 5.0437306e-005 36.56152 5.622637e-005 18.537102 0.73983121 -146.56432
10951684375 1.0351503 -41.778389 2.0977885e-005 69.378136 4.7117475e-005 20.323141 0.73989409 -146.64867
10951718750 1.0355155 -41.773136 2.0996611e-005 3.9432027 7.853414e-005 31.613043 0.74116027 -146.58044
10951753125 1.0348588 -41.788139 2.358697e-005 21.261929 0.00011243551 8.5075474 0.74056393 -146.63005
10951787500 1.0346179 -41.720047 3.8917748e-005 72.634895 8.3734449e-005 29.228966 0.74091423 -146.61488
10951821875 1.0343962 -41.748734 4.7123336e-005 29.198673 4.0229828e-005 5.7766447 0.74055254 -146.63271
10951856250 1.0354301 -41.761559 2.1924183e-005 85.457825 6.3579551e-005 17.975039 0.73938489 -146.69182
10951890625 1.0350392 -41.804691 2.1911388e-005 25.339504 4.0090403e-005 -27.30266 0.73938376 -146.70328
10951925000 1.0351365 -41.808205 5.2461652e-005 36.98119 4.2941629e-005 23.132755 0.74069446 -146.64862
10951959375 1.0351797 -41.79361 2.520861e-005 115.55779 3.4028159e-005 15.234971 0.73942649 -146.70279
10951993750 1.0361789 -41.783764 3.5977369e-005 51.483437 6.837074e-005 35.827377 0.73943144 -146.6461
10952028125 1.0352592 -41.818768 3.0447593e-005 40.913933 8.270346e-005 8.3633327 0.73969936 -146.68822
10952062500 1.0345805 -41.79174 3.3484848e-005 59.65266 9.0464608e-005 -9.5727377 0.73923415 -146.68732
10952096875 1.0355481 -41.789558 5.9739545e-005 54.707722 4.6495337e-005 -14.933003 0.73921287 -146.60864
10952131250 1.0356852 -41.769642 3.0084062e-005 9.938921 6.9289439e-005 13.830118 0.73917115 -146.64647
10952165625 1.0356405 -41.737297 3.6840305e-005 40.588627 6.0279115e-005 -27.031183 0.74048054 -146.65425
10952200000 1.0350817 -41.759201 4.8858798e-005 8.2280664 3.0724532e-005 26.804567 0.7401647 -146.69507
10952234375 1.0354075 -41.774681 4.7303434e-005 44.627575 7.5381955e-005 44.703003 0.74006569 -146.71498
10952268750 1.0359582 -41.79911 1.8766761e-005 13.912308 4.8886424e-005 32.487865 0.7405628 -146.74071
10952303125 1.0351181 -41.810822 3.2069682e-005 45.933701 4.7274654e-005 22.501284 0.73927927 -146.7514
10952337500 1.0353197 -41.842308 1.4669718e-005 -34.427708 4.4277287e-005 15.573585 0.74016386 -146.70732
10952371875 1.0351298 -41.751892 2.1705902e-005 17.518778 0.00011857473 25.154575 0.73902929 -146.75543
10952406250 1.0367613 -41.781818 4.0746236e-005 38.174282 6.6102075e-005 37.945854 0.7397719 -146.72211
10952440625 1.0359899 -41.775345 3.2546639e-005 7.6549072 7.1872812e-005 50.329163 0.7397725 -146.745
10952475000 1.0340859 -41.800056 4.9787366e-005 33.873257 6.6278481e-005 21.650232 0.73919159 -146.68211
10952509375 1.0344957 -41.783836 6.0057141e-006 70.401527 9.0948677e-005 20.734291 0.73841643 -146.77357
10952543750 1.0359427 -41.804237 2.9071116e-005 76.336159 6.3269457e-005 32.154156 0.73983449 -146.65208
10952578125 1.0361985 -41.803715 4.992856e-005 52.55777 8.6541324e-005 -2.4337609 0.73970693 -146.71802
10952612500 1.0352129 -41.810394 4.1557549e-005 65.85498 3.624758e-005 5.1752982 0.74009818 -146.71777
10952646875 1.034129 -41.75869 4.9273094e-005 21.427568 3.3125601e-005 28.888988 0.7406342 -146.71344
10952681250 1.0354848 -41.82233 5.6180314e-005 71.665001 6.8641843e-005 -30.293007 0.7401523 -146.67456
10952715625 1.0356545 -41.777203 3.4186309e-005 52.723461 4.8801434e-005 27.282667 0.7406252 -146.72099
10952750000 1.0358914 -41.731266 3.602777e-005 1.8081282 0.00010033147 17.527346 0.74023175 -146.69215
10952784375 1.0357682 -41.734402 3.5346449e-005 51.477596 0.00010038329 -14.651309 0.73944396 -146.68111
10952818750 1.0347621 -41.784554 2.8483633e-005 54.59779 3.8755326e-005 30.638729 0.74016744 -146.72038
10952853125 1.0357006 -41.762436 3.3489199e-005 -10.61899 9.4840427e-005 33.272667 0.73975319 -146.78403
10952887500 1.0354122 -41.763592 2.9838722e-005 19.295023 7.0445189e-005 4.4121323 0.74071252 -146.75281
10952921875 1.0356034 -41.716286 4.3163403e-005 5.2575269 7.3864772e-005 22.188349 0.74019969 -146.75244
10952956250 1.0362384 -41.736256 4.0770941e-005 7.2108774 6.6122426e-005 29.410246 0.7402603 -146.81804
10952990625 1.035548 -41.760365 4.8789607e-005 44.738129 8.4094936e-005 15.699598 0.73983419 -146.83577
10953025000 1.0357394 -41.802086 2.485117e-005 51.423176 5.5159799e-005 -5.4468064 0.7398994 -146.8266
10953059375 1.0346992 -41.731525 2.1783695e-005 42.969688 3.3940552e-005 -31.765059 0.73945612 -146.79439
10953093750 1.0349693 -41.755287 4.3485532e-005 56.871368 2.2766784e-005 9.4075022 0.73911113 -146.85764
10953128125 1.0354966 -41.781834 6.0329614e-005 12.618717 5.6308636e-005 26.983393 0.73925489 -146.77216
10953162500 1.0352552 -41.847996 5.6011788e-005 4.9638309 9.153779e-005 -32.881073 0.73924524 -146.72771
10953196875 1.035002 -41.811367 2.1733942e-005 11.743913 5.4826862e-005 49.472713 0.7393471 -146.86237
10953231250 1.0343715 -41.775639 5.436916e-005 11.824152 8.2795901e-005 -8.200098 0.7395888 -146.80353
10953265625 1.0349246 -41.724812 2.7972574e-005 23.92185 4.3601238e-005 8.9326353 0.73942393 -146.83583
10953300000 1.0350517 -41.730083 5.9666818e-005 27.640234 6.8439636e-005 -22.517908 0.73998332 -146.87485
10953334375 1.0340415 -41.796921 4.0008093e-005 32.740314 4.5990972e-005 -19.796442 0.73941833 -146.80888
10953368750 1.0345385 -41.761612 4.1957876e-005 56.109325 3.4415381e-005 15.953128 0.74015284 -146.85808
10953403125 1.0355852 -41.772278 6.0300994e-005 23.634346 6.5286709e-005 -30.543943 0.73945135 -146.83229
10953437500 1.0355604 -41.822674 3.2733689e-005 65.877304 7.761587e-005 17.055939 0.74005693 -146.91585
10953471875 1.0361998 -41.78083 3.6714428e-005 73.341812 3.0075033e-005 -16.296923 0.73915142 -146.8351
10953506250 1.0357039 -41.736801 3.9582992e-005 -13.657253 3.3359804e-005 37.489399 0.73906589 -146.82796
10953540625 1.0365429 -41.775574 4.3522115e-005 96.421051 7.396689e-005 -37.891338 0.73995805 -146.87009
10953575000 1.0365983 -41.770885 1.3390318e-005 75.873283 7.6435048e-005 -38.118523 0.74023503 -146.89096
10953609375 1.0362529 -41.738636 1.931296e-005 70.639763 5.8299171e-005 31.980661 0.7407009 -146.80865
10953643750 1.0337666 -41.77816 4.9359707e-005 2.1625373 6.0119233e-005 27.995039 0.74041116 -146.855
10953678125 1.0350783 -41.709187 2.7494631e-005 114.58121 5.2022053e-005 16.434212 0.74072337 -146.9131
10953712500 1.0340083 -41.728233 3.1912659e-005 103.4098 8.8778055e-005 -18.648188 0.73999745 -146.92535
10953746875 1.0360446 -41.743996 3.4842935e-005 44.252918 2.7365886e-005 33.144974 0.73968244 -146.92361
10953781250 1.035274 -41.804077 2.6037238e-005 -40.340637 5.1118099e-005 3.5980332 0.7394743 -146.82536
10953815625 1.0351071 -41.798595 6.6296387e-005 55.214714 2.4959387e-005 22.763014 0.73993468 -146.86668
10953850000 1.0358074 -41.854809 1.5024928e-005 31.296476 5.5211109e-005 -15.222624 0.73994815 -146.87575
10953884375 1.0357724 -41.803688 2.8261256e-005 65.61515 9.0915892e-005 29.394911 0.74072069 -146.88687
10953918750 1.0352409 -41.810455 3.7399346e-005 77.283218 7.7489e-005 -4.8624482 0.74049562 -146.97839
10953953125 1.0360577 -41.796509 6.3367865e-005 18.047838 9.0420494e-005 20.266674 0.73937327 -146.88347
10953987500 1.0358202 -41.80468 2.5032992e-005 -13.953117 7.9817051e-005 21.661331 0.7400679 -146.90196
10954021875 1.0359913 -41.788918 4.6588346e-005 27.193333 0.00010929656 -1.2612222 0.7391215 -146.94197
10954056250 1.035562 -41.780346 4.448921e-005 65.687218 0.0001016765 59.641964 0.73935252 -146.92433
10954090625 1.0356979 -41.825134 6.1067098e-005 36.244652 4.3547992e-005 -16.98365 0.73975545 -146.88612
10954125000 1.0357245 -41.825127 1.4239348e-005 41.860394 6.1401523e-005 76.020882 0.73961383 -146.98561
10954159375 1.0349911 -41.750275 1.7392458e-005 -0.037186775 7.4065552e-005 25.822786 0.7390691 -146.87785
10954193750 1.0345689 -41.738762 2.8361075e-005 -17.844589 8.4897343e-005 2.3886483 0.73873287 -146.88625
10954228125 1.0343711 -41.746662 1.9677038e-005 65.263069 3.9048053e-005 -13.537114 0.73917627 -146.9066
10954262500 1.0338802 -41.722389 3.1064217e-005 30.200863 0.00010352686 -18.766094 0.73901159 -147.01918
10954296875 1.034803 -41.765163 4.8936214e-005 59.989109 9.5987714e-005 12.147244 0.73934501 -146.98083
10954331250 1.0351795 -41.778263 5.1163668e-005 40.814274 5.8055535e-005 -7.9627748 0.73855954 -146.91957
10954365625 1.0360745 -41.826431 4.0887309e-005 31.198282 5.9356164e-005 18.379015 0.73962164 -146.90797
10954400000 1.0354462 -41.809402 2.9399014e-005 34.74107 5.6643006e-005 -23.435158 0.73925865 -146.92006
10954434375 1.0348307 -41.811054 4.3826727e-005 55.191036 6.6230197e-005 -1.8741248 0.73955393 -147.06927
10954468750 1.0351874 -41.751026 6.6123507e-006 121.23687 4.8131755e-005 53.730091 0.73849213 -147.06023
10954503125 1.0348897 -41.793941 1.9260437e-005 84.86544 8.6467218e-005 -15.68124 0.73906362 -146.99931
10954537500 1.034264 -41.807819 3.7458765e-005 32.732304 4.3917968e-005 -4.072628 0.73844063 -146.96753
10954571875 1.0347253 -41.778702 1.4492618e-005 143.02924 4.2596581e-005 -12.656932 0.73968536 -146.96773
10954606250 1.0349412 -41.76646 2.7392009e-005 56.571087 5.774551e-005 12.118516 0.73999006 -146.91898
10954640625 1.035476 -41.719715 1.5592072e-005 42.868057 8.5199361e-005 19.016506 0.73989558 -146.98094
10954675000 1.0351945 -41.678375 3.4022876e-005 -0.45554891 6.8663729e-005 -43.359734 0.738675 -146.97069
10954709375 1.0344748 -41.76223 4.7163478e-005 50.112076 2.7630344e-005 -11.627922 0.73860908 -146.92752
10954743750 1.0338172 -41.759502 4.8098464e-005 81.455437 1.8309278e-005 -25.726389 0.73826683 -146.91014
10954778125 1.0331602 -41.834793 1.9823816e-005 101.4812 2.8664979e-005 33.159225 0.73858416 -147.03764
10954812500 1.0339415 -41.845417 5.1212683e-005 71.989258 6.0568338e-005 -18.961519 0.73887128 -147.04926
10954846875 1.034798 -41.839016 1.9356436e-005 23.725145 2.494679e-005 -0.58041281 0.7384547 -147.09489
10954881250 1.0352952 -41.750988 4.3811608e-005 91.493507 7.7821773e-005 -6.9195409 0.73923224 -147.07533
10954915625 1.0355326 -41.799107 3.8790127e-005 18.617189 1.7797229e-005 -179.1335 0.73907298 -147.00507
10954950000 1.0343548 -41.778549 3.780219e-005 41.611538 6.1943465e-005 12.045011 0.73974049 -146.97964
10954984375 1.0347916 -41.731194 4.6996029e-005 46.094131 4.1317842e-005 68.338783 0.73890263 -147.01051
10955018750 1.0354961 -41.812126 4.3974833e-005 59.236599 5.8695703e-005 2.1881223 0.73951143 -147.01003
10955053125 1.0355083 -41.872173 4.8422095e-005 48.32774 6.9222806e-005 -8.6843338 0.73964798 -147.03778
10955087500 1.0352695 -41.728497 2.0726273e-005 105.79003 6.3759326e-005 27.011169 0.73976672 -147.07445
10955121875 1.0350565 -41.813755 3.8208036e-005 36.105614 5.6145233e-005 27.389576 0.73985076 -147.08583
10955156250 1.0341519 -41.894279 3.1119929e-005 76.949509 5.6208912e-005 9.4504461 0.73891741 -147.14561
10955190625 1.0344216 -41.841969 5.0033963e-005 28.797192 4.7967929e-005 5.2276287 0.73880798 -147.09369
10955225000 1.0352519 -41.816456 1.5738617e-005 48.80986 0.00010575141 28.050631 0.73836756 -147.05481
10955259375 1.0356562 -41.761944 5.2726896e-006 -75.613884 2.4862709e-005 2.2554989 0.73852843 -147.07997
10955293750 1.0356058 -41.748253 6.3536419e-005 56.185219 4.8410417e-005 -61.887894 0.73858464 -147.11479
10955328125 1.0351409 -41.768276 2.1004615e-005 49.670795 5.5474844e-005 21.140211 0.73864138 -147.07486
10955362500 1.0344262 -41.752926 3.4220611e-005 31.222124 5.1531249e-005 8.4395399 0.73879838 -147.1292
10955396875 1.0355574 -41.761929 4.0944222e-005 71.008736 3.2377917e-005 85.104111 0.739371 -147.14168
10955431250 1.03466 -41.826202 1.3085227e-006 -135.54779 4.1779727e-005 -0.29403624 0.73843712 -147.13686
10955465625 1.0339168 -41.845795 1.5702994e-005 44.460075 3.4580095e-005 -17.836973 0.73961651 -147.05083
10955500000 1.0351031 -41.938683 4.1873849e-005 76.795769 5.1612806e-005 10.772848 0.73861259 -146.96504
10955534375 1.0345707 -41.899654 4.7133701e-005 113.46157 6.5476394e-005 -14.049632 0.73831445 -147.03996
10955568750 1.0343046 -41.791485 3.7746871e-005 65.124077 3.6126741e-005 -12.182758 0.73869246 -147.10809
10955603125 1.0342563 -41.810253 4.1050989e-005 53.093418 6.3496758e-005 64.881218 0.73943335 -147.06364
10955637500 1.0356663 -41.812759 6.4031214e-005 73.121841 3.102377e-005 25.032911 0.73826998 -147.06372
10955671875 1.0346423 -41.742069 5.1143939e-005 45.002357 5.1453415e-005 9.0094414 0.73990607 -147.15422
10955706250 1.0363946 -41.778671 4.4239358e-005 75.416771 4.5073546e-005 2.823447 0.73802847 -147.1955
10955740625 1.0352871 -41.72617 2.4458659e-005 81.542641 4.3310367e-005 44.424088 0.73853534 -147.17929
10955775000 1.0348408 -41.892269 6.8669738e-006 -61.528824 5.9511698e-005 37.523083 0.7386722 -147.12892
10955809375 1.0355331 -41.896725 3.9164253e-005 64.942154 3.761661e-005 -4.0750265 0.73841166 -147.11288
10955843750 1.0346467 -41.872185 1.7657872e-005 108.8361 3.7502672e-005 39.77042 0.73829174 -147.21643
10955878125 1.0347937 -41.852921 3.180997e-005 69.89415 6.6339453e-005 21.806919 0.73866141 -147.15053
10955912500 1.0356882 -41.813011 3.2950313e-005 8.7063437 4.9559287e-005 3.5132709 0.73813748 -147.15707
10955946875 1.034309 -41.786739 1.1316722e-005 81.040352 6.3250656e-005 32.187572 0.73879671 -147.14767
10955981250 1.0346491 -41.895943 3.2143551e-005 93.08625 6.1984996e-005 25.77022 0.73903781 -147.06313
10956015625 1.033855 -41.836731 1.9166431e-005 61.693165 3.9310202e-005 14.723616 0.73901463 -147.16351
10956050000 1.0345858 -41.850941 2.2427068e-005 21.541739 4.7334557e-005 32.370689 0.73914158 -147.19701
10956084375 1.033874 -41.819469 3.1185737e-005 32.401791 6.8599591e-005 31.786711 0.73919618 -147.21346
10956118750 1.0348148 -41.787796 2.4561034e-005 52.176659 3.9424409e-005 -57.485325 0.73954684 -147.17075
10956153125 1.0345149 -41.754009 4.0628853e-005 59.250546 8.1756654e-005 13.353233 0.73964661 -147.20723
10956187500 1.0353911 -41.821182 3.2356842e-005 57.912395 2.9154642e-005 -22.933172 0.73870963 -147.121
10956221875 1.0366442 -41.812813 1.8376608e-005 83.927902 2.9320592e-005 63.33466 0.73844117 -147.19518
10956256250 1.0353643 -41.825615 3.6027777e-005 54.714581 6.2522224e-005 38.534908 0.73788023 -147.16258
10956290625 1.0358177 -41.761906 2.6733673e-005 54.903511 2.480588e-005 79.68222 0.73829091 -147.23232
10956325000 1.0349942 -41.745075 5.0035927e-005 31.060596 5.1316518e-005 18.176714 0.73901802 -147.19508
10956359375 1.0351201 -41.771095 3.4149271e-005 68.073891 2.5980855e-005 34.642056 0.73805594 -147.19884
