!Agilent Technologies,E8362C,MY49020356,A.09.42.23
!Agilent E8362C: A.09.42.23
!Date: Saturday, September 11, 2021 01:49:26
!Correction: S11(Full 2 Port(1,2)) 
!S21(Full 2 Port(1,2)) 
!S12(Full 2 Port(1,2)) 
!S22(Full 2 Port(1,2)) 
!S2P File: Measurements: S11, S21, S12, S22:
# Hz S  MA   R 50
11000000000 0.86186749 -111.89308 5.2509895e-005 111.1798 7.4295049e-006 104.94801 1.1053333 -37.475128
11000078125 0.86163902 -112.03302 3.8518163e-005 81.577042 4.0920539e-005 -152.93864 1.1057932 -37.562729
11000156250 0.86203539 -111.99416 4.6586494e-005 106.47216 8.745605e-005 133.07465 1.1036814 -37.470238
11000234375 0.86042386 -112.02869 2.898805e-005 123.81928 2.1290798e-005 81.550003 1.1058908 -37.597397
11000312500 0.86159247 -112.03429 4.3157856e-005 111.18988 3.059068e-005 141.76147 1.1067673 -37.356209
11000390625 0.86237681 -112.03661 2.9982908e-005 -99.82357 6.9889211e-005 93.146912 1.105549 -37.492908
11000468750 0.86107022 -112.18137 5.7211058e-005 -174.99901 0.0001276173 155.8091 1.1024295 -37.466526
11000546875 0.86062914 -112.08262 9.6007698e-006 97.003517 4.1629995e-005 135.08176 1.1021618 -37.533195
11000625000 0.86147547 -112.03761 6.795158e-005 71.174515 8.0422069e-005 140.97614 1.1060158 -37.486092
11000703125 0.8610971 -112.07332 2.497612e-005 162.36053 3.4985973e-005 171.65794 1.1057396 -37.605442
11000781250 0.86055803 -112.04897 3.2649539e-005 145.80638 5.3422122e-005 -172.56886 1.1050233 -37.44495
11000859375 0.86079198 -112.07131 5.4471733e-005 161.14415 3.6192792e-005 164.69926 1.1037729 -37.493267
11000937500 0.85957652 -112.0648 2.1394935e-005 -150.23256 8.0367645e-005 117.96381 1.1056917 -37.549671
11001015625 0.86036092 -112.11677 1.3914702e-005 170.0081 3.7641665e-005 -153.92503 1.1033385 -37.502827
11001093750 0.85975677 -112.09158 2.8851402e-005 -39.72723 2.9925865e-005 163.41388 1.1053678 -37.530079
11001171875 0.86042172 -112.14948 3.4370201e-005 124.88172 4.8218415e-005 140.16385 1.1063424 -37.397797
11001250000 0.85846758 -112.21229 3.5915855e-005 159.66779 4.4675999e-005 157.00702 1.1041154 -37.490379
11001328125 0.85991102 -112.23193 1.4353416e-005 -156.62846 4.4515247e-005 121.69521 1.1049052 -37.598904
11001406250 0.86095542 -112.13686 3.9745282e-005 -145.19255 7.1747585e-005 138.17076 1.1046 -37.560795
11001484375 0.85946602 -112.15513 3.6120127e-005 169.49907 9.8288787e-005 104.41647 1.1051507 -37.535149
11001562500 0.8598243 -112.11693 2.6399959e-005 -147.37947 3.9603896e-005 89.84761 1.1057314 -37.428455
11001640625 0.86074197 -112.0543 4.0631825e-005 159.0948 7.3250696e-005 153.89572 1.1049612 -37.503719
11001718750 0.85862499 -112.21548 7.8455269e-006 172.02248 2.0616619e-005 -143.95967 1.1028922 -37.549541
11001796875 0.86061251 -112.03256 1.19588e-005 -174.82253 6.3394822e-005 96.346703 1.1029801 -37.571465
11001875000 0.85915631 -112.08801 2.6773829e-005 84.774696 2.7495709e-005 -151.03833 1.1053201 -37.552086
11001953125 0.85931897 -112.25311 3.8339345e-005 143.70245 1.1702369e-005 -86.568283 1.1046743 -37.517994
11002031250 0.86025089 -112.24886 1.7712289e-005 -85.661766 3.566486e-005 172.35315 1.1053773 -37.563568
11002109375 0.85779703 -112.1661 2.4395227e-005 110.46401 2.4624578e-005 79.326553 1.1061664 -37.533401
11002187500 0.86111575 -112.23621 3.5405777e-005 90.347649 2.0078631e-005 132.38089 1.1056749 -37.474075
11002265625 0.85836989 -112.17421 4.9265611e-005 163.30232 1.0200207e-005 -79.734779 1.1022213 -37.479115
11002343750 0.85920137 -112.20833 4.715718e-005 133.67348 2.9407358e-005 -132.0676 1.1047484 -37.510559
11002421875 0.8595047 -112.22701 1.6846125e-005 0.92876339 3.9574188e-005 73.38797 1.1014031 -37.566978
11002500000 0.85983866 -112.24712 4.7404523e-005 72.354248 3.8094233e-005 133.52206 1.1053785 -37.417698
11002578125 0.86014152 -112.15556 7.9792226e-006 23.085405 9.0535163e-005 105.0584 1.1041167 -37.493839
11002656250 0.86010188 -112.25131 9.7317361e-006 -154.84972 5.3529406e-005 97.584496 1.1051722 -37.530628
11002734375 0.85844171 -112.22529 1.244193e-005 -80.003525 4.6882327e-005 140.61331 1.1044701 -37.560295
11002812500 0.86047709 -112.29909 5.3148877e-005 129.22374 3.0660089e-005 103.86005 1.103502 -37.557449
11002890625 0.86061418 -112.31934 3.5121513e-005 81.748093 2.6887821e-005 150.24513 1.1002197 -37.565178
11002968750 0.85877925 -112.27687 1.1600849e-005 -135.13017 5.9435024e-005 -49.275723 1.1049433 -37.406818
11003046875 0.85880804 -112.24242 2.9381428e-005 110.24962 8.3203966e-005 55.985157 1.1045814 -37.622948
11003125000 0.85920829 -112.26203 3.8545819e-005 54.021439 3.3852841e-005 165.45984 1.1023024 -37.610046
11003203125 0.85832292 -112.26989 2.0146777e-005 -137.08266 5.271464e-005 89.275513 1.1065875 -37.660172
11003281250 0.85923481 -112.22451 4.1029642e-005 74.914619 6.1308296e-005 131.8309 1.1055273 -37.589287
11003359375 0.85894811 -112.32102 2.0738391e-005 -51.063297 4.7354806e-005 162.89711 1.1049597 -37.561451
11003437500 0.85899734 -112.22321 4.4717857e-005 58.830948 3.4360113e-005 23.224594 1.1047394 -37.559013
11003515625 0.85880125 -112.36941 1.6793027e-005 56.458858 4.392345e-005 -151.81841 1.106208 -37.476719
11003593750 0.8577773 -112.28363 2.2681748e-005 -157.2025 1.3136117e-005 97.790726 1.105859 -37.48938
11003671875 0.85945994 -112.27077 2.942257e-005 102.94067 4.3391545e-005 172.7037 1.103402 -37.614063
11003750000 0.85886186 -112.34327 2.2353081e-005 117.68467 2.3376513e-005 32.304115 1.1061388 -37.546608
11003828125 0.85833377 -112.24152 5.1429532e-005 -104.82932 8.6920372e-006 -27.866655 1.1034315 -37.576332
11003906250 0.85917413 -112.35079 4.0232335e-005 119.04946 5.4182237e-005 130.21535 1.1040903 -37.54018
11003984375 0.85892171 -112.27864 2.5705138e-005 -109.85828 2.3707227e-005 74.269821 1.1056169 -37.531467
11004062500 0.85862112 -112.36206 2.7116679e-005 125.09214 2.3256353e-005 150.14885 1.1051922 -37.584576
11004140625 0.85785234 -112.35413 1.0691707e-005 126.7314 4.2308809e-005 -101.27919 1.106472 -37.506634
11004218750 0.85929525 -112.32617 2.4067822e-005 -110.82079 5.8874546e-005 143.48691 1.1048952 -37.53503
11004296875 0.85897154 -112.31782 1.0704377e-005 -142.95387 6.1275559e-006 -98.413956 1.1052748 -37.474339
11004375000 0.85851467 -112.30707 3.3570981e-005 59.6875 5.8290232e-005 105.00675 1.1035769 -37.520027
11004453125 0.85831082 -112.31476 4.2806067e-005 92.940422 9.5457217e-006 -2.6732521 1.106552 -37.560638
11004531250 0.85893786 -112.30179 8.5924503e-006 132.41898 4.33686e-006 127.10713 1.1068606 -37.53157
11004609375 0.85816991 -112.32475 4.603538e-005 -59.297161 3.2850414e-005 29.455631 1.1073507 -37.648697
11004687500 0.85778582 -112.33585 3.1261199e-005 -19.733242 3.5434172e-005 -35.66478 1.1061913 -37.528252
11004765625 0.85858601 -112.43037 2.9896202e-005 -67.191864 7.2488518e-005 71.674477 1.1046205 -37.520828
11004843750 0.85892773 -112.29343 2.6980735e-005 -149.25258 2.7983355e-005 -40.007137 1.1061306 -37.585838
11004921875 0.85987586 -112.33615 3.0854237e-005 165.46173 1.1799495e-005 -35.098816 1.1050127 -37.500217
11005000000 0.85972637 -112.38435 2.5773759e-005 -54.587723 6.203747e-005 119.09914 1.1062394 -37.554104
11005078125 0.86061686 -112.33024 1.1527056e-005 -58.302086 1.3721101e-005 -17.348284 1.105827 -37.534523
11005156250 0.85769963 -112.42315 1.7477549e-005 41.180546 1.2777149e-005 73.502022 1.1057606 -37.569221
11005234375 0.85940725 -112.41798 3.9287457e-005 -11.508774 3.0673153e-005 143.94403 1.1058873 -37.646637
11005312500 0.85902464 -112.28463 3.5154735e-005 153.26866 1.2635738e-005 132.3327 1.1047485 -37.590595
11005390625 0.85908473 -112.41886 2.2557002e-005 -122.11649 4.3456275e-006 -141.36758 1.1053753 -37.534176
11005468750 0.85775656 -112.34713 2.297567e-005 -44.115292 1.5226438e-005 -164.67624 1.1065022 -37.395706
11005546875 0.85842621 -112.35185 3.3881861e-005 -31.694307 3.7255297e-005 140.41682 1.1056987 -37.474571
11005625000 0.85946244 -112.40366 2.4344068e-005 -90.2565 3.7879086e-005 -160.33769 1.1059362 -37.531612
11005703125 0.86089587 -112.42124 2.9619407e-005 -110.23534 6.0515122e-005 95.568245 1.1045734 -37.430897
11005781250 0.85881782 -112.37067 1.3645074e-005 -92.515907 4.406894e-005 -159.11807 1.1053578 -37.554745
11005859375 0.85998887 -112.40842 4.2585369e-005 -100.08344 1.4061125e-005 -170.1953 1.1042656 -37.626801
11005937500 0.85919946 -112.37455 2.0897902e-005 -119.26394 3.8749491e-005 -125.36124 1.1043334 -37.537292
11006015625 0.85968012 -112.42666 3.1480256e-005 -178.69182 4.4977576e-005 90.642052 1.1063243 -37.648895
11006093750 0.85926634 -112.29987 9.7273496e-006 -103.02881 2.7551005e-006 21.632448 1.1039604 -37.461227
11006171875 0.85966128 -112.36189 5.1882744e-005 -165.37955 3.0247804e-005 -19.57548 1.1036388 -37.551983
11006250000 0.85877365 -112.31019 4.4253069e-005 -174.17061 6.5967346e-005 137.82736 1.1045845 -37.551235
11006328125 0.85940343 -112.33657 1.4283321e-005 -48.490887 3.805837e-005 37.928558 1.1060972 -37.540718
11006406250 0.85754037 -112.39603 2.9947483e-005 -86.620033 2.845059e-005 105.22334 1.1048815 -37.520985
11006484375 0.859909 -112.41541 9.5875239e-006 158.39749 2.9781766e-005 -89.446518 1.1070415 -37.474976
11006562500 0.85766488 -112.38692 3.6663863e-005 -111.47818 4.3649184e-006 -49.149471 1.1054207 -37.57011
11006640625 0.85931587 -112.38544 3.4362714e-005 -141.99519 2.3603754e-005 -52.062241 1.1055293 -37.494995
11006718750 0.85874009 -112.33167 3.3538763e-005 -93.017227 2.5361236e-005 -44.831196 1.1049049 -37.537418
11006796875 0.86031741 -112.42889 4.0303665e-005 -77.350838 4.3304379e-005 139.41772 1.1059476 -37.572571
11006875000 0.8591665 -112.46529 2.959664e-005 -96.765854 4.3665773e-006 -138.58202 1.1033094 -37.684517
11006953125 0.86037362 -112.43903 5.2393585e-005 -163.03548 3.5317935e-005 -106.97968 1.104975 -37.60231
11007031250 0.85839862 -112.41195 0 90 2.7082375e-005 80.986908 1.1069862 -37.463848
11007109375 0.85931128 -112.44115 3.0715004e-005 97.692627 1.8245939e-005 -126.82597 1.1041337 -37.4286
11007187500 0.86024284 -112.42009 3.1369935e-005 -34.818542 6.1320141e-005 -38.071022 1.1061295 -37.545471
11007265625 0.86000097 -112.38268 1.4395273e-005 163.1703 3.8752005e-005 -95.025101 1.1050606 -37.598576
11007343750 0.85859615 -112.40533 2.0719022e-005 -132.28085 1.5938327e-005 148.29893 1.1057804 -37.56712
11007421875 0.86083275 -112.43327 1.4661938e-005 -170.32037 3.6683363e-005 -11.724676 1.104512 -37.5033
11007500000 0.85944563 -112.46651 3.8500952e-005 -143.51016 5.3032862e-005 136.42004 1.1047521 -37.55331
11007578125 0.85858375 -112.47704 2.5980637e-005 -29.847336 2.6667969e-005 -37.717186 1.1062045 -37.616863
11007656250 0.85916477 -112.46026 3.8844097e-005 -99.582443 3.7176989e-005 51.202801 1.1051608 -37.563416
11007734375 0.8600316 -112.5361 1.7862336e-005 -119.4481 4.2511951e-005 -95.583527 1.1058667 -37.56538
11007812500 0.85914069 -112.50544 2.8870736e-005 77.559296 1.3843533e-005 -28.27906 1.104341 -37.495457
11007890625 0.85884356 -112.52528 3.5662242e-006 -135.10611 2.8077529e-005 -32.043728 1.1058739 -37.506145
11007968750 0.86027104 -112.51604 3.8594688e-005 -78.716171 6.0834114e-005 -109.81844 1.1049681 -37.561409
11008046875 0.85888553 -112.53904 3.644418e-005 -118.37744 4.5827572e-005 -119.53728 1.1060311 -37.516136
11008125000 0.85937428 -112.51372 1.1619742e-005 -124.15713 6.5905617e-005 171.7252 1.1042436 -37.479469
11008203125 0.86047834 -112.45456 3.4276858e-005 -135.57135 4.824395e-005 44.082733 1.1051079 -37.584118
11008281250 0.85927558 -112.48895 1.1286186e-005 170.38982 3.4330507e-005 -78.235817 1.1043894 -37.553703
11008359375 0.85811865 -112.57541 1.4248759e-005 45.785202 2.5798272e-005 152.1893 1.1051859 -37.599895
11008437500 0.85895067 -112.53658 2.8192597e-005 -82.293114 2.1248788e-005 -52.538685 1.1057141 -37.592426
11008515625 0.85984379 -112.50935 1.5715714e-005 -173.23323 3.2645399e-005 -152.64572 1.105406 -37.638634
11008593750 0.86086732 -112.58462 1.0383837e-005 -84.508324 8.1042581e-006 -94.498695 1.1056648 -37.574226
11008671875 0.86024451 -112.43084 2.9700708e-005 -166.17566 1.0594405e-005 -130.18285 1.1071223 -37.50502
11008750000 0.86145031 -112.51758 3.0008237e-005 -171.43773 9.871058e-006 155.87859 1.1049826 -37.537766
11008828125 0.86066973 -112.56316 2.6177602e-005 125.72552 5.7641093e-005 -99.321991 1.1052104 -37.562477
11008906250 0.8604241 -112.64181 3.1680273e-005 24.45933 0.00010485046 -170.14154 1.1057829 -37.632698
11008984375 0.85954422 -112.56186 3.6872534e-005 168.71501 1.5998243e-005 -97.264954 1.1040401 -37.469013
11009062500 0.86030388 -112.5769 2.4645966e-005 -131.03653 6.7847774e-005 -124.66364 1.1054724 -37.55529
11009140625 0.85983515 -112.62747 5.6674253e-005 -51.235909 3.5596517e-005 111.6813 1.1049957 -37.631477
11009218750 0.86053139 -112.64752 3.5696259e-005 137.73384 4.8429934e-005 149.71048 1.1048712 -37.526505
11009296875 0.86014503 -112.56361 6.6357636e-005 -140.82404 2.7866767e-005 -139.24553 1.1068769 -37.492142
11009375000 0.86137187 -112.72687 3.2977862e-006 -119.45863 3.3554712e-005 -110.508 1.1054909 -37.519875
11009453125 0.86039239 -112.57438 4.5364199e-005 -166.91129 2.9118279e-005 139.08049 1.105395 -37.531727
11009531250 0.86109316 -112.63021 5.7638412e-005 -101.14268 1.2457317e-005 144.57289 1.1060495 -37.676384
11009609375 0.86129063 -112.6676 4.3250628e-005 -71.342941 4.5867935e-005 81.867188 1.1064523 -37.555286
11009687500 0.86043352 -112.7026 3.1984066e-005 168.16084 4.1698222e-005 -114.67923 1.1032839 -37.54781
11009765625 0.85955858 -112.70444 4.6335492e-005 163.3739 3.1825955e-005 141.85017 1.1060618 -37.525555
11009843750 0.8595624 -112.64904 3.6895344e-005 -143.1899 1.3683639e-005 -46.625916 1.1039953 -37.640518
11009921875 0.85976499 -112.66534 2.8898607e-005 172.11484 3.3529494e-005 135.92429 1.1052866 -37.479748
11010000000 0.86045671 -112.77352 3.1546333e-005 -120.31383 7.7302691e-005 126.30812 1.1058567 -37.461021
11010078125 0.86030471 -112.77283 2.4983259e-005 -143.79843 4.1426691e-005 -170.48981 1.104075 -37.570232
11010156250 0.86151642 -112.6666 5.1795461e-005 -155.69659 5.643049e-005 78.356209 1.1056387 -37.572182
11010234375 0.85958308 -112.62218 4.6691166e-005 -170.56342 4.0400548e-005 -148.5571 1.1029787 -37.508049
11010312500 0.86032772 -112.66809 3.4814733e-005 -156.76144 2.0328984e-005 51.839165 1.1054924 -37.540535
11010390625 0.85969728 -112.73319 3.4057841e-005 -119.634 2.3686367e-005 164.71927 1.1061482 -37.626072
11010468750 0.85978508 -112.76946 2.439604e-005 178.21938 3.595512e-005 -174.06956 1.1059834 -37.475418
11010546875 0.85984755 -112.80482 2.0747173e-005 -170.40619 1.5942809e-005 -75.137871 1.1070881 -37.495113
11010625000 0.86058271 -112.74895 3.5120014e-005 -104.11355 4.372394e-005 -123.22881 1.1049849 -37.478317
11010703125 0.86149937 -112.68001 4.9014641e-005 -173.65791 3.9681556e-005 94.199768 1.1062465 -37.59671
11010781250 0.86096966 -112.74692 3.8575901e-005 107.18105 2.0340651e-005 179.4566 1.1050481 -37.559883
11010859375 0.86015999 -112.83206 3.4835386e-005 -118.3218 1.2664632e-005 -65.792763 1.1062332 -37.529427
11010937500 0.85871929 -112.75892 2.4262627e-005 -78.893547 2.1671038e-005 -38.554291 1.1054617 -37.646236
11011015625 0.86030734 -112.7938 2.0721685e-005 168.08534 2.6582667e-005 -151.85831 1.1050115 -37.463566
11011093750 0.86090279 -112.75751 3.1294639e-005 162.44049 3.4222936e-005 176.12021 1.1075692 -37.450638
11011171875 0.86123365 -112.83701 5.8094571e-005 -154.3835 8.4387329e-006 96.82486 1.1056664 -37.632721
11011250000 0.85945219 -112.82316 1.9263507e-005 -167.1011 1.1183693e-005 -148.5455 1.105399 -37.466084
11011328125 0.86136973 -112.74039 5.2416741e-005 -153.59175 2.4843435e-005 143.12202 1.1073849 -37.549469
11011406250 0.86108691 -112.86581 2.2663322e-005 -91.128563 2.2601811e-005 -164.39226 1.106812 -37.48241
11011484375 0.86093473 -112.90065 3.1613567e-005 -146.08098 9.1276315e-006 154.39816 1.1059855 -37.453484
11011562500 0.8603552 -112.78711 2.3211001e-005 165.19341 3.9573206e-005 -161.36191 1.1064715 -37.478775
11011640625 0.86017203 -112.90334 1.940722e-005 -81.542633 2.3758543e-005 79.439735 1.1058084 -37.543446
11011718750 0.86083221 -112.87588 2.0441928e-005 100.04814 2.851655e-005 -123.11479 1.1052703 -37.500481
11011796875 0.85994852 -112.83987 4.7828824e-005 167.8035 1.6832704e-005 -164.61273 1.1057584 -37.556133
11011875000 0.86027968 -112.98385 5.1043444e-005 -114.75955 4.3438467e-005 22.427284 1.1066139 -37.510616
11011953125 0.86051542 -112.87949 4.494263e-005 -125.20396 4.652554e-005 167.58687 1.1047903 -37.595707
11012031250 0.86185133 -112.85205 3.9308594e-005 -152.35585 3.1089232e-005 -132.69804 1.1046822 -37.514515
11012109375 0.85969186 -112.96158 3.7800546e-005 -127.30519 3.6519214e-005 90.563591 1.105877 -37.50536
11012187500 0.85985202 -112.88205 1.3716543e-005 -135.02077 5.9347534e-005 -177.35295 1.1054072 -37.546703
11012265625 0.86009818 -112.91306 2.6628111e-005 131.61517 3.3284716e-005 -155.11453 1.1054585 -37.501186
11012343750 0.86152583 -112.89368 3.6752215e-005 -133.55975 1.0350194e-005 -174.81599 1.1050091 -37.545952
11012421875 0.86017132 -112.97446 5.8509773e-005 -130.18317 3.6568817e-005 21.496019 1.1047062 -37.50993
11012500000 0.86091065 -112.96957 2.3620505e-005 138.40291 1.9153402e-005 10.025767 1.1059234 -37.531441
11012578125 0.86108106 -112.9632 5.2686493e-005 -156.63934 2.5399942e-005 -70.511574 1.1101865 -37.555553
11012656250 0.86035693 -112.97621 5.3526717e-005 -145.41176 3.4650067e-005 155.74785 1.1057824 -37.486591
11012734375 0.85964483 -112.91964 8.1240514e-006 -177.02957 3.4812692e-005 -170.75858 1.1060699 -37.463337
11012812500 0.85987997 -112.96774 6.0479644e-005 -98.987267 1.6019976e-005 109.11124 1.106096 -37.410152
11012890625 0.86125576 -112.97937 1.6274549e-005 -86.540886 6.364446e-005 130.88065 1.1073822 -37.492092
11012968750 0.8602618 -113.06486 4.4093002e-005 -138.50124 3.3780641e-005 167.9091 1.1053567 -37.532009
11013046875 0.86099517 -113.01631 2.5164791e-005 137.56027 2.9309382e-005 141.38303 1.1059455 -37.52507
11013125000 0.86089647 -112.92786 1.723843e-005 -153.9151 6.0824674e-005 141.59988 1.105119 -37.573814
11013203125 0.86006123 -113.03214 4.6610323e-005 145.17154 6.296084e-005 175.45808 1.1083903 -37.496765
11013281250 0.86075294 -113.05678 2.3090744e-005 -143.70805 3.5815028e-005 83.459496 1.105616 -37.543049
11013359375 0.86022383 -112.99516 2.363259e-005 -129.76062 1.6019199e-005 177.41714 1.1042739 -37.591206
11013437500 0.86235529 -113.1076 4.7047812e-005 121.91911 3.9416645e-005 -148.53416 1.1057096 -37.417122
11013515625 0.8599636 -112.96107 4.3044834e-005 -135.69508 4.8098424e-005 -164.98508 1.1070074 -37.445011
11013593750 0.86225396 -113.00779 2.9365781e-005 160.89424 4.2207816e-005 162.55418 1.107226 -37.685474
11013671875 0.86092705 -113.06133 8.5016836e-005 -158.02649 4.4597171e-005 101.81866 1.1046236 -37.497131
11013750000 0.86007112 -113.0691 6.5062937e-005 -108.25902 4.7632886e-005 -165.48958 1.1059422 -37.456741
11013828125 0.86077565 -113.06716 3.141976e-005 -126.6275 1.0779946e-005 -42.634777 1.10719 -37.634773
11013906250 0.86114538 -112.99699 3.3026536e-005 -166.20821 3.7964121e-005 165.38559 1.1059594 -37.513706
11013984375 0.8603496 -113.10661 2.3964958e-005 -111.20646 3.3941942e-005 151.01605 1.1061519 -37.463142
11014062500 0.85870689 -112.95706 3.7688231e-005 -123.24119 3.3029177e-005 -172.69304 1.1056187 -37.567486
11014140625 0.860416 -113.1214 3.3896711e-005 165.09473 3.5619101e-005 148.80737 1.1052883 -37.517838
11014218750 0.861561 -113.20691 1.6626662e-005 -168.66216 3.6774312e-005 -98.082222 1.1056378 -37.577606
11014296875 0.86011934 -113.10903 3.240737e-005 -131.29257 5.6478963e-005 -108.07026 1.103452 -37.490417
11014375000 0.86021274 -113.28037 7.8016135e-005 -164.76257 4.0265499e-005 -106.39633 1.1068746 -37.62648
