!Agilent Technologies,E8362C,MY49020356,A.09.42.23
!Agilent E8362C: A.09.42.23
!Date: Saturday, September 11, 2021 04:16:53
!Correction: S11(Full 2 Port(1,2)) 
!S21(Full 2 Port(1,2)) 
!S12(Full 2 Port(1,2)) 
!S22(Full 2 Port(1,2)) 
!S2P File: Measurements: S11, S21, S12, S22:
# Hz S  MA   R 50
10950000000 0.7318688 -154.10019 1.7992097e-005 -150.5192 4.9335954e-006 -39.898163 1.0553062 -36.62022
10950034375 0.73201203 -154.15904 3.5173271e-005 23.958031 1.3807072e-005 15.308514 1.0539542 -36.613045
10950068750 0.7311222 -154.17224 4.5992605e-005 16.451965 8.8911283e-006 -110.43105 1.0546405 -36.587395
10950103125 0.73124111 -154.11694 2.2493046e-005 -2.2674005 1.2444581e-005 -90.418472 1.0550545 -36.602798
10950137500 0.73098135 -154.15239 2.3519642e-005 45.719456 6.0735792e-006 -103.22669 1.055814 -36.623863
10950171875 0.73105669 -154.26941 6.2335748e-005 -95.433876 2.2253704e-005 84.087135 1.0554652 -36.635525
10950206250 0.73163211 -154.22035 2.5734833e-005 -120.58002 5.0914255e-006 -115.58709 1.0555431 -36.667114
10950240625 0.73198515 -154.24866 4.3030406e-005 51.862247 5.5182441e-006 130.0851 1.0543259 -36.636932
10950275000 0.73264182 -154.14474 1.0158408e-005 87.116661 5.7677535e-006 150.40242 1.0551599 -36.61739
10950309375 0.73205227 -154.16389 1.1671916e-005 70.339798 1.019249e-005 36.577168 1.0547476 -36.596127
10950343750 0.73203576 -154.03348 7.2342242e-005 -142.91544 9.5121168e-006 -138.30518 1.0547898 -36.634697
10950378125 0.73185486 -154.04965 2.1752103e-005 -9.0840416 3.0428548e-005 52.605843 1.055354 -36.569958
10950412500 0.73054796 -154.0563 6.7313733e-005 44.164841 6.7299034e-006 -112.01403 1.0558416 -36.549393
10950446875 0.73173016 -154.18326 2.102862e-005 -53.027592 1.9197179e-005 -61.161053 1.0560173 -36.707596
10950481250 0.73170096 -154.10033 4.4667879e-005 72.065147 2.9184663e-005 -77.82798 1.0533803 -36.628857
10950515625 0.73241717 -154.20441 3.0009876e-005 -44.01199 1.1076161e-005 24.543531 1.054635 -36.648621
10950550000 0.73243493 -154.17323 3.1891017e-005 -146.5757 3.460062e-005 -18.740089 1.0557909 -36.65266
10950584375 0.73138493 -154.22398 1.4446007e-005 28.662319 2.1864576e-005 -3.4164197 1.0547065 -36.664703
10950618750 0.73094672 -154.10861 1.132364e-005 130.20828 9.1364109e-006 1.8991414 1.05433 -36.663738
10950653125 0.73156226 -154.10901 3.6016809e-005 74.260063 2.3884037e-005 -80.285866 1.0554639 -36.641735
10950687500 0.73057032 -154.06073 4.0731105e-005 -18.817095 1.4634928e-005 115.20192 1.0548844 -36.674046
10950721875 0.7316947 -154.16859 1.9533432e-005 7.6971145 2.0526542e-005 -173.0387 1.0554857 -36.646538
10950756250 0.73134708 -154.15407 2.2110084e-005 -160.81863 8.2435563e-006 -144.21449 1.0543255 -36.650654
10950790625 0.73147172 -154.15712 4.8704653e-005 -66.135735 4.1095904e-005 -120.70961 1.0550343 -36.619675
10950825000 0.73068148 -154.1498 4.4630979e-005 -6.1072183 1.7241475e-005 -26.706001 1.0541183 -36.713387
10950859375 0.73105967 -154.19572 2.9051327e-005 -108.56384 1.8047327e-005 -157.84258 1.0554683 -36.637363
10950893750 0.7318728 -154.1601 2.3103796e-005 104.51617 3.5329158e-005 -24.283632 1.055281 -36.69894
10950928125 0.73207235 -154.14513 7.1970615e-005 -13.006401 2.8347689e-005 36.597965 1.0557293 -36.654865
10950962500 0.73241043 -154.0786 1.2994678e-005 -81.711388 2.7818855e-006 131.59584 1.0562249 -36.646015
10950996875 0.7312333 -154.22142 4.0118812e-005 -2.9540536 2.5026258e-005 -122.28623 1.0562924 -36.675762
10951031250 0.73124224 -154.2123 5.2116633e-005 -7.6722441 1.4947225e-005 -74.775452 1.0562329 -36.688862
10951065625 0.73214316 -154.2187 2.7841068e-005 -128.51724 8.6392665e-006 -26.170979 1.0563278 -36.687969
10951100000 0.73161 -154.22003 2.7331071e-006 26.785976 8.1076905e-006 -175.09721 1.0563173 -36.638245
10951134375 0.73111308 -154.16147 6.3898835e-005 -43.111408 2.3389739e-005 -102.34621 1.0556158 -36.675812
10951168750 0.73167944 -154.22438 3.2890992e-005 68.576271 2.7200131e-005 -41.637581 1.0555599 -36.659374
10951203125 0.73196357 -154.25993 2.3892619e-005 -122.06395 1.1127605e-005 -63.94249 1.0554975 -36.674812
10951237500 0.73230368 -154.27629 2.5598305e-005 82.947327 3.0806434e-005 -51.186298 1.0563029 -36.606224
10951271875 0.7320475 -154.19698 3.4834291e-005 -104.6237 3.7087691e-005 -92.842705 1.0553378 -36.64043
10951306250 0.73187798 -154.19637 6.6457731e-005 22.084389 1.4855028e-005 -113.54079 1.0540617 -36.661766
10951340625 0.73190433 -154.18091 4.832133e-005 100.98167 8.1104745e-006 -84.582024 1.0546552 -36.683483
10951375000 0.73160255 -154.17455 6.7436253e-005 -107.5775 1.6494834e-005 -162.2097 1.0566785 -36.694221
10951409375 0.73175675 -154.21991 7.0187907e-006 88.422668 3.1584481e-005 -82.982582 1.0564104 -36.645725
10951443750 0.7318579 -154.22322 6.9506027e-006 38.847954 3.7823807e-005 -47.556507 1.0564095 -36.626366
10951478125 0.73160589 -154.29349 4.8447608e-005 -0.10043008 1.3047049e-005 -120.20135 1.0552003 -36.647987
10951512500 0.73266 -154.32513 3.1244679e-005 81.48719 1.9093754e-005 -16.819168 1.0553509 -36.665398
10951546875 0.7319212 -154.29028 4.8280719e-005 101.21233 7.7603854e-006 49.645962 1.0563225 -36.657455
10951581250 0.73201007 -154.23843 5.6965851e-005 -1.6201924 1.4302559e-005 -151.30762 1.0552242 -36.711258
10951615625 0.73182952 -154.17593 2.7540578e-005 -95.159401 1.1067683e-005 35.070992 1.0556079 -36.670841
10951650000 0.732198 -154.26329 6.2835235e-005 -57.135628 1.7478005e-005 -107.12103 1.0553931 -36.588127
10951684375 0.73171163 -154.29607 2.1923377e-005 35.030113 1.4024337e-005 -71.130867 1.056082 -36.622444
10951718750 0.73203021 -154.31697 3.1319367e-005 0.87684846 1.7047641e-005 -76.455658 1.0558667 -36.615776
10951753125 0.73131013 -154.25639 4.7997943e-005 -49.681217 2.8698294e-005 -42.647026 1.0559808 -36.59333
10951787500 0.73163003 -154.29678 5.8454974e-005 19.415619 1.8126348e-005 -65.719582 1.0550561 -36.576538
10951821875 0.73086309 -154.27274 2.6198941e-005 134.72968 1.1014014e-005 14.589329 1.0543419 -36.604198
10951856250 0.73181224 -154.30701 4.3870099e-005 -83.672493 2.9168839e-005 -97.190399 1.0551753 -36.625248
10951890625 0.73265767 -154.35626 9.6049789e-006 73.123062 1.997383e-005 -151.00739 1.0544362 -36.606949
10951925000 0.73054773 -154.28815 3.9105074e-005 19.33876 1.1210877e-005 -62.269859 1.0540172 -36.629143
10951959375 0.73179376 -154.39067 5.436219e-005 145.84355 2.2450342e-005 -101.85506 1.0544677 -36.612637
10951993750 0.7314465 -154.3475 3.1054919e-005 82.340462 2.165088e-005 -77.767151 1.0540265 -36.636871
10952028125 0.73171127 -154.41986 5.0785788e-005 152.53593 2.3470522e-005 -115.56628 1.05549 -36.545551
10952062500 0.73235726 -154.39185 2.501e-005 -110.89047 2.1850376e-005 -52.830143 1.054334 -36.57629
10952096875 0.73180789 -154.39134 5.8299753e-005 -25.861372 1.2494686e-005 -90.914696 1.0557452 -36.59552
10952131250 0.73168224 -154.30269 3.3420016e-005 -43.598259 1.4407075e-005 -29.231663 1.0553071 -36.666203
10952165625 0.7306425 -154.35814 4.4053108e-005 39.331837 4.408359e-005 -121.80534 1.0556105 -36.657516
10952200000 0.72975916 -154.35995 2.3014463e-005 -64.635231 5.6297458e-006 171.45154 1.0567671 -36.67667
10952234375 0.73048651 -154.37553 3.6397152e-005 160.78151 1.1599447e-005 -31.333965 1.0564433 -36.64362
10952268750 0.73033375 -154.38309 3.5410983e-005 -13.078218 1.5634738e-005 21.852127 1.0556262 -36.656879
10952303125 0.73216295 -154.43379 5.4045464e-005 156.82881 1.9122068e-005 -32.648479 1.0551424 -36.672726
10952337500 0.73075491 -154.39684 2.3640439e-005 88.068184 3.4312681e-005 -26.308159 1.0545408 -36.591431
10952371875 0.73065889 -154.4101 5.535733e-005 -0.9249326 2.7024505e-005 -100.52505 1.0551209 -36.632114
10952406250 0.73084623 -154.42166 5.9141137e-005 -47.030952 2.0703881e-005 14.229365 1.0560919 -36.66547
10952440625 0.7320354 -154.38138 3.9363247e-005 48.347691 7.2128628e-006 -149.33397 1.0558314 -36.629654
10952475000 0.73011285 -154.45798 2.2988643e-005 -64.163933 4.078378e-005 -71.683304 1.0544208 -36.637939
10952509375 0.72992367 -154.33713 3.6299232e-005 -12.591559 1.6158372e-005 -73.029358 1.0564373 -36.57832
10952543750 0.73143053 -154.37376 3.335602e-005 50.757626 1.414191e-005 -93.1903 1.0563053 -36.636314
10952578125 0.73156726 -154.34795 6.213419e-005 31.996534 1.907252e-005 -116.64896 1.0558363 -36.619884
10952612500 0.73125362 -154.34631 3.5723915e-005 173.61758 2.4978272e-005 -26.062357 1.0561039 -36.662689
10952646875 0.73126173 -154.31946 5.4471406e-005 38.138733 1.2069675e-005 -176.85065 1.0561794 -36.677727
10952681250 0.73134345 -154.42267 2.6940726e-005 66.371101 1.3601271e-005 -2.6195886 1.0560825 -36.635143
10952715625 0.73075455 -154.39284 2.8661638e-005 90.135353 6.6078965e-006 -27.346779 1.054821 -36.623344
10952750000 0.73039168 -154.36797 1.6619886e-005 151.37332 4.4683591e-005 -110.46826 1.0556405 -36.638977
10952784375 0.73158216 -154.38078 4.4614935e-005 -35.222004 1.5957277e-005 -120.15681 1.0557302 -36.634296
10952818750 0.73090547 -154.42496 8.1298231e-006 95.334869 6.803984e-006 177.64716 1.0545819 -36.631836
10952853125 0.73146331 -154.40344 2.5377805e-005 -2.1152096 1.3229575e-005 153.0179 1.0548853 -36.620522
10952887500 0.73142368 -154.44322 3.4871468e-005 45.6283 3.5763831e-006 -25.399517 1.0554199 -36.619545
10952921875 0.73182273 -154.41508 3.6293099e-005 27.878036 1.6191028e-005 58.335583 1.055333 -36.632729
10952956250 0.73105025 -154.42407 1.8702804e-005 -128.83455 1.4463703e-005 -37.416206 1.0551552 -36.636505
10952990625 0.73131078 -154.49826 2.615435e-005 -34.043335 1.9256764e-005 -95.016327 1.0544986 -36.665398
10953025000 0.73152018 -154.47974 3.9967148e-005 100.58329 4.0825718e-005 -30.438885 1.054461 -36.654762
10953059375 0.73113418 -154.51227 3.034108e-005 -34.941303 1.6337417e-005 -40.218994 1.0541863 -36.603081
10953093750 0.73185182 -154.46388 2.7005493e-005 85.524048 2.3482695e-005 -104.81023 1.0543602 -36.635605
10953128125 0.73217177 -154.48866 4.5701672e-005 27.013142 7.7063514e-006 10.64591 1.054495 -36.625893
10953162500 0.73146683 -154.48457 2.655253e-005 -49.366215 1.183616e-005 -169.72183 1.054361 -36.567245
10953196875 0.73051542 -154.50427 4.8488957e-005 -155.87436 1.7172351e-005 1.2523278 1.0546173 -36.561047
10953231250 0.73083097 -154.49887 2.3972309e-005 -176.08302 2.4459381e-005 -164.3503 1.0549116 -36.580723
10953265625 0.73004001 -154.43674 5.1573785e-005 -7.1370788 2.2892465e-005 129.84058 1.054777 -36.607517
10953300000 0.73001856 -154.50928 1.9477049e-005 -43.460354 3.0238667e-005 -56.404621 1.055413 -36.614773
10953334375 0.73066896 -154.47096 1.7137458e-005 82.059883 1.0151566e-005 -159.35365 1.0555981 -36.611935
10953368750 0.73086244 -154.51404 2.7294496e-005 -90.283943 5.234408e-006 -108.38797 1.0555251 -36.611759
10953403125 0.73109525 -154.48482 5.627059e-005 -151.88934 1.1721691e-005 -134.96542 1.0561678 -36.657436
10953437500 0.73129708 -154.476 3.6543515e-005 -82.797958 9.383878e-006 160.24484 1.0561706 -36.650902
10953471875 0.73106205 -154.46332 3.2629992e-005 -4.0068526 2.1688753e-005 -91.090248 1.0551324 -36.619072
10953506250 0.73119396 -154.42705 2.4560642e-005 8.7425261 4.8247534e-006 -50.553513 1.0541202 -36.600906
10953540625 0.731498 -154.4442 4.5410903e-005 -16.273579 9.0955064e-006 -5.4445105 1.0544275 -36.606998
10953575000 0.73040503 -154.56273 2.618623e-005 -39.566792 2.7992004e-005 161.77805 1.0548861 -36.616074
10953609375 0.73088777 -154.55682 3.5090743e-005 -170.04256 2.0825379e-005 -60.235077 1.0551854 -36.571812
10953643750 0.72971725 -154.55759 1.5203573e-005 -96.68811 1.884825e-005 113.70755 1.0550839 -36.640121
10953678125 0.73022968 -154.55823 4.6579375e-005 -82.417473 2.4090006e-005 -101.96979 1.0550123 -36.656792
10953712500 0.73077524 -154.62321 3.8868407e-006 62.134838 1.9951569e-005 -126.18188 1.055454 -36.70071
10953746875 0.73106205 -154.511 1.855683e-005 -79.596329 2.3304814e-005 -116.67216 1.0549991 -36.661644
10953781250 0.73063636 -154.55495 1.8268243e-005 -1.6672474 5.7380562e-006 -179.42305 1.0549529 -36.663185
10953815625 0.73118037 -154.48816 4.0706505e-005 42.944424 1.5901263e-005 106.0723 1.0545752 -36.635941
10953850000 0.73160118 -154.48853 3.8103619e-005 19.482634 2.5456584e-005 -140.73181 1.056082 -36.637562
10953884375 0.73076385 -154.49246 3.3764565e-005 -90.333214 1.9392168e-005 8.9299097 1.0556905 -36.622562
10953918750 0.73125583 -154.48877 7.8059318e-005 85.160553 1.7580545e-005 49.5728 1.0558496 -36.651981
10953953125 0.73192316 -154.57442 6.3237389e-006 140.237 1.5981866e-005 -96.580589 1.0551739 -36.593758
10953987500 0.73108691 -154.56998 3.1240063e-005 120.66379 2.1711332e-005 -31.067501 1.0550171 -36.590363
10954021875 0.73137736 -154.52147 1.8899633e-005 -39.629257 2.19672e-005 -122.36921 1.0543168 -36.6525
10954056250 0.7304424 -154.58575 6.3309395e-005 64.934677 1.9208026e-005 -57.855396 1.0546061 -36.648655
10954090625 0.72970307 -154.59071 6.2461222e-005 134.31618 1.6062257e-005 -98.417374 1.0553159 -36.663914
10954125000 0.73040044 -154.63179 1.6727749e-005 -64.802391 1.3351025e-005 -63.287289 1.0558332 -36.60191
10954159375 0.73038453 -154.54872 1.5473903e-005 91.346443 1.7844808e-005 -139.09842 1.0556582 -36.591248
10954193750 0.73148656 -154.60823 3.3870765e-005 33.298805 1.0384276e-005 2.1250968 1.0548971 -36.655514
10954228125 0.73184574 -154.62852 3.2070886e-005 -70.860901 2.6663314e-005 -85.379417 1.0545245 -36.613865
10954262500 0.73125231 -154.62007 2.5613794e-005 -4.2366018 1.2811927e-005 -14.301772 1.0543146 -36.685928
10954296875 0.73052663 -154.57254 6.1289742e-005 -73.249207 2.5460567e-005 -62.662888 1.0550647 -36.607914
10954331250 0.73101628 -154.53943 3.8618909e-005 128.34164 2.7467899e-005 -160.44876 1.0545729 -36.614956
10954365625 0.73104721 -154.59952 6.7564404e-005 -146.43637 2.0684263e-005 -92.159431 1.0566025 -36.648628
10954400000 0.73078358 -154.59294 4.5002049e-005 4.4238524 2.3427234e-005 -129.71988 1.0554157 -36.614693
10954434375 0.73039758 -154.5923 0.00010185852 -32.876213 2.8160226e-005 -73.213387 1.0547003 -36.640121
10954468750 0.73022711 -154.61038 1.5669217e-005 -84.900459 2.7687722e-005 -51.992577 1.055528 -36.699459
10954503125 0.73121506 -154.53133 5.1770203e-005 94.559402 1.6685361e-005 -7.4434028 1.0550816 -36.67897
10954537500 0.73112476 -154.60168 1.4603827e-005 128.133 4.2884069e-005 -155.41551 1.0547655 -36.659748
10954571875 0.73149818 -154.63039 1.1828e-005 6.2917113 2.2449418e-005 -0.364968 1.0559335 -36.668159
10954606250 0.73083365 -154.59816 2.1075524e-005 90.790749 6.1146193e-006 135.59288 1.0556622 -36.663559
10954640625 0.73170471 -154.6637 4.1025996e-005 -126.3073 1.2932157e-005 -35.40984 1.0557903 -36.706787
10954675000 0.73133147 -154.61459 3.1782634e-005 78.022186 1.4437135e-005 -154.4505 1.0554084 -36.608749
10954709375 0.73097348 -154.59576 2.4282594e-005 -11.946012 1.1761927e-005 8.2241545 1.0552783 -36.699871
10954743750 0.73069179 -154.65445 7.1000373e-005 128.86441 1.6033004e-005 -123.3091 1.0561339 -36.669918
10954778125 0.73032582 -154.63322 2.0710306e-005 -4.1212401 1.6188669e-005 -178.80876 1.0558655 -36.763466
10954812500 0.73120582 -154.64485 3.5926339e-005 12.803703 9.8015234e-006 59.21212 1.055802 -36.625629
10954846875 0.73149508 -154.65244 7.2911289e-006 -51.392075 3.5417295e-005 -80.364082 1.0560206 -36.688751
10954881250 0.73159099 -154.67514 1.1956428e-005 -50.205727 2.1352513e-005 -111.53186 1.0560879 -36.672112
10954915625 0.72984183 -154.77736 2.7121365e-005 62.433655 8.4122821e-006 -108.4364 1.0569547 -36.665936
10954950000 0.73033136 -154.66576 1.3341219e-005 -166.61429 3.4884844e-005 -73.0914 1.0567869 -36.6586
10954984375 0.72998786 -154.72137 4.3944499e-005 -65.065041 1.5701778e-005 -165.12257 1.0551779 -36.563503
10955018750 0.73155332 -154.6801 5.6765493e-005 18.18446 2.4243715e-005 -89.465019 1.0544273 -36.622883
10955053125 0.73089707 -154.74997 5.7034264e-005 -67.596703 1.8614199e-005 -85.022789 1.0546577 -36.654305
10955087500 0.73046154 -154.70851 2.2392547e-005 -6.4117031 1.0222516e-005 -134.869 1.0549715 -36.723831
10955121875 0.73034 -154.68295 3.5518449e-005 72.788017 2.201795e-005 -95.029236 1.055717 -36.65049
10955156250 0.72945374 -154.59714 3.2034292e-005 179.01262 2.148193e-005 12.000411 1.055337 -36.639568
10955190625 0.72943449 -154.68092 3.753871e-005 -19.578148 1.3915052e-005 90.438263 1.0553135 -36.670944
10955225000 0.72987771 -154.63177 1.2616144e-005 -154.99611 3.0714815e-005 -123.77428 1.0550725 -36.694614
10955259375 0.73143321 -154.70078 2.0782377e-006 142.43031 1.088988e-005 -26.987001 1.0554432 -36.666786
10955293750 0.72965777 -154.67159 6.6887505e-006 -134.58603 2.8544016e-005 -120.82568 1.0555496 -36.575947
10955328125 0.73152655 -154.64621 5.0004601e-006 57.502487 2.3756345e-005 -134.48834 1.0554137 -36.595711
10955362500 0.72985125 -154.74678 3.33967e-005 -144.72021 1.8039118e-005 -46.475361 1.0555234 -36.647339
10955396875 0.73118025 -154.66304 1.3106886e-005 -108.87304 2.6979213e-005 -65.941696 1.0550582 -36.665127
10955431250 0.73075855 -154.66222 2.2930555e-005 122.71798 1.8137744e-005 -117.93382 1.0534689 -36.597744
10955465625 0.72965753 -154.65656 2.6947984e-005 -84.611893 1.8734145e-005 -30.95046 1.0551081 -36.580486
10955500000 0.73057985 -154.64619 5.2819552e-005 -8.4742098 1.8750901e-005 -8.3327637 1.0559494 -36.626389
10955534375 0.73037106 -154.72136 1.7066657e-005 67.06942 1.9778136e-005 116.96297 1.0556898 -36.644199
10955568750 0.73002136 -154.74585 2.779247e-005 -14.338599 1.2856432e-005 4.115766 1.0555955 -36.702881
10955603125 0.73004955 -154.72147 6.6924382e-005 -4.0069709 3.0684452e-005 26.020638 1.0546973 -36.703526
10955637500 0.73152912 -154.66002 1.6162614e-005 -76.663193 2.5978263e-006 152.36143 1.054806 -36.714619
10955671875 0.73210514 -154.6929 4.808103e-005 5.446197 1.6438684e-006 134.1394 1.0560884 -36.702244
10955706250 0.73190719 -154.82817 4.5972789e-005 -127.79601 1.4184418e-005 -125.74313 1.0556514 -36.685581
10955740625 0.72945356 -154.785 4.3572989e-005 43.45219 3.3996112e-005 -128.6665 1.0562885 -36.631542
10955775000 0.72967094 -154.74809 5.3526343e-005 36.409153 7.8044368e-006 -63.992809 1.0547065 -36.603531
10955809375 0.72999054 -154.76631 5.1744501e-005 -6.8111353 2.4152087e-005 -75.068413 1.0544288 -36.597618
10955843750 0.73068303 -154.8533 6.9899739e-005 23.773001 4.6666293e-005 166.58473 1.0551767 -36.590683
10955878125 0.72888559 -154.83536 2.6065945e-005 -41.890186 1.8669494e-005 -70.218712 1.05603 -36.638458
10955912500 0.73013592 -154.87283 3.7818892e-005 -87.23156 1.0767766e-005 -102.82267 1.0556761 -36.679146
10955946875 0.72974366 -154.83527 1.7599346e-005 -52.672886 1.1687579e-006 89.7547 1.056082 -36.67173
10955981250 0.72907454 -154.76749 3.2901429e-005 16.826609 1.7348471e-005 -57.584499 1.0559422 -36.682014
10956015625 0.72924823 -154.78658 5.8170749e-006 -118.06553 1.7687249e-005 -97.741684 1.0565307 -36.65802
10956050000 0.72969961 -154.71216 3.0418445e-005 167.06085 3.5716901e-005 11.298429 1.0556248 -36.677464
10956084375 0.72994632 -154.7464 2.0436719e-005 178.31752 2.713554e-005 71.234863 1.0554137 -36.682575
10956118750 0.7303763 -154.77254 2.3577464e-005 101.15005 5.9513231e-006 -78.545807 1.0557921 -36.661758
10956153125 0.72993731 -154.73305 5.1987525e-005 -153.65146 5.2773026e-005 -84.142662 1.0558428 -36.677979
10956187500 0.73085755 -154.77933 3.5168599e-005 -119.08581 1.7788579e-005 113.40553 1.0568091 -36.638962
10956221875 0.73002625 -154.84132 4.3571988e-005 -148.48087 1.4969242e-005 -128.3615 1.0552447 -36.658443
10956256250 0.73124754 -154.83313 2.598063e-006 -144.16632 2.2753107e-005 -11.417043 1.0566771 -36.650318
10956290625 0.7310788 -154.79471 4.0588096e-005 -3.9285281 6.5546287e-006 63.904369 1.0564324 -36.600605
10956325000 0.73093849 -154.72673 1.1171585e-005 -108.42187 1.9980906e-005 87.202629 1.057035 -36.607864
