!Agilent Technologies,E8362C,MY49020356,A.09.42.23
!Agilent E8362C: A.09.42.23
!Date: Saturday, September 11, 2021 04:21:08
!Correction: S11(Full 2 Port(1,2)) 
!S21(Full 2 Port(1,2)) 
!S12(Full 2 Port(1,2)) 
!S22(Full 2 Port(1,2)) 
!S2P File: Measurements: S11, S21, S12, S22:
# Hz S  MA   R 50
10950000000 0.7044037 -144.65134 2.3793596e-005 -93.698433 4.1523901e-005 -86.860115 1.0585654 -36.458569
10950034375 0.70526588 -144.74986 1.9289886e-005 -110.72472 1.2347504e-005 -134.36879 1.0593678 -36.454594
10950068750 0.70387959 -144.65736 2.2431374e-005 131.2654 1.9035439e-005 142.66078 1.0598255 -36.37878
10950103125 0.70376313 -144.66367 6.4586151e-005 -144.28168 4.0081981e-005 -78.91114 1.0592523 -36.418201
10950137500 0.70419675 -144.75473 3.072638e-005 -177.55034 2.3427681e-005 -178.77684 1.0599654 -36.363369
10950171875 0.70501459 -144.77766 3.743434e-005 116.23042 3.0706546e-005 -139.41727 1.0598342 -36.503536
10950206250 0.7048769 -144.78044 2.1488586e-005 -7.3643622 3.2217853e-005 -136.73441 1.0602864 -36.393749
10950240625 0.7053315 -144.74274 4.0120252e-005 -59.54253 4.2469113e-005 -115.82558 1.0592278 -36.443108
10950275000 0.70503515 -144.7178 5.1955005e-005 -73.844284 3.0170338e-006 29.500889 1.0598577 -36.380825
10950309375 0.70541435 -144.66779 1.2161841e-005 -179.01027 3.9546794e-005 -121.2849 1.0594288 -36.37999
10950343750 0.70495886 -144.66936 2.7951481e-005 -58.19796 2.6162445e-005 -118.65965 1.0589252 -36.38842
10950378125 0.70458508 -144.66603 6.0348935e-005 35.413273 1.8623618e-005 -172.1515 1.0593231 -36.346291
10950412500 0.70423877 -144.66963 7.6760058e-005 -151.69441 1.8249471e-005 -170.91747 1.0603929 -36.381603
10950446875 0.7036289 -144.7094 4.005415e-005 146.15594 3.1452484e-005 139.68564 1.0605719 -36.434452
10950481250 0.70511937 -144.73592 3.6230329e-005 -49.098495 5.7251623e-006 63.053192 1.0598278 -36.437962
10950515625 0.70541251 -144.74339 2.1891405e-005 178.31921 4.5704001e-005 -72.540398 1.0603434 -36.417408
10950550000 0.70461404 -144.74286 3.8094029e-005 122.12151 7.8092453e-006 -68.29734 1.0596194 -36.470047
10950584375 0.70443571 -144.60652 3.3300261e-005 -118.33904 1.9131301e-005 -129.61929 1.0596864 -36.456314
10950618750 0.70536619 -144.70834 6.1887949e-005 100.99682 3.2421696e-005 -94.160774 1.0596384 -36.45013
10950653125 0.70383883 -144.73094 3.4140285e-005 -158.63611 7.6488832e-006 -20.757153 1.0599419 -36.451111
10950687500 0.70361203 -144.64731 4.306337e-005 41.017632 1.9581854e-005 -167.00813 1.0597247 -36.444988
10950721875 0.70424592 -144.739 1.3030677e-005 -52.816391 9.2750879e-006 128.267 1.0597913 -36.392189
10950756250 0.70443791 -144.63414 2.7828075e-005 -169.97005 1.1316405e-005 115.78988 1.0591905 -36.440388
10950790625 0.70512587 -144.71689 1.5355397e-005 -110.12643 4.0553105e-006 -71.23999 1.0587929 -36.444271
10950825000 0.70535195 -144.7702 4.6402958e-005 170.62997 1.1878751e-005 173.93707 1.0598115 -36.447044
10950859375 0.70423281 -144.71559 2.2341208e-005 132.59727 1.8748993e-005 -83.499023 1.0610002 -36.421112
10950893750 0.70407379 -144.68475 1.0163382e-005 122.49063 1.6408136e-005 -143.32533 1.0599349 -36.486851
10950928125 0.70570236 -144.69202 2.1091808e-005 -103.71713 2.3240052e-006 -141.28156 1.0608773 -36.393841
10950962500 0.70486939 -144.67107 2.9535066e-005 8.7274513 1.8208626e-005 -105.49477 1.0602251 -36.44136
10950996875 0.7046079 -144.72061 2.2806367e-005 106.76358 2.3968123e-005 -100.66896 1.0608625 -36.480083
10951031250 0.70483857 -144.70172 2.9087514e-005 -78.710175 4.3116426e-005 -169.92503 1.0607359 -36.454948
10951065625 0.70518047 -144.6964 8.2542203e-005 -48.289494 1.2618323e-005 153.32079 1.0611637 -36.454556
10951100000 0.70484662 -144.80885 2.5892852e-005 -110.40539 3.7860136e-005 -90.287949 1.0598433 -36.462219
10951134375 0.70441318 -144.7984 2.8671277e-005 -76.016182 8.6042292e-006 -4.9691238 1.0593187 -36.360523
10951168750 0.70462334 -144.77283 2.6758515e-005 -140.73726 2.0791265e-005 -167.19762 1.0602708 -36.449501
10951203125 0.70539713 -144.74977 5.5434208e-005 27.75819 2.3728044e-005 -123.73058 1.060936 -36.382324
10951237500 0.70398438 -144.82474 2.330709e-005 -160.77866 2.4613113e-005 -52.389763 1.0592279 -36.398743
10951271875 0.70451033 -144.7571 3.3849636e-005 90.699516 2.3017186e-005 -114.88123 1.0594442 -36.393429
10951306250 0.70430207 -144.7652 3.2414595e-005 -167.52229 2.5225039e-005 153.97182 1.0583751 -36.449524
10951340625 0.70540917 -144.7654 3.6448309e-005 117.37167 3.282461e-005 172.46457 1.0586447 -36.474613
10951375000 0.7045849 -144.74394 2.695994e-005 156.39577 6.6264306e-006 -146.23566 1.0609634 -36.456688
10951409375 0.7050336 -144.72697 3.4783527e-005 -95.907066 6.0846205e-006 -104.38976 1.0593747 -36.499474
10951443750 0.703982 -144.80991 1.4501312e-005 51.40583 4.8000424e-005 -68.123734 1.060763 -36.448662
10951478125 0.70488864 -144.84331 3.9270166e-005 159.06857 2.3975774e-005 -80.94326 1.0601026 -36.440365
10951512500 0.70559412 -144.84747 3.5956065e-005 -127.19901 4.5210963e-006 144.10669 1.06002 -36.511009
10951546875 0.70471609 -144.81645 1.7244129e-005 81.024742 1.1674018e-005 -58.568584 1.0604675 -36.399494
10951581250 0.70426404 -144.8266 2.1009999e-005 -20.401669 2.7187489e-005 143.09224 1.0603648 -36.471394
10951615625 0.70522243 -144.8278 3.6615667e-005 -24.154808 2.0412914e-005 177.98514 1.06011 -36.475491
10951650000 0.70521754 -144.87842 9.520013e-006 21.766495 2.4238587e-005 -24.703287 1.0613015 -36.413315
10951684375 0.70527953 -144.85701 1.0252446e-005 -36.729057 1.4563842e-005 -48.928642 1.0601588 -36.399483
10951718750 0.70428246 -144.80504 7.1958493e-005 -97.315666 3.6909754e-005 -128.89047 1.0599769 -36.366257
10951753125 0.70417327 -144.88499 1.5246589e-005 -101.32374 1.2363184e-005 -51.216328 1.0604024 -36.384033
10951787500 0.70316273 -144.81334 3.4842687e-005 -78.872971 2.2775141e-005 -98.690567 1.0598047 -36.429565
10951821875 0.70406032 -144.79395 8.9390458e-005 -106.50862 1.0998428e-005 -159.62935 1.0593307 -36.397263
10951856250 0.70368844 -144.79189 9.4913194e-006 -14.674787 1.4230824e-005 -148.5419 1.0596731 -36.391632
10951890625 0.70452684 -144.89131 3.8982005e-005 -11.969546 3.4764693e-005 -113.62238 1.0595562 -36.4147
10951925000 0.70420074 -144.92175 2.144272e-005 152.54233 2.2046332e-005 -136.86037 1.0595994 -36.472954
10951959375 0.70399153 -144.95467 2.8523626e-005 75.420967 1.3631276e-005 -122.441 1.0593323 -36.437801
10951993750 0.70468104 -144.9574 5.1451952e-005 1.6156918 1.971603e-005 -173.19194 1.059798 -36.425247
10952028125 0.70429462 -144.97629 2.5920977e-005 157.02037 2.8785989e-005 -115.58915 1.0593342 -36.401623
10952062500 0.70412248 -144.96088 3.2950422e-005 177.33777 1.3843734e-005 -25.15678 1.0590687 -36.358448
10952096875 0.70452446 -144.96507 6.4693872e-005 168.99106 2.2617352e-005 -83.493805 1.0601616 -36.357765
10952131250 0.70311469 -144.93558 4.23955e-006 12.283329 1.5497375e-005 -141.51784 1.0602615 -36.45314
10952165625 0.70353132 -144.9767 2.3248205e-005 87.51194 2.2785211e-005 -127.14949 1.0594133 -36.471523
10952200000 0.70340759 -144.97626 3.2300588e-005 125.59151 3.4753535e-005 -44.724152 1.0610226 -36.469692
10952234375 0.70309198 -144.96939 1.5429272e-005 -146.59792 1.3770992e-005 116.08091 1.0601563 -36.484005
10952268750 0.70320261 -144.97731 1.408923e-005 33.702389 1.9617511e-005 -69.64537 1.0608703 -36.430332
10952303125 0.70342863 -144.97226 1.3295599e-005 71.960419 1.1519603e-005 -132.56496 1.0592176 -36.449306
10952337500 0.70310831 -144.9352 1.1977218e-005 147.64938 6.8649147e-006 141.24319 1.0603478 -36.42432
10952371875 0.70365644 -144.95644 6.9999063e-005 -80.756973 1.2743647e-005 -23.53833 1.0600094 -36.417622
10952406250 0.70305693 -144.9848 3.1439191e-005 -124.9476 1.1370898e-005 -106.29692 1.0612674 -36.456024
10952440625 0.7033211 -145.02933 3.2698284e-005 -125.8475 2.2139624e-005 -111.8225 1.0600362 -36.424755
10952475000 0.70293963 -144.98778 3.1720123e-005 3.6686513 2.1463953e-005 -163.26675 1.0597174 -36.477413
10952509375 0.70357209 -144.93718 2.9030691e-005 147.41867 1.1635339e-005 45.076294 1.0599957 -36.477558
10952543750 0.70352572 -144.97491 3.0331896e-005 162.93832 4.2682332e-005 -85.560493 1.0600314 -36.420052
10952578125 0.70328301 -144.88596 9.4480702e-006 -13.39853 3.3239216e-005 -139.43739 1.0604464 -36.469723
10952612500 0.70338291 -144.96893 3.2184696e-005 -143.69975 3.6310495e-005 -139.83546 1.0604974 -36.476009
10952646875 0.7033574 -144.96272 3.892746e-006 62.524372 2.7260678e-005 -90.278 1.0606285 -36.444939
10952681250 0.70274639 -144.98688 4.4026539e-005 -72.335915 1.2149286e-005 -81.911072 1.0601307 -36.341381
10952715625 0.70249158 -144.96088 4.6326786e-005 -176.67398 3.4761449e-006 -132.56346 1.0600111 -36.432129
10952750000 0.70216095 -144.95834 3.1633754e-005 87.118172 2.9654804e-005 -111.91275 1.0579745 -36.402405
10952784375 0.70228493 -145.00638 2.0324285e-005 -124.92564 1.7846822e-005 -83.163643 1.0590088 -36.446594
10952818750 0.70266175 -144.97852 4.2181459e-006 140.34239 2.470186e-005 -128.09328 1.0594536 -36.397705
10952853125 0.70214295 -145.03723 2.2933888e-005 147.72801 3.4070221e-005 -151.93527 1.0599376 -36.395039
10952887500 0.70314276 -145.04167 3.114163e-005 -106.50141 3.886396e-005 -105.49393 1.0588399 -36.379421
10952921875 0.70305455 -145.08153 1.6189426e-005 -138.50459 8.0878299e-006 -40.815216 1.0594867 -36.434998
10952956250 0.70403945 -145.07596 4.5697139e-005 55.388126 8.1978305e-006 -147.33418 1.0596209 -36.408405
10952990625 0.70328361 -145.0162 4.6424662e-005 64.222473 2.7571954e-005 -127.27512 1.0588295 -36.418373
10953025000 0.70299292 -145.08746 3.974072e-005 -161.2343 5.2700048e-005 -103.36967 1.0583795 -36.417458
10953059375 0.70262843 -145.05849 2.079007e-005 172.55659 1.8342398e-005 -122.27076 1.0586551 -36.460598
10953093750 0.70338571 -145.11839 5.651448e-005 17.40099 1.1823962e-005 133.71486 1.0590204 -36.47369
10953128125 0.70364565 -145.08432 1.7754797e-005 19.423958 1.814347e-005 -140.52126 1.0589021 -36.379208
10953162500 0.70340091 -145.09718 7.7508694e-006 -26.509933 2.3884715e-005 -56.247158 1.0591787 -36.402008
10953196875 0.70333999 -145.06178 4.6991513e-006 -139.34167 2.5432208e-005 -140.41496 1.0594105 -36.340984
10953231250 0.70226938 -145.06404 1.8032717e-005 116.20739 5.7492548e-007 -122.01254 1.0597262 -36.411259
10953265625 0.70273423 -144.99323 1.3447499e-005 89.7472 1.6441421e-005 -109.755 1.0583668 -36.416771
10953300000 0.70186776 -145.00023 7.3608913e-005 -147.83476 2.6427813e-005 -124.19022 1.0587841 -36.369602
10953334375 0.70268518 -145.02376 1.8769933e-006 167.81425 1.209373e-005 -90.285072 1.0588537 -36.42701
10953368750 0.70256597 -145.0179 1.5462301e-005 1.8394513 4.0141898e-005 161.58525 1.0607871 -36.425892
10953403125 0.7026282 -145.04417 3.9118244e-005 121.99055 2.2984783e-005 -121.54677 1.0599866 -36.42136
10953437500 0.70255941 -145.04422 4.500994e-005 165.62001 2.1615208e-005 -96.338013 1.0596607 -36.416496
10953471875 0.70296425 -145.06815 4.5163211e-005 -16.711416 1.7861394e-005 -136.22119 1.0595313 -36.348011
10953506250 0.7022891 -145.08263 2.4069932e-005 64.594185 2.7993232e-005 -111.79591 1.0594229 -36.397503
10953540625 0.70305365 -145.02251 1.9120407e-005 89.515228 3.2562079e-005 -85.532997 1.0600823 -36.441608
10953575000 0.7025032 -145.06232 2.3931045e-005 137.6917 4.8828293e-005 -149.20352 1.0589069 -36.380009
10953609375 0.70300651 -145.14952 7.5553621e-006 71.119179 2.5210007e-005 -77.80645 1.0595837 -36.381439
10953643750 0.7017144 -145.11705 3.0166648e-005 17.994047 4.3358676e-005 170.91441 1.0591507 -36.394302
10953678125 0.70234746 -145.23969 3.5261586e-005 -84.792656 0 90 1.0593539 -36.41502
10953712500 0.70245117 -145.11482 2.8307681e-005 70.772301 1.5040259e-005 -35.21656 1.060504 -36.419025
10953746875 0.70292121 -145.13647 3.906768e-005 30.506958 4.5132525e-005 -85.81765 1.060335 -36.475563
10953781250 0.70264655 -145.10074 6.9541777e-005 -150.17776 3.6537996e-005 -115.37042 1.0601238 -36.393009
10953815625 0.70321423 -145.10915 1.8801207e-005 -74.78933 3.070544e-005 -50.425014 1.060703 -36.398506
10953850000 0.70322651 -145.02423 1.2700277e-005 42.665573 1.8803263e-005 48.85947 1.0603085 -36.417515
10953884375 0.70320833 -145.05353 2.2738044e-005 -110.63204 1.4452718e-005 -149.11035 1.0596269 -36.444435
10953918750 0.70257986 -145.05118 3.6486315e-005 -24.448639 3.6142883e-005 -103.66737 1.0599822 -36.404179
10953953125 0.70268047 -145.07536 4.1764833e-006 -164.56549 2.1066302e-005 69.158997 1.0600955 -36.405102
10953987500 0.70324957 -145.07051 4.8922338e-005 113.85152 1.1562865e-006 -120.26864 1.060679 -36.451969
10954021875 0.70355064 -145.09109 3.3624322e-006 22.737885 6.0376446e-005 -132.84143 1.0589298 -36.370121
10954056250 0.70209318 -145.0582 3.4321685e-005 29.631464 1.7355591e-005 112.9871 1.0597115 -36.470615
10954090625 0.7030881 -145.0995 3.4961671e-005 -146.91196 1.041319e-005 130.45256 1.0586886 -36.48555
10954125000 0.70222801 -145.18066 6.7254778e-006 -134.59308 2.5512958e-005 -159.52679 1.0607512 -36.432037
10954159375 0.70305163 -145.12323 7.5089238e-006 19.038177 3.1368625e-005 -142.74306 1.0585009 -36.46587
10954193750 0.70382559 -145.18002 1.667813e-005 52.767036 3.3715631e-005 166.06805 1.0580342 -36.399773
10954228125 0.70384061 -145.09904 5.2876967e-005 -109.69918 8.8195129e-006 36.981697 1.0585207 -36.468147
10954262500 0.70339 -145.22331 4.1685953e-006 15.868387 2.5595727e-005 -114.43076 1.0594103 -36.43256
10954296875 0.70358145 -145.20114 1.6485359e-005 -53.283901 5.2120264e-005 -172.61827 1.0591009 -36.417984
10954331250 0.70290691 -145.13635 7.6255958e-005 -10.536716 1.6320662e-005 144.35826 1.0598216 -36.466579
10954365625 0.7022723 -145.19725 1.7457653e-005 -165.3199 1.4099543e-005 -109.98564 1.059507 -36.391361
10954400000 0.70237345 -145.14905 2.2365952e-005 -52.066265 2.2852952e-005 -143.34445 1.0594541 -36.431042
10954434375 0.70170689 -145.18524 1.910587e-005 -71.291588 1.1407542e-005 126.73516 1.0574619 -36.468605
10954468750 0.70307946 -145.17216 2.1193073e-005 -138.1935 3.207058e-005 -131.79271 1.0585978 -36.500519
10954503125 0.70391017 -145.2027 2.863651e-005 -154.47874 1.0371759e-005 177.38414 1.0591679 -36.480949
10954537500 0.70269209 -145.07779 1.4955868e-005 -2.9511278 1.5214511e-005 -168.64615 1.0583768 -36.407753
10954571875 0.70384103 -145.08752 6.4709304e-005 -112.46159 5.6209643e-005 -111.87567 1.0606403 -36.466469
10954606250 0.70375526 -145.18704 1.0384812e-005 -89.740044 5.3546328e-006 -106.41393 1.0599922 -36.494133
10954640625 0.70402712 -145.17763 1.1157516e-005 170.00436 1.2754175e-005 -94.581749 1.0600731 -36.409966
10954675000 0.70297056 -145.13545 4.5949859e-005 -56.560383 2.3634919e-005 141.23285 1.0598146 -36.452995
10954709375 0.70400983 -145.15344 1.5115989e-005 -57.451385 1.1701761e-005 66.823174 1.0597414 -36.509575
10954743750 0.70439172 -145.19211 8.2665654e-005 -1.5330356 2.1674301e-005 -124.87746 1.060252 -36.46302
10954778125 0.70419419 -145.21219 2.0279098e-005 6.1132007 1.7462726e-005 -81.760185 1.0597376 -36.490105
10954812500 0.70347142 -145.21698 1.8742097e-005 -1.0712026 1.0294303e-005 -161.06175 1.0592828 -36.413033
10954846875 0.70378453 -145.24629 2.0835139e-005 22.560492 6.5042937e-006 -91.731087 1.0587233 -36.466362
10954881250 0.7024532 -145.16164 4.3941542e-005 31.199348 1.6416698e-005 157.82222 1.0602149 -36.511906
10954915625 0.70289403 -145.23206 3.8157861e-005 156.43515 1.3028598e-005 141.4404 1.0597996 -36.517464
10954950000 0.70282924 -145.25916 4.4490251e-005 97.415535 8.2542856e-006 106.86935 1.061324 -36.43362
10954984375 0.70287484 -145.23257 2.6882562e-005 39.815224 2.9215289e-005 0.54014814 1.0597657 -36.419609
10955018750 0.70309711 -145.22031 7.3918327e-006 170.68007 1.169694e-005 -112.31681 1.057776 -36.480247
10955053125 0.70366973 -145.23611 5.0287203e-005 -63.213905 1.2025726e-005 76.161507 1.0598438 -36.46207
10955087500 0.70377839 -145.16013 4.8374961e-005 19.318216 3.7356001e-006 100.83391 1.0589881 -36.476704
10955121875 0.70339662 -145.24725 2.9777797e-005 141.05779 7.4759173e-006 -79.163635 1.0595071 -36.511017
10955156250 0.70291221 -145.23717 2.4143288e-005 164.34735 1.1914639e-005 73.632103 1.0596185 -36.479645
10955190625 0.70249295 -145.22632 1.9856814e-005 59.126797 7.4018067e-006 -9.1844139 1.0601929 -36.437603
10955225000 0.7028482 -145.16798 2.1015097e-005 155.72232 1.7392191e-005 -165.34338 1.0590683 -36.489029
10955259375 0.7038247 -145.21915 2.2526912e-005 115.99534 2.1564028e-005 49.958725 1.0592633 -36.454498
10955293750 0.70403624 -145.146 2.122478e-005 -98.855278 3.5060992e-005 -57.420658 1.0589327 -36.45129
10955328125 0.70469308 -145.13167 2.7747139e-005 -94.887886 3.9554037e-005 75.512886 1.0605506 -36.451675
10955362500 0.70398223 -145.21858 3.7086065e-005 -162.17192 1.1528879e-005 -147.67957 1.0596466 -36.413456
10955396875 0.70346701 -145.17924 2.0448626e-005 45.54493 9.4346515e-006 145.8116 1.059236 -36.411236
10955431250 0.70372599 -145.20865 6.2532796e-005 -112.36108 2.4451896e-005 -10.428329 1.0592823 -36.415592
10955465625 0.70408767 -145.07889 3.7320864e-005 -28.769016 1.2237331e-005 -100.28613 1.059674 -36.426632
10955500000 0.70392412 -145.26405 5.1003371e-005 11.675894 3.4630397e-005 -50.764019 1.0593526 -36.395485
10955534375 0.70333558 -145.22314 2.6791469e-005 -172.53117 9.1105348e-006 -41.830967 1.0600438 -36.479332
10955568750 0.70343518 -145.2247 2.5622538e-005 12.583896 2.9353914e-006 -63.715668 1.0596977 -36.458363
10955603125 0.70441955 -145.22873 1.1086317e-005 76.880966 1.1740956e-005 116.50793 1.0597222 -36.462685
10955637500 0.7043469 -145.20686 2.9847099e-005 47.985958 4.0615556e-005 -149.95442 1.058524 -36.488647
10955671875 0.70523012 -145.28568 2.5596099e-005 141.45451 1.5950221e-005 -133.71881 1.0603051 -36.478382
10955706250 0.70490175 -145.25504 6.6381668e-005 84.982521 3.463031e-005 -167.68675 1.0605584 -36.503395
10955740625 0.70368981 -145.25449 9.2330238e-006 -103.93966 1.5297523e-005 -83.871429 1.0599446 -36.396496
10955775000 0.70353484 -145.24297 4.334826e-005 -44.410992 2.5343052e-005 -164.05603 1.0588913 -36.411713
10955809375 0.70359194 -145.28539 1.4715408e-005 -94.436806 1.617463e-005 -135.38963 1.0595345 -36.452633
10955843750 0.70430803 -145.31694 2.3529998e-005 151.64017 2.2098422e-005 -51.324856 1.0589445 -36.435951
10955878125 0.70402932 -145.30563 1.7812048e-005 -175.97458 9.5871446e-006 -126.72598 1.0596112 -36.458076
10955912500 0.7032606 -145.27069 1.8866007e-005 -36.90712 2.9258077e-005 -150.29694 1.0596052 -36.464714
10955946875 0.70330721 -145.23958 4.3518059e-005 -37.997593 7.1692848e-006 -125.35191 1.0596044 -36.466003
10955981250 0.70343643 -145.19209 3.3773365e-005 41.69891 4.6777597e-005 164.30275 1.0614607 -36.456562
10956015625 0.70370042 -145.22209 1.4295318e-005 -47.384872 3.0427933e-005 -73.148262 1.0599664 -36.442692
10956050000 0.70437527 -145.21706 2.3828323e-005 -164.83705 4.0604751e-005 -114.00771 1.0591128 -36.414955
10956084375 0.70298272 -145.24393 2.2636825e-005 -83.359833 2.8508413e-005 -97.539101 1.0601057 -36.389599
10956118750 0.70465761 -145.24876 1.5026008e-005 -59.848507 1.6514678e-005 68.506981 1.0600433 -36.478931
10956153125 0.70417368 -145.25392 2.7417303e-005 172.60757 2.0041074e-005 -112.20381 1.0606896 -36.463066
10956187500 0.70368111 -145.28494 2.2289138e-005 -152.26909 4.0073424e-005 156.17963 1.0616544 -36.442646
10956221875 0.70441735 -145.2561 5.7788429e-006 64.359833 1.7548036e-005 16.895601 1.061325 -36.442528
10956256250 0.70383906 -145.29997 2.5568039e-005 174.89073 1.7549912e-005 135.0441 1.0597544 -36.43457
10956290625 0.70497787 -145.34824 3.639303e-005 57.550465 1.4048582e-005 140.16026 1.0612752 -36.379551
10956325000 0.70488286 -145.23756 5.8851747e-005 -13.250741 8.5307256e-006 31.132702 1.0617182 -36.395428
