!Agilent Technologies,E8362C,MY49020356,A.09.42.23
!Agilent E8362C: A.09.42.23
!Date: Saturday, September 11, 2021 04:20:52
!Correction: S11(Full 2 Port(1,2)) 
!S21(Full 2 Port(1,2)) 
!S12(Full 2 Port(1,2)) 
!S22(Full 2 Port(1,2)) 
!S2P File: Measurements: S11, S21, S12, S22:
# Hz S  MA   R 50
10950000000 0.83853763 -153.32787 5.2044696e-005 -95.954231 1.6121778e-005 -40.606682 1.0587767 -36.460392
10950034375 0.83701581 -153.27165 1.6884605e-005 -109.13165 8.0270911e-006 18.25152 1.0588572 -36.501709
10950068750 0.83839232 -153.3044 2.5177267e-005 -125.00466 1.0696628e-005 145.0742 1.0589323 -36.476456
10950103125 0.83788991 -153.34219 2.9198349e-005 -54.044132 3.159167e-005 -85.921516 1.0594689 -36.440502
10950137500 0.83887237 -153.33751 2.3607678e-005 -165.97769 2.2077784e-005 -138.74701 1.0604739 -36.512398
10950171875 0.83807659 -153.46078 5.0151579e-005 -140.56357 3.9541814e-005 -160.2225 1.0605466 -36.467796
10950206250 0.84007096 -153.41391 6.9504189e-005 -30.732685 1.3240427e-005 -110.54323 1.0595399 -36.478111
10950240625 0.8394832 -153.36273 1.4143822e-005 -107.03229 2.5677165e-005 -101.16926 1.0598472 -36.439293
10950275000 0.83894795 -153.32043 1.8932305e-005 -142.13271 1.1298515e-005 50.130268 1.0586572 -36.447311
10950309375 0.83946294 -153.37434 1.6328746e-005 -106.16124 3.0983534e-005 -161.6474 1.0590984 -36.459064
10950343750 0.83862907 -153.26292 4.2997144e-005 -100.43912 2.4890502e-005 -131.65604 1.0593021 -36.413448
10950378125 0.83841753 -153.2765 7.003839e-005 -118.76224 3.1866497e-005 -91.499626 1.0603415 -36.385414
10950412500 0.83748019 -153.28922 2.7020249e-005 -119.55965 8.7995977e-006 -161.67157 1.0600338 -36.388931
10950446875 0.8378644 -153.40388 8.1157938e-005 -114.71184 2.2116785e-005 -95.040955 1.0603702 -36.49221
10950481250 0.83869761 -153.32565 2.7846618e-005 -173.00403 8.0576929e-006 -70.800148 1.0595111 -36.502712
10950515625 0.83842951 -153.37752 2.2508691e-005 -162.85417 3.3846103e-005 -141.38654 1.0589267 -36.481247
10950550000 0.83857858 -153.31239 4.7504247e-005 -58.47131 9.6792564e-006 -33.757683 1.058971 -36.469448
10950584375 0.83873963 -153.2227 5.0179704e-005 146.04134 4.3211359e-005 -84.209702 1.0593007 -36.460426
10950618750 0.83705735 -153.26944 4.8323e-005 53.336277 2.5552195e-005 -153.92451 1.0587875 -36.420162
10950653125 0.83774287 -153.34697 5.0963274e-005 -70.414268 2.3131692e-005 -111.39159 1.0604891 -36.42754
10950687500 0.83759475 -153.29477 4.0346644e-005 -123.52864 2.3267079e-005 -128.84918 1.0608815 -36.470009
10950721875 0.8379916 -153.32948 1.6120446e-005 -58.556667 1.0395203e-005 35.223198 1.0595824 -36.487743
10950756250 0.8385092 -153.35124 5.0489005e-005 -177.07684 2.1741294e-005 -114.80869 1.0576497 -36.498268
10950790625 0.8375572 -153.36029 5.4740944e-005 -50.487183 1.6172693e-005 -121.34647 1.0587109 -36.404579
10950825000 0.83804154 -153.3457 2.1427164e-005 -25.50613 4.054204e-005 -126.26222 1.0602808 -36.507751
10950859375 0.83778811 -153.3788 3.4917917e-005 81.083412 1.3534733e-005 -56.665562 1.0603403 -36.539352
10950893750 0.83877307 -153.40698 8.0022888e-005 -0.096792608 8.6536211e-006 -36.617199 1.0604355 -36.466099
10950928125 0.83909017 -153.32062 5.2879852e-005 13.581562 5.8123237e-006 -101.18645 1.0602949 -36.459099
10950962500 0.83911759 -153.38245 5.6622448e-005 -118.5524 4.3501404e-006 -25.802744 1.0603759 -36.471478
10950996875 0.83900374 -153.39534 1.1872389e-005 117.33395 1.0696272e-005 12.116748 1.0608573 -36.494705
10951031250 0.83867759 -153.37773 8.7781737e-006 107.9506 3.016457e-005 -137.38765 1.0611097 -36.542004
10951065625 0.83797759 -153.43848 5.1885716e-005 -106.32374 1.8964058e-005 127.35027 1.060232 -36.499493
10951100000 0.83827877 -153.42082 5.9163165e-005 -89.190109 1.7962013e-005 -16.768858 1.0607494 -36.513889
10951134375 0.83850157 -153.41914 3.8976646e-005 109.54167 2.8095219e-005 -120.18457 1.0593839 -36.47567
10951168750 0.83839965 -153.40207 4.266058e-005 -98.96814 1.5160106e-005 -126.34058 1.0598428 -36.428608
10951203125 0.8381691 -153.3961 2.8734377e-005 -133.41328 1.8394783e-005 -125.61922 1.0601506 -36.464592
10951237500 0.83792448 -153.3792 1.572524e-005 -49.816643 2.9803863e-005 -75.626709 1.0596868 -36.419151
10951271875 0.83791989 -153.39841 3.9926519e-005 -114.61002 1.4750796e-005 139.6011 1.0595161 -36.463432
10951306250 0.83908832 -153.42513 4.4433473e-005 79.729095 2.2921233e-005 128.7885 1.0598308 -36.453873
10951340625 0.83945519 -153.38054 4.8988742e-005 -154.49883 2.0819345e-005 67.026627 1.0597557 -36.464943
10951375000 0.83926725 -153.34554 2.2446577e-005 -76.30246 2.9587325e-005 -113.54213 1.060177 -36.488853
10951409375 0.83882862 -153.3933 5.8296146e-006 -71.314651 7.3649435e-006 -175.90015 1.0601542 -36.548367
10951443750 0.83920872 -153.35046 3.846013e-005 -50.455772 1.248831e-005 165.88928 1.0597302 -36.456043
10951478125 0.83929849 -153.45714 4.5235698e-005 -62.591785 1.6103706e-005 -163.95033 1.0606353 -36.473186
10951512500 0.84045905 -153.43236 2.3508248e-005 -95.611641 1.7942046e-005 -92.743248 1.0604496 -36.481194
10951546875 0.83896452 -153.43811 5.0933468e-005 101.17989 1.5521937e-005 -6.7384925 1.0602558 -36.478127
10951581250 0.83900046 -153.44543 5.0333147e-005 -133.48753 1.3592854e-005 -125.94648 1.0593603 -36.473541
10951615625 0.83941036 -153.46246 4.9633371e-005 -156.56667 1.0364719e-005 -37.315025 1.0603689 -36.454903
10951650000 0.83927482 -153.47456 4.2097116e-005 -78.907097 4.5351233e-005 -52.177135 1.0599414 -36.44146
10951684375 0.83906955 -153.472 1.5633224e-005 -63.790062 3.2685093e-005 -99.712372 1.0608859 -36.43507
10951718750 0.838938 -153.50897 9.4951014e-005 -132.11899 1.8052977e-005 164.59677 1.0602324 -36.437801
10951753125 0.8391102 -153.47856 2.4297522e-005 137.93198 2.2246655e-005 -133.67108 1.0603415 -36.433823
10951787500 0.83776003 -153.43558 1.6431399e-005 -25.637899 1.4543705e-005 -147.40628 1.0591424 -36.419029
10951821875 0.83779007 -153.44258 4.8130289e-005 -93.058945 1.1852774e-005 133.1843 1.0592619 -36.431244
10951856250 0.83880126 -153.46529 3.0598938e-005 90.967049 3.3752331e-005 -135.65346 1.0585973 -36.415192
10951890625 0.83867252 -153.47835 6.386442e-005 -67.996796 9.3607223e-006 -156.28014 1.0584755 -36.491638
10951925000 0.83918434 -153.51836 7.0507784e-005 -1.4534184 6.8815793e-006 -49.006824 1.0592571 -36.463501
10951959375 0.83843553 -153.55679 2.479455e-005 58.184292 1.6337024e-005 6.4159393 1.06033 -36.436546
10951993750 0.83903283 -153.4897 1.0416266e-005 -92.107857 1.1780889e-005 -64.036057 1.0596135 -36.447628
10952028125 0.83822304 -153.58905 2.5188428e-005 -102.82683 1.2045675e-005 -35.592228 1.0594785 -36.41074
10952062500 0.83897388 -153.55179 2.8141551e-005 3.8275962 1.2204883e-006 -56.828403 1.0594778 -36.395676
10952096875 0.83872151 -153.59885 8.9699555e-005 -111.35898 3.549139e-005 -44.417835 1.0598243 -36.466908
10952131250 0.83826345 -153.51566 2.2529015e-005 66.641907 4.3712615e-005 -99.545319 1.0601288 -36.450962
10952165625 0.83874983 -153.55438 5.1997381e-006 178.16298 3.0667888e-005 -124.06109 1.0609127 -36.492367
10952200000 0.83765554 -153.50722 6.3864027e-005 -145.11034 2.9956806e-005 -158.2592 1.0610635 -36.534771
10952234375 0.83734667 -153.62605 7.4418742e-005 -123.47015 6.374024e-006 -88.910889 1.0608715 -36.495968
10952268750 0.83733535 -153.58514 3.6818827e-005 157.17329 6.5529757e-006 60.221237 1.0593504 -36.457214
10952303125 0.83815461 -153.52779 2.6099688e-005 -164.02278 1.0362824e-005 -138.12088 1.0594976 -36.436333
10952337500 0.83799213 -153.53743 1.5538802e-005 -62.616989 3.0084188e-005 -121.59498 1.0602252 -36.421097
10952371875 0.83798325 -153.57806 2.8582901e-005 -126.99866 4.0340754e-005 -131.9792 1.0604874 -36.400272
10952406250 0.83846903 -153.61639 6.5905464e-005 -121.87697 3.4342847e-005 -7.0663023 1.0613668 -36.493526
10952440625 0.83838058 -153.63098 5.2070547e-005 -30.68021 2.1309264e-005 -167.54385 1.0607866 -36.46497
10952475000 0.83812988 -153.52516 4.7417383e-005 7.667912 3.0924027e-006 15.713429 1.0594225 -36.458424
10952509375 0.83745569 -153.51819 3.6945621e-005 -108.00346 1.8203047e-005 -36.131283 1.0605432 -36.46563
10952543750 0.83913904 -153.61299 2.6720934e-005 -95.013718 2.8730132e-005 -78.768082 1.0607227 -36.447693
10952578125 0.83872497 -153.48494 3.0793039e-005 -120.58788 8.340885e-006 37.645878 1.0612242 -36.508236
10952612500 0.83839619 -153.5209 4.1571624e-005 -125.57612 3.1318388e-005 -115.01984 1.0612162 -36.478134
10952646875 0.8382467 -153.61763 6.5377018e-005 150.93819 5.4801467e-006 -118.91969 1.0604302 -36.512856
10952681250 0.83729708 -153.63205 2.4590208e-005 -179.80098 2.6329049e-005 -26.440016 1.0595859 -36.366016
10952715625 0.83857554 -153.56534 1.7540708e-005 -59.654922 1.0095217e-005 -69.293877 1.0585767 -36.416248
10952750000 0.83677715 -153.62155 5.3164127e-005 -133.46533 2.476609e-005 -113.51727 1.0592039 -36.474445
10952784375 0.83839619 -153.53848 1.3337905e-005 141.28038 1.9958696e-005 -139.45763 1.0588917 -36.409691
10952818750 0.83725464 -153.55666 1.4971468e-005 -18.721991 1.0129421e-005 102.12692 1.0602286 -36.42627
10952853125 0.83821362 -153.58226 5.0305462e-005 -19.226334 6.9517814e-006 -9.9328918 1.0607163 -36.434273
10952887500 0.83753496 -153.61058 2.7043789e-006 -23.854593 1.2859208e-005 -48.374729 1.0601532 -36.446018
10952921875 0.83895576 -153.59125 2.6125819e-005 -40.24543 1.187875e-005 5.4630613 1.059705 -36.453907
10952956250 0.83843327 -153.7132 9.5775877e-006 -31.914824 1.5114955e-005 -47.295372 1.0593376 -36.49456
10952990625 0.83923018 -153.68401 9.7842631e-006 -147.30168 9.9508925e-006 145.55585 1.0588863 -36.462273
10953025000 0.83853513 -153.72383 2.5144152e-005 -50.875954 2.5388181e-005 56.947506 1.0588831 -36.506966
10953059375 0.83870012 -153.70961 1.2113909e-005 -87.027191 2.5775409e-005 172.08098 1.0596234 -36.441532
10953093750 0.8384794 -153.67325 5.24385e-005 -83.250633 2.2672379e-005 -5.0231743 1.0579112 -36.498505
10953128125 0.83952147 -153.66457 8.1182852e-006 -113.36148 1.9220168e-005 -130.99254 1.0583383 -36.432732
10953162500 0.83931774 -153.67549 2.1117488e-005 116.7746 2.5734707e-005 -74.490059 1.060196 -36.417141
10953196875 0.83843547 -153.6696 1.3506315e-005 156.70189 2.0514708e-005 -171.45811 1.0594468 -36.427086
10953231250 0.83727515 -153.67291 3.8166972e-006 -158.28401 6.9821663e-006 -136.01202 1.0595024 -36.4151
10953265625 0.83801156 -153.57634 4.2705506e-006 -41.61467 3.0608222e-005 -103.89012 1.0584081 -36.417576
10953300000 0.83772457 -153.62851 3.8915081e-005 -32.163605 1.8253328e-005 37.542324 1.0597656 -36.445396
10953334375 0.83821881 -153.62492 3.5904872e-005 -51.027763 2.5681577e-005 -4.5883651 1.0597451 -36.448383
10953368750 0.83795351 -153.63542 3.966863e-005 -103.21597 1.2451754e-005 165.55209 1.061164 -36.439533
10953403125 0.83801043 -153.68365 1.5511132e-005 -110.48418 2.0454421e-005 152.88426 1.0617774 -36.43605
10953437500 0.83895457 -153.62656 2.2507149e-005 -104.18459 5.8747305e-006 111.74377 1.0607209 -36.459473
10953471875 0.83804715 -153.62711 1.1102218e-005 143.19774 2.3051551e-005 -72.97464 1.0599452 -36.424774
10953506250 0.8384198 -153.65259 5.3612057e-005 -55.336849 2.0842497e-005 -84.771935 1.0590649 -36.376575
10953540625 0.83821541 -153.71733 2.2459672e-005 165.84569 2.6976983e-005 -147.61026 1.0587364 -36.501476
10953575000 0.83687949 -153.71136 2.1351607e-005 144.55096 1.4452464e-005 -73.270493 1.0595545 -36.448196
10953609375 0.83706653 -153.78308 4.939795e-005 134.98302 3.4713914e-005 6.0319161 1.0579981 -36.487442
10953643750 0.83749503 -153.75043 4.2526103e-006 -131.02162 2.9749903e-005 -131.58713 1.0590552 -36.409534
10953678125 0.83693218 -153.75824 3.7950402e-005 -99.240662 3.6769339e-005 -100.81078 1.0595257 -36.451122
10953712500 0.8387081 -153.6801 3.6732479e-005 -46.178146 1.0446332e-005 -84.415329 1.0598255 -36.491673
10953746875 0.83844566 -153.76303 4.9404211e-005 -67.339836 9.2998307e-006 46.172642 1.0613283 -36.465889
10953781250 0.83770955 -153.62907 3.0881569e-005 -49.338413 2.4823121e-006 37.017185 1.060572 -36.427597
10953815625 0.8396706 -153.70729 1.3823861e-005 -173.11403 2.275672e-005 20.563046 1.0601381 -36.502949
10953850000 0.83936661 -153.6792 2.284229e-005 154.47519 1.7726326e-005 133.66791 1.0602356 -36.497559
10953884375 0.83852154 -153.66742 4.0366922e-005 -76.434235 8.6639366e-006 -155.786 1.0601115 -36.441738
10953918750 0.83883327 -153.66145 7.9240534e-005 -110.92181 6.6780108e-006 -157.61935 1.0603986 -36.435047
10953953125 0.83843839 -153.73611 1.4823492e-005 73.195091 6.0001212e-006 -172.15622 1.0602561 -36.421566
10953987500 0.8377018 -153.7269 1.7265191e-005 -166.38066 2.4973877e-005 -168.95468 1.0595727 -36.438831
10954021875 0.83872706 -153.68355 4.434408e-005 152.97116 3.2647007e-005 -147.53604 1.0590199 -36.421444
10954056250 0.83725524 -153.64357 4.0374616e-005 -124.11864 9.3159861e-006 -43.092567 1.0590385 -36.452873
10954090625 0.83760655 -153.765 3.9769373e-005 111.90479 1.0484604e-005 -83.57888 1.0593566 -36.444645
10954125000 0.83758128 -153.79393 3.2633547e-005 -127.14202 4.338905e-006 -65.379745 1.0589762 -36.439636
10954159375 0.83847785 -153.77646 1.3385163e-005 -148.52049 1.0034649e-005 -6.0465541 1.0598947 -36.445023
10954193750 0.83853996 -153.80853 3.6885216e-005 -133.97227 2.2066053e-005 -70.458092 1.05964 -36.457478
10954228125 0.83908284 -153.74385 4.9923125e-005 -129.42581 2.1323438e-005 -148.60646 1.0597018 -36.468464
10954262500 0.83819848 -153.76945 1.7661334e-005 -140.8802 7.1339718e-006 -153.95103 1.0593798 -36.447079
10954296875 0.83835137 -153.7198 5.8581383e-005 165.87254 1.2210763e-005 -90.901009 1.0595381 -36.438999
10954331250 0.83886087 -153.83278 2.2848939e-005 -163.51888 2.805236e-005 -18.202383 1.0601783 -36.429447
10954365625 0.83823782 -153.80998 8.2729319e-005 179.41138 3.2525451e-005 -152.9882 1.0591005 -36.394962
10954400000 0.83791584 -153.78754 1.5457985e-005 -103.80017 2.0312436e-005 -130.9317 1.0603666 -36.406143
10954434375 0.83803117 -153.82991 3.8789931e-005 -130.23796 4.0936473e-005 -152.64319 1.0588577 -36.463558
10954468750 0.83909237 -153.77072 1.6876438e-005 87.380112 1.3059696e-005 85.101997 1.0595586 -36.490681
10954503125 0.83879918 -153.82225 6.4157233e-005 -159.50307 1.0479674e-005 -50.010708 1.0597584 -36.534996
10954537500 0.83861941 -153.72937 2.26705e-005 -17.552794 1.5487147e-005 -84.410065 1.0589075 -36.452835
10954571875 0.83904558 -153.76399 1.0150256e-005 135.91769 3.0465048e-005 -143.00504 1.0599196 -36.438751
10954606250 0.83843762 -153.79488 3.3916363e-005 25.630138 1.9018749e-005 -90.186089 1.0608988 -36.518276
10954640625 0.83793396 -153.8114 2.6363337e-005 59.023994 3.0946238e-005 -154.99379 1.0601523 -36.47213
10954675000 0.83894801 -153.81786 1.5216642e-005 -43.997646 1.5819047e-005 20.633448 1.0591772 -36.425842
10954709375 0.83897382 -153.80244 9.4171946e-006 24.253504 1.9847063e-005 139.29903 1.059448 -36.449821
10954743750 0.83857214 -153.78497 1.1639774e-005 -169.77948 2.5172134e-005 -146.53712 1.0598022 -36.494823
10954778125 0.83884287 -153.8109 4.656694e-005 -51.540524 4.8368554e-005 -95.905647 1.0606389 -36.497398
10954812500 0.83964562 -153.85687 4.4419729e-005 172.49359 1.3529128e-005 90.481651 1.059678 -36.454845
10954846875 0.83897763 -153.84335 4.3769993e-005 -127.20721 2.7581682e-005 -126.86076 1.0599332 -36.515251
10954881250 0.83836639 -153.8997 7.5168241e-006 -155.43628 2.6648786e-005 -136.12712 1.0599498 -36.491699
10954915625 0.83864331 -153.87045 3.552073e-005 77.229721 4.0910294e-005 -56.949669 1.0604317 -36.502762
10954950000 0.8382287 -153.83179 1.6791728e-005 -128.70471 1.8376044e-005 -172.49422 1.0606635 -36.474525
10954984375 0.83793259 -153.88286 2.1668991e-005 -160.12959 3.6109148e-005 -157.9368 1.0602124 -36.402069
10955018750 0.83830976 -153.89639 1.5125026e-005 -94.901733 3.7942758e-005 169.32425 1.0589854 -36.416332
10955053125 0.83881748 -153.81528 8.0754595e-005 127.8259 1.7161177e-005 -75.02832 1.0585864 -36.462109
10955087500 0.83861542 -153.85168 1.4055166e-005 -11.889622 4.1574058e-005 154.3364 1.0593845 -36.492649
10955121875 0.83749408 -153.80489 6.4380918e-005 -97.503723 4.6347959e-006 -127.3593 1.0601926 -36.480293
10955156250 0.83727747 -153.77463 2.3384651e-005 62.053658 2.0623829e-005 -34.203167 1.0600988 -36.497723
10955190625 0.83708149 -153.84106 3.7391252e-005 -66.322319 3.1536183e-005 -111.26092 1.0600559 -36.51627
10955225000 0.83768159 -153.86278 3.2656215e-005 -141.5415 9.0076428e-006 -23.136713 1.0591922 -36.494804
10955259375 0.83747649 -153.87047 1.6328813e-005 -168.05733 3.094531e-005 -102.39617 1.0600531 -36.359947
10955293750 0.83860737 -153.81641 3.5489993e-005 43.836338 9.2765185e-006 171.08926 1.0597603 -36.458008
10955328125 0.83977705 -153.80923 2.6990618e-005 -120.84959 2.6710819e-005 -153.50749 1.0596292 -36.431679
10955362500 0.83896613 -153.8694 2.2282069e-005 -121.50847 1.2032466e-005 -101.96772 1.0596195 -36.494362
10955396875 0.83754611 -153.85898 4.260071e-005 138.74406 2.7267244e-005 -142.4359 1.0595946 -36.456448
10955431250 0.83820313 -153.88409 1.1799745e-005 -82.899338 1.3140936e-005 -155.84767 1.0580143 -36.438728
10955465625 0.83789504 -153.89354 2.0107469e-005 137.37923 2.7380132e-005 -120.79261 1.0595158 -36.42522
10955500000 0.8380599 -153.85435 2.4340548e-005 -149.80466 2.8517898e-005 -30.405861 1.060084 -36.462563
10955534375 0.83748364 -153.83409 3.1532938e-005 81.750946 1.3748608e-005 -102.89426 1.0591035 -36.450413
10955568750 0.83802789 -153.9106 2.8211734e-005 33.412777 2.4452414e-005 -78.67141 1.059294 -36.498116
10955603125 0.8387177 -153.95494 3.2679407e-005 -150.86026 1.1751845e-005 -167.03387 1.0592312 -36.527298
10955637500 0.83959818 -153.91483 5.1595925e-005 165.26797 3.2357551e-005 61.765373 1.0593787 -36.52478
10955671875 0.83963031 -153.91879 6.5300592e-005 -100.89307 8.0911777e-006 133.16299 1.0606639 -36.49041
10955706250 0.83799046 -153.97466 2.7936226e-006 -63.997501 1.7735641e-005 98.679192 1.06003 -36.449486
10955740625 0.83944833 -153.97415 2.3062963e-005 -78.049202 2.5505215e-005 -99.093483 1.0603962 -36.467758
10955775000 0.83731127 -153.86406 4.2472606e-005 -130.51126 2.010507e-005 -169.32268 1.0603242 -36.412659
10955809375 0.83776212 -153.92241 1.5015877e-005 -131.925 5.6630738e-006 15.105809 1.0595473 -36.457882
10955843750 0.83811718 -154.01692 2.4943667e-005 179.74289 2.9141824e-005 171.93054 1.0593196 -36.430927
10955878125 0.83755493 -153.99191 1.0867025e-005 -133.72975 8.5171578e-006 -74.737778 1.059857 -36.445015
10955912500 0.83796352 -153.94281 4.0891457e-005 -66.159737 3.9420178e-005 122.23453 1.0602341 -36.513409
10955946875 0.83735186 -153.8737 4.3293341e-005 -20.163645 7.1850454e-006 86.935341 1.0601718 -36.506119
10955981250 0.83675092 -153.9924 4.0611616e-005 89.342896 1.3809005e-005 -120.77511 1.0592387 -36.482235
10956015625 0.83779168 -153.89018 1.3780441e-005 -111.05497 9.1685724e-006 -43.158844 1.0598756 -36.467533
10956050000 0.83748269 -153.87434 1.3272667e-005 -38.489742 1.3400608e-005 -74.865952 1.060662 -36.457355
10956084375 0.83786899 -153.92424 2.9895133e-005 -56.082008 1.7456534e-005 -165.37155 1.058827 -36.450802
10956118750 0.8379333 -153.95158 1.7566928e-005 135.29002 6.8041172e-006 -21.067293 1.060015 -36.498764
10956153125 0.8371281 -153.97618 3.5546822e-005 -35.288208 4.6821137e-006 -7.0308752 1.0617373 -36.458527
10956187500 0.83728683 -154.03516 3.6545473e-005 -83.876114 1.3233554e-005 38.088238 1.0607321 -36.405426
10956221875 0.83772743 -154.0258 2.5206251e-005 -144.57312 6.8193631e-006 159.06795 1.0604349 -36.46188
10956256250 0.83854163 -154.02376 3.0716736e-005 -137.29781 3.5722169e-005 136.728 1.0598772 -36.418854
10956290625 0.83994764 -153.98676 7.4650011e-006 -70.024742 2.189127e-005 -149.36548 1.061337 -36.417248
