!Agilent Technologies,E8362C,MY49020356,A.09.42.23
!Agilent E8362C: A.09.42.23
!Date: Saturday, September 11, 2021 04:17:47
!Correction: S11(Full 2 Port(1,2)) 
!S21(Full 2 Port(1,2)) 
!S12(Full 2 Port(1,2)) 
!S22(Full 2 Port(1,2)) 
!S2P File: Measurements: S11, S21, S12, S22:
# Hz S  MA   R 50
10950000000 0.8737253 -149.33858 4.7911686e-005 -41.33054 2.793824e-005 171.46404 1.0524874 -36.651985
10950034375 0.8722989 -149.40657 2.5402065e-005 28.649796 9.1173933e-006 15.783089 1.0527699 -36.718025
10950068750 0.87321657 -149.38744 7.961598e-005 -36.88121 7.6261117e-006 21.291468 1.0527135 -36.633961
10950103125 0.87298745 -149.4621 4.9152222e-005 5.7051911 8.5842885e-006 -163.62875 1.0526068 -36.654022
10950137500 0.87223464 -149.42516 3.1437299e-005 175.84108 1.2791317e-005 -168.32135 1.0527507 -36.652374
10950171875 0.87212718 -149.44577 3.4565714e-005 -63.633213 8.3348014e-006 -120.43958 1.0544534 -36.67704
10950206250 0.87384874 -149.46889 1.6627004e-005 63.257526 2.3765937e-005 141.76561 1.0532442 -36.643814
10950240625 0.87321663 -149.43677 1.0742317e-005 1.4615827 5.9612021e-006 -53.873882 1.0532788 -36.666077
10950275000 0.87425882 -149.41426 7.5519216e-005 -142.03282 9.7275943e-006 19.012039 1.0528527 -36.656456
10950309375 0.87306225 -149.29967 3.5019748e-005 -28.609701 1.9539953e-005 64.668976 1.052603 -36.626305
10950343750 0.87327701 -149.33214 5.8678554e-005 1.4635434 1.2078174e-005 144.78265 1.0527339 -36.592964
10950378125 0.87251478 -149.31259 2.3766957e-005 -7.8676462 1.019863e-005 -164.11473 1.0533361 -36.593258
10950412500 0.87198257 -149.34064 4.5839184e-005 -24.88431 2.292092e-005 127.73975 1.0532671 -36.549683
10950446875 0.87249362 -149.39413 1.312337e-005 49.751961 7.7074073e-006 -23.755054 1.054253 -36.676598
10950481250 0.87344652 -149.39796 5.0036728e-005 -108.69636 1.4346147e-005 73.503433 1.0531268 -36.693989
10950515625 0.8726176 -149.43196 7.7869656e-005 -20.086447 6.8546683e-006 138.91739 1.0529991 -36.613628
10950550000 0.87242019 -149.32655 2.5528532e-005 -4.5357251 1.3250542e-005 -65.623055 1.0528042 -36.62122
10950584375 0.87259388 -149.36443 4.4297332e-005 -5.5064764 2.1335472e-005 -62.076996 1.0526776 -36.660599
10950618750 0.87269855 -149.38812 4.451619e-005 -125.75845 3.2105099e-006 -169.52574 1.0524309 -36.645969
10950653125 0.87158006 -149.39001 6.7684326e-005 -51.619942 3.3873737e-005 -97.962921 1.0535802 -36.634121
10950687500 0.87196022 -149.32547 3.4002042e-005 -115.10416 1.8867047e-005 93.96714 1.0533456 -36.672932
10950721875 0.87235278 -149.43408 4.341676e-005 -43.724758 2.0252261e-005 63.182903 1.0529665 -36.622234
10950756250 0.87245524 -149.42419 3.2958418e-005 -16.701569 1.6416632e-005 49.075035 1.0536438 -36.603737
10950790625 0.87276447 -149.36346 2.2199421e-005 167.1662 1.4571641e-005 -43.195343 1.0515321 -36.679886
10950825000 0.8730945 -149.41594 7.0274655e-005 -31.232031 2.338561e-005 64.249023 1.0522878 -36.635998
10950859375 0.87224114 -149.33586 4.0309755e-005 -17.22905 2.2388494e-005 -48.789989 1.0535952 -36.7159
10950893750 0.87318128 -149.40984 1.3767328e-005 -5.6643152 3.9280574e-005 21.222685 1.0529201 -36.638573
10950928125 0.87404233 -149.39868 2.6863037e-005 -43.839985 2.2018341e-005 54.066631 1.0529256 -36.64817
10950962500 0.87353748 -149.47311 4.5437537e-005 -44.194618 6.7909405e-006 -7.3650484 1.0532093 -36.66864
10950996875 0.87293136 -149.44818 3.7368543e-005 41.351944 1.9841829e-005 113.70824 1.0547383 -36.701447
10951031250 0.8732686 -149.42384 5.1500323e-005 13.707673 1.9361494e-005 -78.793892 1.0539781 -36.705246
10951065625 0.87227678 -149.48055 8.7265551e-005 -18.137007 1.8567833e-005 -100.72197 1.0539838 -36.710609
10951100000 0.873698 -149.46033 4.4330434e-005 -35.037663 2.706846e-005 94.613472 1.0547407 -36.662231
10951134375 0.87177587 -149.45012 2.2118395e-005 -12.349138 2.7955537e-005 9.5138197 1.0531729 -36.656616
10951168750 0.87340218 -149.45171 6.8087102e-005 6.2509122 1.1224935e-005 -4.9949594 1.0543919 -36.673405
10951203125 0.87222546 -149.37085 6.2391831e-005 -80.761848 2.3087559e-005 129.55882 1.0540891 -36.652306
10951237500 0.87211323 -149.45612 7.5761509e-006 42.978283 2.4944798e-005 19.419312 1.0542967 -36.617317
10951271875 0.8730545 -149.43692 3.0322828e-005 -136.95215 1.6368836e-005 53.109097 1.0525692 -36.596142
10951306250 0.87252718 -149.44574 3.630868e-005 -42.700798 9.3907202e-006 88.901787 1.0526072 -36.641739
10951340625 0.87301528 -149.43715 5.0528626e-005 61.009682 2.17955e-005 -27.865788 1.0540915 -36.638447
10951375000 0.87186617 -149.41042 2.9422443e-005 139.78082 9.2379605e-006 -71.226463 1.0545228 -36.671806
10951409375 0.87297249 -149.37148 5.6816189e-005 -95.235207 2.5897625e-005 29.026266 1.053812 -36.670132
10951443750 0.87262696 -149.43968 1.1650907e-005 -128.01535 3.9219417e-006 -93.708397 1.0546035 -36.676941
10951478125 0.87370771 -149.47923 4.5060548e-005 29.051825 9.2592954e-006 -132.10561 1.0534077 -36.671833
10951512500 0.87334019 -149.40556 3.098189e-005 5.4089565 1.3999799e-005 -54.934521 1.052551 -36.65424
10951546875 0.87389338 -149.4949 2.6340564e-005 76.533653 2.0272348e-005 41.155521 1.0539953 -36.665436
10951581250 0.87389237 -149.4465 3.3861266e-005 -117.26575 1.2305552e-005 -2.6186757 1.0539356 -36.628849
10951615625 0.87439805 -149.47876 1.8186707e-005 -21.345531 3.3739489e-005 110.16175 1.0536547 -36.635509
10951650000 0.87344903 -149.50119 6.1473889e-005 -15.483281 3.0948111e-005 -60.909222 1.0542889 -36.631523
10951684375 0.87396717 -149.50368 3.407881e-005 38.553883 1.4713575e-005 -60.061768 1.0555115 -36.643478
10951718750 0.87426585 -149.55641 3.4449124e-005 55.807674 3.0271103e-005 54.424297 1.05475 -36.608467
10951753125 0.87282878 -149.50308 6.0501203e-005 -59.361702 3.4566162e-006 154.36298 1.054006 -36.629845
10951787500 0.87312573 -149.50316 1.5936801e-005 -71.767799 9.2747514e-006 138.69891 1.0527674 -36.632072
10951821875 0.87215096 -149.4852 4.3359913e-005 -53.558891 1.0087391e-005 118.79877 1.0526669 -36.597927
10951856250 0.87211919 -149.52382 8.0987833e-005 42.368565 2.0583584e-005 67.958275 1.0534705 -36.625298
10951890625 0.87403727 -149.4682 1.9110086e-005 -40.746346 3.0324969e-005 -5.3542042 1.0528492 -36.642197
10951925000 0.87348372 -149.55368 4.6736535e-005 -78.594597 7.3657025e-006 120.61412 1.0529624 -36.589901
10951959375 0.87391585 -149.53915 1.8158045e-005 29.590729 1.2021882e-005 -84.160912 1.0534685 -36.658607
10951993750 0.87218773 -149.59537 6.9526897e-005 -39.529663 2.2487078e-005 -1.735641 1.053527 -36.628891
10952028125 0.87385333 -149.53601 2.5970072e-005 35.884525 1.9725829e-005 -97.146057 1.05226 -36.568813
10952062500 0.87339908 -149.55783 2.801114e-005 45.39138 2.1263153e-005 109.67133 1.0523889 -36.580391
10952096875 0.87373048 -149.63489 3.9942719e-005 24.325724 5.428441e-006 140.75787 1.0538962 -36.632332
10952131250 0.87214482 -149.56932 4.3075175e-005 -114.80425 2.1629658e-005 -64.427246 1.0542885 -36.686665
10952165625 0.87355918 -149.61269 3.6428588e-005 -122.73089 2.7126418e-006 67.247314 1.0533415 -36.678967
10952200000 0.87313056 -149.6427 2.8891084e-006 -85.340576 6.538743e-006 -34.245335 1.0546079 -36.68763
10952234375 0.87192374 -149.64665 6.8795416e-005 -58.629799 2.6227244e-005 -12.913754 1.0538173 -36.671589
10952268750 0.87317967 -149.57004 2.7980852e-005 -35.888157 2.7591514e-005 4.0510516 1.0533639 -36.628166
10952303125 0.87170666 -149.62422 5.2659492e-005 -9.8252745 1.8047678e-005 -119.32383 1.0524625 -36.578476
10952337500 0.87189347 -149.58589 5.0695497e-005 -19.606018 8.1555199e-006 51.478386 1.0538267 -36.600601
10952371875 0.87318724 -149.60158 1.2928295e-005 137.05501 3.5411304e-005 86.628342 1.0538961 -36.613815
10952406250 0.87254792 -149.62498 6.0455986e-005 15.20152 1.0254619e-005 -133.42754 1.0537641 -36.640049
10952440625 0.872096 -149.65775 6.5893582e-005 -13.506653 1.2304009e-005 -30.238676 1.0534137 -36.646812
10952475000 0.87208694 -149.63744 1.547652e-005 -91.84359 8.7217122e-006 11.165928 1.0536947 -36.678303
10952509375 0.87156391 -149.55363 5.4292264e-005 -48.979824 1.7449647e-005 108.47023 1.0530851 -36.638676
10952543750 0.87375998 -149.59608 3.147087e-005 -25.815735 1.1102434e-005 3.5559814 1.0540268 -36.657726
10952578125 0.87364393 -149.58481 6.8990317e-005 26.696383 1.4493639e-005 -109.27969 1.0538428 -36.69479
10952612500 0.87224203 -149.56947 3.7766826e-005 41.182133 1.7772385e-005 87.224007 1.0552903 -36.664082
10952646875 0.87298983 -149.63535 4.6794004e-005 -95.077568 3.2050611e-005 -116.38187 1.0542105 -36.595448
10952681250 0.87269902 -149.64388 6.3701555e-005 -91.387932 6.3894986e-006 -54.682281 1.0552713 -36.597237
10952715625 0.87159801 -149.64255 6.4266227e-005 -4.6787443 3.1012063e-005 86.956543 1.0527227 -36.5989
10952750000 0.87247312 -149.55956 2.1874497e-005 -145.48344 1.1748672e-005 -96.412041 1.0534989 -36.631729
10952784375 0.87203836 -149.65553 2.7232492e-005 -74.148918 3.2875003e-005 -68.712044 1.0521464 -36.60363
10952818750 0.87174451 -149.60013 7.9596997e-005 -14.570042 3.1539203e-005 29.645514 1.054073 -36.632191
10952853125 0.87263501 -149.58366 1.911851e-005 -84.118927 7.8667281e-006 72.02066 1.0525714 -36.605827
10952887500 0.87321138 -149.63382 1.483291e-005 -69.123062 1.7140084e-005 128.23219 1.0541223 -36.647667
10952921875 0.87361437 -149.66994 1.4199419e-005 76.366409 3.2033528e-005 -51.200794 1.0534713 -36.643997
10952956250 0.87309742 -149.71222 2.9442879e-005 -7.1529393 3.7188191e-005 18.447523 1.0533632 -36.625729
10952990625 0.87379342 -149.69749 5.8413338e-005 4.31322 3.6231202e-005 -133.17673 1.052115 -36.586849
10953025000 0.87350959 -149.64243 4.8979051e-005 44.807026 2.0879374e-005 -67.89798 1.0525243 -36.633854
10953059375 0.87284958 -149.63673 9.5967935e-006 90.665474 2.9784684e-005 60.400703 1.053023 -36.636074
10953093750 0.87378395 -149.72658 1.8806328e-005 -17.666054 1.1263143e-005 -50.937435 1.0518465 -36.672855
10953128125 0.87336135 -149.67339 3.4928591e-005 -48.559071 3.7623417e-005 97.892303 1.0530928 -36.594501
10953162500 0.87344342 -149.69604 4.3842836e-005 7.6481071 1.5791595e-005 72.728691 1.0531411 -36.581917
10953196875 0.8726114 -149.67516 5.9056976e-005 -31.322227 1.6723781e-005 57.409542 1.0541828 -36.620419
10953231250 0.87324804 -149.62486 4.2569362e-005 -67.904648 5.1766867e-005 29.316797 1.0535434 -36.612526
10953265625 0.87239742 -149.67235 3.1961252e-005 16.808178 1.4917275e-005 -127.36813 1.0531747 -36.561031
10953300000 0.87128907 -149.61357 6.2746476e-005 6.6979809 1.4748111e-005 1.6586508 1.0525728 -36.608337
10953334375 0.87208736 -149.65701 6.0044211e-005 -106.65476 2.7554761e-005 89.416039 1.0533891 -36.648251
10953368750 0.87290633 -149.69257 6.6387394e-005 -20.538643 1.3581845e-005 -149.16725 1.0550748 -36.642849
10953403125 0.8715511 -149.70558 4.3728029e-005 4.3325391 1.8358203e-005 145.89632 1.0541724 -36.606186
10953437500 0.87242466 -149.68268 2.056562e-005 63.215111 1.5517722e-005 -5.9221072 1.0542117 -36.619915
10953471875 0.87290883 -149.64464 8.6697903e-005 -8.145957 9.9109839e-006 103.97894 1.0538814 -36.650475
10953506250 0.87324721 -149.71571 5.2012525e-005 -11.202259 1.6856109e-005 88.148109 1.052949 -36.626282
10953540625 0.87274897 -149.70604 2.1094069e-005 -75.128189 2.7145568e-005 -40.945667 1.053744 -36.6451
10953575000 0.87236845 -149.73961 2.7652904e-005 -98.88166 4.5289157e-006 -58.580334 1.0538638 -36.638386
10953609375 0.87187755 -149.83113 8.4919193e-006 70.574226 4.3316835e-005 -36.751381 1.0541118 -36.538601
10953643750 0.87253129 -149.71527 6.2440282e-005 -6.0295954 2.141886e-005 65.75412 1.0541762 -36.576698
10953678125 0.87301844 -149.70694 2.2417791e-005 -29.047167 8.0000655e-006 1.6920016 1.0524862 -36.604488
10953712500 0.87232512 -149.76575 4.8285092e-005 -37.689651 1.0294373e-005 -146.86911 1.054525 -36.653488
10953746875 0.87280661 -149.71901 5.3437205e-005 -17.82255 1.7807331e-005 39.514511 1.0536406 -36.618504
10953781250 0.87354201 -149.67653 1.6952854e-005 161.0504 1.0164256e-005 67.042473 1.0535368 -36.648342
10953815625 0.87360162 -149.69751 4.9285147e-005 -80.178886 8.8425677e-006 104.24749 1.0538137 -36.650684
10953850000 0.87242121 -149.61101 5.4182929e-005 -35.208046 1.1630888e-005 -77.50396 1.0531417 -36.591133
10953884375 0.87245923 -149.68149 3.8952716e-005 -21.374237 8.9106597e-006 -3.7420127 1.0545914 -36.649929
10953918750 0.87281358 -149.69946 7.470751e-005 -22.728149 1.5906769e-005 32.166958 1.054255 -36.641491
10953953125 0.87332129 -149.8252 1.288963e-005 -9.2942152 2.0999334e-005 -76.322693 1.0538703 -36.619648
10953987500 0.87305182 -149.68077 3.0423816e-005 72.125687 1.5662263e-005 57.555363 1.0528983 -36.6301
10954021875 0.8741343 -149.68654 3.8047088e-005 34.548424 3.6970437e-006 81.767052 1.0524366 -36.593636
10954056250 0.87250042 -149.71948 4.2207947e-005 -55.444069 7.0650626e-006 -32.931892 1.0523312 -36.667423
10954090625 0.87214595 -149.76805 3.6332956e-005 -16.395353 9.2455412e-006 125.78613 1.052126 -36.673447
10954125000 0.87429827 -149.8741 5.3622996e-005 25.49617 2.5244644e-005 98.367157 1.0535479 -36.690323
10954159375 0.87321621 -149.84579 5.4668748e-005 -9.9872036 1.1765178e-005 -112.53222 1.0537388 -36.653606
10954193750 0.87440217 -149.82721 1.4799098e-005 -18.356722 1.7287917e-005 68.862778 1.0528491 -36.613064
10954228125 0.87427717 -149.79555 3.5019268e-005 5.1643977 1.562726e-005 131.75436 1.0531415 -36.592278
10954262500 0.87360573 -149.78906 5.062417e-005 -73.130119 2.1162783e-005 155.99341 1.0535108 -36.615887
10954296875 0.87293917 -149.79167 1.0545382e-005 -161.32077 7.8264438e-006 117.01088 1.0529824 -36.656738
10954331250 0.87232649 -149.78741 3.1566731e-005 -8.9710684 1.2623683e-005 3.7968476 1.0528191 -36.624866
10954365625 0.87262517 -149.74033 7.1571405e-005 9.9737825 3.2130032e-005 -85.887245 1.0540255 -36.592987
10954400000 0.87233371 -149.77731 4.1321902e-005 -21.562504 1.0117135e-005 -151.35291 1.0533562 -36.592072
10954434375 0.87315404 -149.84586 6.4462649e-005 -43.59024 4.5704378e-006 5.2690597 1.0525547 -36.609428
10954468750 0.8727147 -149.8427 5.2906296e-005 -29.815767 4.0662198e-005 -35.702202 1.0537641 -36.645634
10954503125 0.873308 -149.79089 2.4909055e-005 109.58272 2.798403e-005 101.40243 1.0527434 -36.714336
10954537500 0.87349242 -149.77522 1.9190713e-005 -2.4432621 1.0224475e-005 6.9353533 1.0534925 -36.64817
10954571875 0.87321246 -149.72478 5.0175426e-005 -4.1296844 3.2772663e-005 -42.130894 1.053346 -36.676716
10954606250 0.87232322 -149.78137 3.805145e-005 -60.861965 2.5490246e-005 -90.785545 1.0543417 -36.667965
10954640625 0.87357455 -149.86775 3.6648646e-005 50.74305 1.5734873e-005 -102.2744 1.0545018 -36.663265
10954675000 0.87263 -149.80844 3.2337775e-005 -26.513037 3.1104606e-005 128.4679 1.0525897 -36.642765
10954709375 0.87255961 -149.79848 3.648649e-005 64.476974 3.1670741e-005 -60.110241 1.0537566 -36.672707
10954743750 0.87367457 -149.76093 5.4913678e-005 -28.904602 1.3960995e-005 105.23963 1.0539417 -36.655487
10954778125 0.87354749 -149.85345 6.0119502e-005 -51.908142 1.1722938e-005 -38.646328 1.0529152 -36.716995
10954812500 0.87395996 -149.89819 8.62542e-005 -20.162256 3.5590663e-005 58.78511 1.0530657 -36.643532
10954846875 0.87324691 -149.87794 0.00010385517 -93.1791 2.1004636e-005 -101.74296 1.0538522 -36.670628
10954881250 0.87246662 -149.90634 5.6394438e-005 -102.08175 3.0427287e-005 -135.95804 1.0538969 -36.702408
10954915625 0.87335187 -149.86163 4.8660018e-005 -108.09448 2.5664142e-005 22.707573 1.0550164 -36.733322
10954950000 0.87225699 -149.84315 2.2264918e-005 -12.752392 1.149817e-005 -46.689377 1.0555847 -36.677914
10954984375 0.8727721 -149.87917 4.2433978e-005 -58.428917 2.8761759e-005 125.03174 1.0529296 -36.645424
10955018750 0.87292862 -149.91432 7.5505063e-006 -177.5107 1.695285e-005 138.04358 1.0536882 -36.662605
10955053125 0.87308705 -149.88292 2.6795697e-005 -68.224518 3.8032071e-005 -154.2049 1.0525742 -36.638359
10955087500 0.87360775 -149.8623 2.4407062e-005 -47.751289 1.7990109e-005 -98.985649 1.053336 -36.66544
10955121875 0.87260467 -149.77567 1.5970159e-005 79.329567 3.4457975e-005 -19.657257 1.0534991 -36.699955
10955156250 0.87085855 -149.79617 2.7246411e-005 -118.13946 2.1838407e-005 -145.77008 1.0539441 -36.657467
10955190625 0.87274188 -149.80257 7.7274526e-005 -72.422432 3.9939652e-005 32.277401 1.0537546 -36.690502
10955225000 0.87189054 -149.78487 8.4523461e-005 -11.997578 2.5038019e-006 47.466789 1.0531017 -36.704063
10955259375 0.87353897 -149.86714 3.5960162e-005 -71.009178 1.614961e-005 -82.971977 1.0536418 -36.650356
10955293750 0.87251097 -149.8416 3.3455017e-005 -49.775208 1.3978221e-005 111.16486 1.0533199 -36.67165
10955328125 0.87395895 -149.875 2.8038527e-005 -109.75735 1.5031464e-005 -110.67903 1.0531796 -36.629925
10955362500 0.8740713 -149.90399 1.721443e-005 -2.3789127 7.8500871e-006 -154.43134 1.0532875 -36.574684
10955396875 0.87342596 -149.86572 3.2984019e-005 -37.016994 1.4165288e-005 93.00029 1.0537001 -36.65303
10955431250 0.87252718 -149.91425 6.4055595e-005 -30.639273 1.4291825e-005 -127.93144 1.0516582 -36.693325
10955465625 0.87286943 -149.82661 6.0626462e-005 -102.30444 3.2732049e-005 59.59164 1.0530481 -36.654274
10955500000 0.87191743 -149.86157 4.1531941e-005 -37.196007 4.3726923e-005 -145.71066 1.0540202 -36.654495
10955534375 0.87207657 -149.88873 3.2689379e-005 -9.4661722 1.3581121e-005 104.60549 1.0535728 -36.645977
10955568750 0.8729682 -149.89886 4.0875275e-005 -49.320259 2.806217e-005 -79.728157 1.0527735 -36.696163
10955603125 0.87336493 -149.88698 2.384338e-005 -130.75537 1.1551171e-005 -39.109367 1.0532601 -36.660503
10955637500 0.87314916 -149.93289 2.7916984e-005 -79.372719 1.6665286e-005 92.270042 1.0529467 -36.732944
10955671875 0.87370193 -149.95369 2.2512708e-005 -19.076605 1.7519069e-005 -107.80075 1.0536166 -36.728733
10955706250 0.87399083 -149.91124 4.4425808e-005 -22.229994 2.396283e-005 54.695442 1.0539287 -36.660469
10955740625 0.87270504 -149.9054 8.544459e-005 -34.98077 4.3832338e-006 152.09319 1.0535457 -36.608807
10955775000 0.87114835 -149.8103 1.5549489e-005 -6.3495564 2.4785913e-005 -155.1346 1.0545156 -36.634117
10955809375 0.87208134 -149.9754 1.5966683e-005 -24.52656 2.8453893e-005 82.828697 1.0527825 -36.61755
10955843750 0.87215126 -149.99887 3.9831371e-005 -51.17498 2.6846868e-005 79.446159 1.0527452 -36.594784
10955878125 0.87143481 -149.97362 5.8160458e-005 -48.337833 3.1209805e-005 71.973755 1.0539924 -36.676239
10955912500 0.87075025 -149.9794 1.4922039e-005 -18.542255 3.7216745e-005 22.580587 1.0532373 -36.642357
10955946875 0.8725791 -149.98358 6.0144837e-005 -22.574755 1.4759051e-005 -113.81174 1.0531665 -36.696926
10955981250 0.8720932 -149.93916 3.6768964e-005 -29.598553 7.3386445e-006 -134.53464 1.0546631 -36.632721
10956015625 0.87175041 -149.91576 7.5977507e-005 -56.455341 6.5796166e-006 171.83966 1.0541366 -36.600754
10956050000 0.87241936 -149.92709 2.4715438e-005 114.47724 1.7824033e-005 78.207611 1.0536721 -36.681072
10956084375 0.87282658 -149.8448 7.0271213e-005 -60.02977 2.3828037e-005 119.73658 1.0533315 -36.666843
10956118750 0.87312895 -149.94023 2.985695e-005 4.4781814 2.0189673e-005 136.03391 1.0539001 -36.681232
10956153125 0.87241882 -149.9537 5.844047e-005 -6.7866836 1.5044558e-005 126.07035 1.0548732 -36.667736
10956187500 0.87172407 -149.95454 5.4627657e-005 -40.914581 4.0005085e-005 -17.388361 1.0547597 -36.681355
10956221875 0.87223893 -149.97981 3.0683703e-005 57.978695 1.7978318e-005 66.977341 1.0544971 -36.622189
10956256250 0.87386394 -150.05057 5.3212127e-005 -86.266556 3.8861665e-005 -165.0204 1.0540341 -36.649368
10956290625 0.87392902 -149.91293 5.7936995e-005 -44.286793 1.773126e-005 49.96077 1.0551628 -36.586861
10956325000 0.87351912 -149.97723 4.562574e-005 -71.153168 2.0122763e-005 -56.748341 1.0557902 -36.579659
