!Agilent Technologies,E8362C,MY49020356,A.09.42.23
!Agilent E8362C: A.09.42.23
!Date: Saturday, September 11, 2021 04:21:33
!Correction: S11(Full 2 Port(1,2)) 
!S21(Full 2 Port(1,2)) 
!S12(Full 2 Port(1,2)) 
!S22(Full 2 Port(1,2)) 
!S2P File: Measurements: S11, S21, S12, S22:
# Hz S  MA   R 50
10950000000 0.8716073 -149.04161 2.3872255e-005 -125.42271 2.7467453e-005 -156.79565 1.0595195 -36.435616
10950034375 0.86984706 -148.9847 2.1186557e-005 -59.638836 1.5351277e-005 -144.70782 1.0586964 -36.44022
10950068750 0.86982507 -148.97252 4.5633598e-005 -170.44388 1.8855137e-005 -37.384701 1.0583471 -36.42046
10950103125 0.87004268 -149.00259 3.5633475e-005 -41.894382 2.1538503e-005 -102.44229 1.0593896 -36.464165
10950137500 0.87114781 -149.03233 2.5188938e-005 77.643967 8.5246738e-006 69.199112 1.0601491 -36.392914
10950171875 0.87140101 -149.09941 9.7987431e-006 -78.923195 2.3590243e-005 140.78365 1.060075 -36.450726
10950206250 0.87092978 -149.12787 3.1298066e-005 -24.009945 4.4674078e-005 -128.06541 1.0597987 -36.42894
10950240625 0.87144685 -149.07173 3.9105584e-005 27.526609 2.3841981e-006 -47.202209 1.059736 -36.433838
10950275000 0.87145537 -149.03816 4.3692184e-005 -66.120636 4.292071e-005 37.111767 1.0595732 -36.400982
10950309375 0.8710798 -148.96523 0.00012177563 -103.96525 9.3151812e-006 135.87849 1.0588186 -36.39209
10950343750 0.87090844 -148.97983 2.145984e-005 -162.51251 3.6226622e-005 -65.319427 1.0581899 -36.402458
10950378125 0.8715145 -149.01942 9.2177412e-005 -73.531601 2.5148092e-005 -127.60131 1.0593071 -36.329155
10950412500 0.87006879 -149.05411 8.0548534e-006 140.58182 2.5831667e-005 18.050093 1.0596566 -36.428028
10950446875 0.86912763 -148.95377 4.3835225e-005 -57.546406 1.7766353e-005 -156.4351 1.0597204 -36.484062
10950481250 0.87021315 -149.00641 2.4982806e-005 -63.782635 3.8861792e-005 -117.99006 1.059064 -36.427368
10950515625 0.87108529 -149.04996 2.9318331e-005 -145.14708 1.9543691e-005 -10.419353 1.0598898 -36.416435
10950550000 0.870947 -149.0466 3.3624165e-005 -79.566902 1.3412687e-005 131.43146 1.0589627 -36.478558
10950584375 0.86913872 -149.03542 4.6007524e-005 -82.997589 1.9297731e-005 116.3671 1.0578192 -36.429615
10950618750 0.86928999 -148.97128 2.2836603e-005 -4.9900551 3.5799509e-005 -70.760666 1.0593157 -36.423912
10950653125 0.8692162 -148.95486 2.7121463e-005 -152.52078 3.578102e-005 -148.5798 1.058911 -36.438122
10950687500 0.87001616 -148.9901 7.866478e-006 -17.784607 1.4419217e-005 -67.810501 1.0605382 -36.515987
10950721875 0.86884952 -149.03484 3.6123631e-005 -100.83168 4.1700714e-005 -133.85233 1.0587003 -36.449944
10950756250 0.86988348 -149.03983 2.4669769e-005 -105.73282 8.7224344e-006 60.007946 1.0587306 -36.351112
10950790625 0.87075257 -148.9859 3.1421998e-005 -31.796419 1.7810702e-005 -88.23407 1.0585423 -36.403534
10950825000 0.87109518 -149.05049 3.3866392e-005 -36.266003 2.7428054e-005 -168.72227 1.060104 -36.382019
10950859375 0.87018651 -149.1378 8.7681074e-006 155.25172 4.9489763e-006 -149.78583 1.060129 -36.437771
10950893750 0.87079763 -149.0712 2.388105e-005 -12.793961 2.0580424e-005 145.85373 1.0599121 -36.35482
10950928125 0.8703528 -149.00903 2.7299118e-005 -20.344002 2.1885044e-005 -73.106888 1.0592493 -36.44537
10950962500 0.87045938 -149.06616 3.6567082e-005 -143.08507 4.2958109e-006 -109.12511 1.060558 -36.427872
10950996875 0.87006849 -149.10072 6.6346911e-005 -79.576355 1.2264481e-005 132.15016 1.060257 -36.467468
10951031250 0.87017471 -149.01015 3.3111588e-005 152.37317 9.2576056e-006 -54.355457 1.0609521 -36.408398
10951065625 0.87003255 -149.16115 2.5500585e-005 25.336897 2.0976191e-005 174.50743 1.0598431 -36.484032
10951100000 0.87051594 -149.02933 1.8768131e-005 134.55615 1.086941e-005 -100.13525 1.0608635 -36.469276
10951134375 0.87067133 -149.15968 7.8703946e-005 -78.803291 4.4779204e-005 -85.918427 1.0594397 -36.452911
10951168750 0.87035024 -149.11516 1.9145638e-005 35.379818 1.4853115e-005 -30.892397 1.059474 -36.45425
10951203125 0.87068224 -149.1368 2.2132263e-005 81.152489 3.2676958e-006 -8.8721838 1.0596312 -36.360752
10951237500 0.87043089 -149.10495 1.413927e-005 82.032623 5.7847101e-006 -39.959003 1.0593208 -36.42643
10951271875 0.86984354 -149.04225 2.9694642e-005 167.58516 8.7533163e-006 -155.61827 1.0593504 -36.40086
10951306250 0.87022042 -149.03149 2.7556065e-005 15.616622 8.1442613e-006 169.4632 1.0594625 -36.430363
10951340625 0.87054938 -149.0598 5.8068719e-005 -99.12484 1.8294553e-005 -169.92377 1.0594631 -36.442986
10951375000 0.87151718 -149.08653 3.727341e-005 -62.324383 3.4285484e-005 -173.86554 1.0605046 -36.392525
10951409375 0.87153512 -149.14191 8.0010432e-006 -37.619648 1.73145e-005 156.6534 1.0603354 -36.4496
10951443750 0.87071866 -149.10364 1.7336881e-005 93.033981 1.180172e-005 -83.619156 1.0594531 -36.409679
10951478125 0.87108493 -149.20238 5.1505704e-005 -154.84146 1.0602884e-005 138.16124 1.0595621 -36.432518
10951512500 0.87062055 -149.16895 3.3318505e-005 -58.936481 3.3255001e-005 135.41902 1.0595716 -36.398655
10951546875 0.87020999 -149.14178 2.0932686e-005 -79.786377 4.60709e-006 141.83238 1.0596422 -36.445518
10951581250 0.87167782 -149.17197 4.6653589e-005 -161.75024 5.731858e-006 31.368307 1.059767 -36.415131
10951615625 0.87084901 -149.12985 3.4445005e-005 -61.429226 3.7941125e-005 157.67882 1.060334 -36.430222
10951650000 0.87171006 -149.17741 6.343679e-005 -100.96227 2.0840806e-005 131.42641 1.0608418 -36.380951
10951684375 0.87165487 -149.14719 2.6957669e-005 -92.088951 1.8366089e-005 -45.25956 1.0603625 -36.378368
10951718750 0.87125331 -149.17015 3.1923515e-005 -113.09874 1.6248456e-005 147.49078 1.0597391 -36.331532
10951753125 0.86987209 -149.09604 4.133513e-005 -60.350056 2.8073853e-005 165.06453 1.0596583 -36.377213
10951787500 0.87057513 -149.1377 2.8571094e-005 -88.98259 1.6762549e-005 148.03673 1.0610412 -36.392487
10951821875 0.86982054 -149.20981 4.5170644e-005 -133.01245 3.2946922e-005 -161.93016 1.0594931 -36.432419
10951856250 0.87015861 -149.17755 3.3923436e-005 -8.0641356 2.7129852e-005 -111.42872 1.0589597 -36.3843
10951890625 0.87105572 -149.12428 1.2538427e-005 157.11076 3.7902977e-005 163.99515 1.0592177 -36.438976
10951925000 0.87081307 -149.12407 3.8919341e-005 -136.09644 1.1702641e-005 129.65434 1.0585341 -36.388584
10951959375 0.87092799 -149.23128 5.8112339e-005 -91.280617 2.6049851e-005 -58.110001 1.0590199 -36.409355
10951993750 0.87064612 -149.33104 9.102665e-006 125.25757 1.0682429e-005 -165.99992 1.0593748 -36.393406
10952028125 0.8708424 -149.18681 4.5512155e-005 35.505695 8.7564531e-006 95.315048 1.0588481 -36.376282
10952062500 0.87024695 -149.21594 3.0460511e-005 -147.20885 1.6534097e-005 -155.35849 1.0588174 -36.371552
10952096875 0.87034458 -149.31915 2.0125119e-005 -95.798988 4.5199671e-005 -100.64419 1.0583373 -36.38192
10952131250 0.87211525 -149.21469 4.8816179e-005 -46.966705 1.2140104e-005 -116.39597 1.0603187 -36.392788
10952165625 0.87040353 -149.2148 3.5020123e-005 -104.45419 2.0769972e-005 169.92709 1.0611829 -36.413155
10952200000 0.86923778 -149.25824 1.5029966e-005 -162.51547 2.1998838e-005 143.8864 1.0603905 -36.424919
10952234375 0.86977404 -149.25623 2.9029816e-005 -117.94611 1.3080613e-005 159.23251 1.0606203 -36.406151
10952268750 0.87097818 -149.2467 2.7248311e-006 -157.11835 2.8696779e-005 -130.37477 1.0601763 -36.365738
10952303125 0.86940473 -149.289 2.7534748e-005 -177.37308 3.0075382e-005 176.71211 1.0600991 -36.420803
10952337500 0.87001133 -149.24994 2.3156672e-005 116.30762 3.7065311e-005 -109.81026 1.0599436 -36.341259
10952371875 0.87058282 -149.2534 1.1739737e-005 33.095127 4.5299152e-005 -128.18712 1.0599914 -36.413643
10952406250 0.87110966 -149.31113 4.6283923e-005 -128.93782 5.0143162e-006 -154.84883 1.0606825 -36.367798
10952440625 0.87034845 -149.36864 9.6656568e-006 -106.22073 3.6450754e-006 -42.018127 1.0594351 -36.41452
10952475000 0.86908865 -149.25766 2.7165544e-005 -169.82076 1.3775285e-005 155.47398 1.0600803 -36.455566
10952509375 0.86990678 -149.25851 1.9710204e-005 -64.734924 2.4318906e-006 11.271519 1.059626 -36.438698
10952543750 0.87095344 -149.2032 1.2641532e-005 59.610737 1.8526778e-005 161.43568 1.0599934 -36.403027
10952578125 0.87046903 -149.22089 2.1451913e-005 58.048958 1.3243148e-005 155.35405 1.0606548 -36.433041
10952612500 0.87064475 -149.25809 7.7332024e-006 165.56384 1.5363152e-005 52.084858 1.0596455 -36.438107
10952646875 0.87025499 -149.24509 3.6288326e-005 -33.829205 1.0474523e-005 -143.68756 1.0609798 -36.383026
10952681250 0.87102139 -149.28192 2.8319324e-005 -173.17746 2.3981474e-005 -103.61664 1.0603747 -36.416195
10952715625 0.8703118 -149.27089 2.8525601e-005 -131.1122 2.162242e-005 -138.50327 1.0604467 -36.385845
10952750000 0.86914748 -149.24048 4.051167e-005 -28.196543 3.21933e-005 -133.05083 1.0596913 -36.40237
10952784375 0.86953586 -149.29027 1.2114073e-005 140.22734 5.5894117e-005 -60.073002 1.0589846 -36.413422
10952818750 0.87017077 -149.25661 1.5438731e-005 -28.417 9.7551911e-006 101.99571 1.0591688 -36.419071
10952853125 0.8695516 -149.26817 6.8520843e-005 -81.017082 1.1402034e-005 2.2014093 1.0601537 -36.417671
10952887500 0.87058997 -149.33389 2.9064266e-005 96.276718 2.9144971e-005 -142.53488 1.0597913 -36.39278
10952921875 0.87015235 -149.30049 1.2412621e-005 158.93228 1.8156235e-005 -161.64516 1.0592995 -36.437622
10952956250 0.87085158 -149.31857 8.8182696e-006 81.523659 1.4847318e-005 148.66873 1.0586287 -36.398907
10952990625 0.87199003 -149.34348 1.9750076e-005 83.073875 2.4819599e-005 -160.84441 1.0579989 -36.42791
10953025000 0.87067342 -149.362 4.1388183e-005 -77.224083 2.5611289e-005 115.73099 1.0585957 -36.393478
10953059375 0.86995631 -149.4102 6.0405177e-006 -2.4079051 5.1588304e-006 -161.93446 1.0588216 -36.447582
10953093750 0.86985075 -149.41882 3.2293214e-005 -1.8789315 4.8915517e-006 -130.55492 1.0583619 -36.470596
10953128125 0.87114996 -149.3687 5.7107311e-005 -90.186523 2.6695137e-005 -39.35268 1.0595491 -36.382847
10953162500 0.87141991 -149.32417 2.6734499e-005 34.52367 3.4393506e-005 -163.1727 1.059842 -36.358513
10953196875 0.87054521 -149.4028 9.723266e-006 147.97131 1.2256813e-005 155.91495 1.0594026 -36.396885
10953231250 0.86964613 -149.31808 2.694843e-006 -155.58624 2.9956882e-005 -79.909943 1.0592644 -36.402363
10953265625 0.8700484 -149.33188 1.1482668e-005 21.031918 3.8083443e-005 -163.24844 1.0589572 -36.374287
10953300000 0.86968803 -149.30617 2.6518044e-005 48.54612 3.0798852e-005 71.428551 1.0590007 -36.453186
10953334375 0.86931634 -149.29079 4.2835236e-005 162.08241 1.399885e-005 -162.89517 1.0597768 -36.429718
10953368750 0.87010241 -149.29541 8.7756089e-006 -69.669334 1.0020016e-005 -93.819199 1.061541 -36.383308
10953403125 0.86989987 -149.36484 1.0114143e-005 110.89307 1.8962222e-005 66.727264 1.061143 -36.449665
10953437500 0.87042493 -149.34901 3.9347076e-005 -142.32002 2.3735294e-005 172.26062 1.0606111 -36.372318
10953471875 0.87089574 -149.37634 1.9872939e-005 -126.78577 2.7756887e-005 159.01921 1.0609841 -36.410118
10953506250 0.87147868 -149.29054 3.6605135e-005 168.92543 2.7494892e-005 -105.28606 1.0599914 -36.440491
10953540625 0.86960578 -149.31723 2.9430663e-005 -19.931444 2.5061101e-005 -169.61919 1.0584853 -36.41695
10953575000 0.87003011 -149.37994 2.0992253e-005 -104.78675 3.2874235e-005 -117.25924 1.059689 -36.388504
10953609375 0.87011462 -149.47145 2.4695819e-005 159.97095 1.5973132e-005 -86.65715 1.0588976 -36.34956
10953643750 0.87008268 -149.4502 1.6592201e-005 -176.30217 2.418833e-005 -153.00662 1.0592138 -36.362816
10953678125 0.87035686 -149.41681 2.3498103e-005 -123.87508 2.6293572e-005 -155.10867 1.0600752 -36.368256
10953712500 0.86975384 -149.40038 5.43319e-005 25.909781 2.048249e-005 -138.8134 1.0603182 -36.422997
10953746875 0.87090367 -149.40254 7.2135488e-005 -111.16181 6.6096477e-006 167.50053 1.059911 -36.424244
10953781250 0.87128538 -149.36357 2.5684876e-005 -113.80975 1.1508677e-005 -85.699532 1.0596924 -36.399723
10953815625 0.87111068 -149.33832 3.629881e-005 145.40152 2.3243234e-005 171.65323 1.0610856 -36.42886
10953850000 0.87102979 -149.30795 5.5217355e-005 -87.216301 2.6369718e-005 -86.45266 1.0606053 -36.431995
10953884375 0.8712042 -149.38077 1.3265024e-005 -19.440485 1.9019009e-005 87.935493 1.0602117 -36.419216
10953918750 0.87066472 -149.32527 3.3557935e-005 -62.047585 1.0067756e-005 -111.48404 1.0616401 -36.381126
10953953125 0.86991155 -149.3795 2.2745537e-005 68.366753 2.2327602e-005 135.19582 1.0603504 -36.396156
10953987500 0.87157279 -149.37308 4.0449562e-005 -166.61961 4.9640521e-006 168.06978 1.0603353 -36.399162
10954021875 0.87100542 -149.38948 2.7091093e-005 131.54083 8.8475908e-006 -8.250062 1.0598845 -36.430733
10954056250 0.87087762 -149.39867 2.6230822e-005 -134.77087 2.3273176e-005 -107.21042 1.0587944 -36.423534
10954090625 0.87095249 -149.37868 3.6208345e-005 90.79567 8.2814349e-006 -101.68785 1.0598612 -36.470989
10954125000 0.86978424 -149.43228 2.9133118e-005 -32.074329 2.7720769e-005 139.75604 1.0607727 -36.386314
10954159375 0.87055284 -149.47308 9.8699393e-006 87.756119 1.2170394e-005 -62.125969 1.0588118 -36.469845
10954193750 0.87139225 -149.4613 4.4160708e-005 -65.616302 2.0587804e-005 162.35101 1.0590491 -36.402973
10954228125 0.8706634 -149.40866 3.7608672e-005 -7.1974521 1.3336989e-005 -59.766327 1.0596902 -36.39193
10954262500 0.87037814 -149.43388 1.4658784e-005 -93.826332 8.9271352e-006 -18.436359 1.0594085 -36.421219
10954296875 0.87156123 -149.44586 1.138387e-005 76.067345 1.2284535e-005 -18.966482 1.0593545 -36.428848
10954331250 0.86976826 -149.54382 2.5378615e-005 -86.94561 3.3232467e-005 -161.08105 1.059492 -36.38945
10954365625 0.8703894 -149.51639 2.4435956e-005 -171.21033 6.4824226e-006 -121.0276 1.0601585 -36.374443
10954400000 0.87034196 -149.5184 2.4496503e-005 -18.624405 3.7158998e-006 -127.53388 1.059471 -36.371059
10954434375 0.87033194 -149.49187 7.7706e-006 85.504753 1.1407102e-005 18.168127 1.0593703 -36.428989
10954468750 0.87101942 -149.52838 4.9980103e-005 25.776129 1.5671974e-006 124.03767 1.0595658 -36.519428
10954503125 0.87082303 -149.44078 6.7472225e-005 121.67767 2.3382827e-005 -16.171392 1.0598844 -36.456493
10954537500 0.87116182 -149.45522 3.2458418e-005 -91.395721 3.5075177e-006 -82.263161 1.0605009 -36.440659
10954571875 0.86999816 -149.43965 2.2033864e-005 31.96899 4.3767555e-005 -160.12158 1.0603157 -36.421673
10954606250 0.86954665 -149.49121 3.1528678e-005 82.067436 1.2676132e-005 -129.29475 1.0601282 -36.471519
10954640625 0.87008494 -149.52943 5.3181779e-005 -100.05328 2.5373225e-005 -77.244026 1.0599062 -36.481762
10954675000 0.87086195 -149.52977 2.3804885e-005 -179.73557 2.0659196e-005 -124.22922 1.0597185 -36.435551
10954709375 0.87058097 -149.42148 4.231411e-005 -17.999435 1.9703626e-005 32.377079 1.0601938 -36.407848
10954743750 0.87064672 -149.4635 3.2358828e-005 -72.553299 7.7954755e-006 79.661575 1.0603993 -36.439163
10954778125 0.87079531 -149.46423 6.5403801e-005 -126.31422 1.6441007e-005 55.852451 1.0602435 -36.452156
10954812500 0.87107533 -149.5556 2.8591867e-005 -80.47998 1.8585277e-005 -138.87466 1.059808 -36.40871
10954846875 0.8705675 -149.55099 1.0952006e-005 -138.70724 6.9728389e-006 51.506649 1.0596756 -36.473873
10954881250 0.87107563 -149.57187 1.8787861e-005 109.15553 1.3597301e-005 -134.92638 1.0601048 -36.511974
10954915625 0.86958188 -149.66333 5.5836692e-005 101.34563 3.2137519e-005 -133.44498 1.0601829 -36.478779
10954950000 0.86969918 -149.61467 3.0132423e-005 -12.274392 1.1600348e-005 -44.953758 1.0609208 -36.433041
10954984375 0.86990714 -149.62143 1.8847591e-005 66.631256 4.8823666e-005 -137.61705 1.0596759 -36.372417
10955018750 0.87027007 -149.51573 3.3949193e-005 -157.93282 1.9177534e-005 134.87495 1.0596546 -36.439949
10955053125 0.86941838 -149.61536 5.6143122e-006 162.50415 1.2380935e-005 -45.24337 1.0593718 -36.462254
10955087500 0.87068176 -149.55844 3.1862775e-005 -83.080383 4.0942738e-005 -160.00526 1.0590433 -36.438244
10955121875 0.86995041 -149.51613 2.806273e-005 162.74658 1.3020779e-005 -130.33252 1.0596205 -36.471207
10955156250 0.86841702 -149.50296 5.455895e-005 -69.155327 2.4692823e-005 -176.22752 1.0607594 -36.493736
10955190625 0.86918932 -149.52118 3.4767265e-005 -11.003543 2.0166664e-005 100.23163 1.059963 -36.479092
10955225000 0.86972088 -149.5419 4.2973101e-005 162.87799 2.5201796e-005 168.29599 1.0593669 -36.513577
10955259375 0.87004864 -149.53479 1.3384032e-005 138.10822 2.5634858e-005 -130.64165 1.0602299 -36.409554
10955293750 0.87133455 -149.48886 4.5053304e-005 158.23651 1.2739913e-005 118.85274 1.0594833 -36.419273
10955328125 0.87049311 -149.55785 5.9067984e-006 1.5401902 2.2360182e-005 -10.244339 1.0601145 -36.424259
10955362500 0.87064195 -149.57741 5.2791374e-006 -61.951477 3.5511486e-005 -162.66571 1.0600758 -36.482426
10955396875 0.87029976 -149.57999 3.3616187e-005 -110.07252 1.6781654e-005 -158.74802 1.0586698 -36.419258
10955431250 0.87067509 -149.55156 1.7198405e-005 122.56853 3.4044799e-005 146.09769 1.0587251 -36.437469
10955465625 0.86971295 -149.55452 3.6257014e-005 -62.889233 1.8152532e-005 -179.68608 1.059775 -36.441803
10955500000 0.86861008 -149.63991 4.7315392e-005 173.61792 1.0784833e-005 -47.123283 1.0601878 -36.402527
10955534375 0.87012887 -149.64978 2.0502217e-005 -16.6514 4.0485288e-006 47.99826 1.0600584 -36.400417
10955568750 0.86979109 -149.5746 2.0423458e-005 26.583063 3.4491495e-005 69.526978 1.059824 -36.432755
10955603125 0.87037957 -149.5394 3.5962443e-005 4.7634082 2.5733218e-005 -118.74059 1.0591247 -36.504002
10955637500 0.87151867 -149.59875 1.1225915e-005 -148.10643 9.7919828e-006 105.44504 1.0598654 -36.449512
10955671875 0.87198997 -149.61469 5.2824955e-005 31.43083 7.935836e-006 0.043904781 1.0609248 -36.480343
10955706250 0.87067938 -149.6089 7.5041964e-005 119.69896 2.8803495e-005 -41.107582 1.0606718 -36.469799
10955740625 0.87051475 -149.65665 4.0108367e-005 -128.1301 2.2286024e-005 -146.97813 1.0603141 -36.431053
10955775000 0.87014723 -149.58504 6.8605623e-005 53.176735 1.0738259e-005 166.2253 1.0601783 -36.370731
10955809375 0.86938369 -149.62827 3.4706765e-005 89.470421 1.3688144e-005 -107.12877 1.0598208 -36.393921
10955843750 0.86928439 -149.71672 2.5003992e-005 148.87639 2.3940176e-005 123.50308 1.059127 -36.413353
10955878125 0.86937624 -149.66113 2.4989167e-005 5.7368655 1.6144446e-005 -175.41731 1.059718 -36.4245
10955912500 0.86945635 -149.72505 2.4968187e-005 -148.02672 1.9713765e-005 148.8978 1.0605466 -36.420132
10955946875 0.86986661 -149.61752 4.1480976e-006 100.69556 1.7224111e-005 114.17741 1.0598011 -36.465309
10955981250 0.8690955 -149.6387 2.8237415e-005 -146.85176 3.3959564e-005 161.10048 1.0601455 -36.461025
10956015625 0.8692143 -149.63121 1.0359899e-005 174.51869 1.2155238e-005 -119.08432 1.0606714 -36.454163
10956050000 0.86984241 -149.60921 7.9222509e-006 143.83392 2.0979158e-005 -133.48926 1.0607413 -36.393299
10956084375 0.86974651 -149.62233 5.1909308e-005 -104.57492 1.5499241e-005 11.961029 1.0596302 -36.417767
10956118750 0.87053597 -149.61505 1.8346962e-005 119.43593 2.8139435e-005 -150.20482 1.0594852 -36.425396
10956153125 0.87028706 -149.68115 5.0075556e-005 46.920151 4.5289868e-005 -135.48213 1.0609553 -36.454121
10956187500 0.87013972 -149.70113 3.3403321e-005 32.928806 1.5187922e-005 98.025963 1.0618159 -36.417263
10956221875 0.86963743 -149.67236 2.231771e-005 -39.806721 3.5816829e-005 135.1506 1.0610371 -36.449093
10956256250 0.87107211 -149.7471 3.3339493e-005 55.250484 8.6092641e-006 16.42211 1.0601784 -36.446999
10956290625 0.87026501 -149.72026 1.4435307e-005 -55.217892 2.7400578e-005 53.627953 1.0616695 -36.372257
10956325000 0.87092018 -149.68135 3.5010402e-005 -117.44132 2.347032e-005 153.49818 1.062203 -36.426552
