!Agilent Technologies,E8362C,MY49020356,A.09.42.23
!Agilent E8362C: A.09.42.23
!Date: Saturday, September 11, 2021 04:12:53
!Correction: S11(Full 2 Port(1,2)) 
!S21(Full 2 Port(1,2)) 
!S12(Full 2 Port(1,2)) 
!S22(Full 2 Port(1,2)) 
!S2P File: Measurements: S11, S21, S12, S22:
# Hz S  MA   R 50
10950000000 1.0345469 -41.73336 2.214415e-005 -126.28104 9.0188632e-006 -44.172775 0.86238223 -144.47858
10950034375 1.0341581 -41.759541 1.0300027e-005 89.242584 1.156255e-005 51.342358 0.86093765 -144.43933
10950068750 1.0335835 -41.795647 3.0552168e-005 127.40785 2.2251515e-005 169.21342 0.86159343 -144.48102
10950103125 1.0350437 -41.819942 3.2905453e-005 138.45731 2.0443955e-005 -83.655006 0.86175305 -144.46819
10950137500 1.0357901 -41.809998 1.4235689e-005 -115.67573 1.3105722e-005 135.05884 0.86279565 -144.45708
10950171875 1.0371196 -41.843552 1.6212871e-005 -79.928688 2.047433e-005 80.128204 0.86301625 -144.55109
10950206250 1.0370238 -41.834927 1.6199552e-005 10.260759 2.587875e-005 -155.02975 0.86228019 -144.47162
10950240625 1.0361034 -41.817162 3.8434623e-006 63.039558 3.2142787e-005 145.06744 0.86131823 -144.4937
10950275000 1.0346563 -41.820751 3.0367046e-005 -134.20377 4.6848425e-005 -179.39444 0.86103457 -144.45369
10950309375 1.0352461 -41.764599 1.5210596e-005 -135.35362 3.8523915e-005 -23.953329 0.8619138 -144.43842
10950343750 1.03471 -41.792549 1.041939e-005 -38.673733 1.6368713e-005 133.68739 0.86251098 -144.52391
10950378125 1.0345771 -41.779102 1.4475237e-005 -22.980158 3.5334673e-005 170.76201 0.86227393 -144.4536
10950412500 1.0355095 -41.745987 1.8100418e-005 -77.747238 1.1316674e-005 -123.75571 0.8630324 -144.45923
10950446875 1.0351593 -41.811947 2.5617092e-005 -173.18137 1.0220352e-005 -46.184917 0.86168075 -144.4624
10950481250 1.0348401 -41.837692 2.0856642e-005 -38.198269 1.6583759e-005 -103.25614 0.86261702 -144.51718
10950515625 1.0357453 -41.784309 2.4678295e-005 126.8348 8.4329458e-006 -96.92923 0.86111581 -144.48309
10950550000 1.0342594 -41.764454 8.7986709e-006 168.95825 2.8405289e-005 175.60551 0.86168635 -144.50218
10950584375 1.0336051 -41.785072 1.8311624e-006 45.415863 4.4206437e-005 -139.07449 0.86103719 -144.56293
10950618750 1.0330046 -41.830761 2.9025618e-005 67.671608 3.2793636e-005 -169.15471 0.86263376 -144.53638
10950653125 1.0339239 -41.799534 1.346494e-005 138.08333 4.6634737e-005 -151.07915 0.86249489 -144.53249
10950687500 1.0353413 -41.738613 2.2178319e-005 51.889141 6.1287639e-005 -135.77539 0.86198348 -144.51399
10950721875 1.0345504 -41.822243 8.7497856e-006 -56.549942 3.5269204e-005 -140.31612 0.86203432 -144.52122
10950756250 1.0349629 -41.798172 1.4251584e-005 76.608879 4.600751e-005 -178.13408 0.86188102 -144.54955
10950790625 1.0339857 -41.776428 1.7361652e-005 -4.9111452 2.9272487e-005 67.517715 0.86108792 -144.43616
10950825000 1.0349959 -41.795834 2.5970519e-005 101.37073 2.3774115e-005 73.319321 0.86178875 -144.49879
10950859375 1.0346849 -41.776241 1.1549846e-005 14.0418 3.9047296e-005 81.949997 0.86202103 -144.5508
10950893750 1.0353105 -41.761688 1.1757027e-005 -5.3517237 4.8031201e-005 152.54349 0.86167985 -144.47775
10950928125 1.0351419 -41.702126 3.5181009e-005 -56.941345 5.8465117e-005 160.35773 0.8617835 -144.49171
10950962500 1.0363433 -41.788708 2.5867095e-005 149.81018 8.0177291e-005 146.79825 0.86206019 -144.41272
10950996875 1.0341282 -41.802452 1.3680718e-006 -70.296021 4.837244e-005 69.293884 0.86150241 -144.5031
10951031250 1.0353785 -41.795315 4.3460746e-005 114.80109 2.6318305e-005 -164.93391 0.86154956 -144.55211
10951065625 1.035453 -41.738388 1.617837e-005 83.726982 0 90 0.86204612 -144.52136
10951100000 1.0347449 -41.740753 1.1767695e-005 -82.081802 5.2385589e-005 120.08514 0.86231756 -144.57903
10951134375 1.0344526 -41.773094 3.6400965e-005 123.9053 2.8465536e-005 -58.159443 0.86202484 -144.56516
10951168750 1.0345724 -41.792896 2.7962376e-005 165.45294 3.3469292e-005 49.314354 0.86146653 -144.55321
10951203125 1.0351137 -41.850449 1.1710074e-005 -139.35626 3.5176923e-005 -177.00266 0.86216635 -144.57364
10951237500 1.0344961 -41.855492 2.2117571e-005 -152.68137 2.020586e-005 64.126015 0.86213756 -144.49696
10951271875 1.034488 -41.825577 2.5903322e-005 -138.49625 4.0712875e-006 -81.500916 0.86181706 -144.5788
10951306250 1.0341465 -41.819645 1.7570541e-005 -157.82207 3.1890002e-005 161.94585 0.8617875 -144.54951
10951340625 1.0342789 -41.82835 1.4836382e-005 -162.61569 2.5793192e-005 117.06616 0.86226439 -144.56834
10951375000 1.0336618 -41.810654 1.5333022e-005 10.309936 5.3727497e-005 110.77348 0.85994518 -144.62805
10951409375 1.0341358 -41.852879 2.4440504e-005 58.867966 5.0318078e-005 121.50554 0.86068785 -144.56696
10951443750 1.0346663 -41.849747 3.5204939e-005 112.51327 3.2792675e-005 68.954178 0.86115921 -144.58449
10951478125 1.035594 -41.85371 5.073151e-006 -28.619678 2.7708684e-005 139.0289 0.86146253 -144.50801
10951512500 1.0350941 -41.789543 1.1743298e-005 -175.52344 7.5590367e-005 149.90091 0.86243832 -144.50961
10951546875 1.0355299 -41.840065 1.3080978e-005 -173.73361 3.2779113e-005 159.24174 0.86038882 -144.61191
10951581250 1.0355282 -41.836285 1.7508815e-005 -122.3515 6.1755323e-005 148.86526 0.86077464 -144.54466
10951615625 1.035484 -41.783062 1.9559762e-005 165.89876 2.3722196e-005 68.239532 0.8610239 -144.53291
10951650000 1.0353266 -41.77071 1.7504166e-005 98.514015 2.1835365e-005 72.665352 0.86164486 -144.56876
10951684375 1.0352958 -41.829762 2.6444852e-005 165.62933 7.0995411e-005 161.86038 0.86198646 -144.64613
10951718750 1.0353264 -41.828915 3.7484257e-005 57.486301 5.3286512e-005 129.4463 0.86251718 -144.65034
10951753125 1.0340763 -41.825386 3.6987105e-005 136.08131 2.7275591e-005 19.703056 0.86226416 -144.57892
10951787500 1.0337645 -41.751762 2.7563185e-006 74.697769 9.0817605e-007 162.96399 0.8622672 -144.48341
10951821875 1.0349567 -41.830772 1.3785722e-006 -15.390974 2.5146579e-005 113.49229 0.86271811 -144.55586
10951856250 1.0354853 -41.813576 1.3795537e-005 37.891956 2.5469795e-005 72.942123 0.86172462 -144.63406
10951890625 1.0349212 -41.849163 1.5799011e-005 -21.294006 2.4742667e-005 -70.93885 0.86186546 -144.62611
10951925000 1.0347441 -41.861477 1.9847532e-005 42.970676 5.4460808e-005 71.177544 0.86059719 -144.64612
10951959375 1.0354476 -41.808838 1.1195792e-005 -137.83275 6.553752e-006 -163.18309 0.86240381 -144.69402
10951993750 1.0352231 -41.79353 3.4606404e-005 7.1655984 5.7955793e-005 154.10822 0.86172861 -144.68546
10952028125 1.0357236 -41.831345 3.101417e-005 53.170685 2.7044893e-005 -154.48253 0.86205524 -144.65398
10952062500 1.0338676 -41.855511 2.5966681e-005 135.9223 7.4293035e-005 130.80527 0.86092389 -144.56061
10952096875 1.0345361 -41.836216 2.0934436e-005 157.75447 4.5477816e-005 44.859776 0.86024415 -144.62309
10952131250 1.0354279 -41.798534 2.0431597e-005 -145.19582 1.6747805e-005 122.8968 0.86139834 -144.60069
10952165625 1.034695 -41.759041 2.853293e-005 -16.720161 6.3541193e-005 110.4781 0.86162817 -144.65936
10952200000 1.0353683 -41.840916 1.9687528e-005 -159.2382 5.6149274e-005 -165.32695 0.86134613 -144.66939
10952234375 1.0345547 -41.802433 1.4980565e-005 78.839088 9.3778603e-005 154.70465 0.86300033 -144.64542
10952268750 1.0348494 -41.823509 1.9604207e-005 83.860031 1.9972962e-005 124.29733 0.86150503 -144.64185
10952303125 1.0344756 -41.763329 3.5384131e-005 -29.555407 2.4364132e-005 -169.69176 0.86211592 -144.72238
10952337500 1.0364777 -41.824677 3.047405e-005 -169.95134 3.9917089e-005 -106.20165 0.86161983 -144.6945
10952371875 1.036131 -41.786755 2.1081511e-005 4.4829993 8.2085848e-005 -178.08717 0.86206567 -144.70735
10952406250 1.036504 -41.748512 1.5545143e-005 -167.30154 3.0407451e-005 -5.8618617 0.86146605 -144.72234
10952440625 1.0354608 -41.833504 3.5827699e-005 -20.181736 5.0668179e-005 161.92381 0.85933805 -144.68321
10952475000 1.0341041 -41.848457 1.3386812e-005 27.82621 4.7885249e-005 179.45898 0.86071932 -144.69569
10952509375 1.0347959 -41.841473 5.9648733e-005 79.775116 2.5582518e-005 132.04323 0.85972685 -144.72482
10952543750 1.0351323 -41.809124 1.340498e-005 118.04202 3.3348257e-005 24.797777 0.86039019 -144.62544
10952578125 1.0354242 -41.831665 8.7963863e-006 -48.24036 1.7176915e-005 145.8344 0.86156017 -144.65671
10952612500 1.0337892 -41.79987 2.5013664e-005 95.81131 3.4702789e-005 149.17166 0.86137456 -144.71666
10952646875 1.0345893 -41.815796 2.9497665e-005 -99.693413 8.4627463e-005 -169.53642 0.86183763 -144.65068
10952681250 1.0350487 -41.829475 1.7269225e-005 109.67754 1.0598582e-005 -175.57997 0.86214459 -144.7032
10952715625 1.0350792 -41.810383 3.1124389e-006 -3.0514598 5.2313058e-005 134.4501 0.86174309 -144.72197
10952750000 1.0341556 -41.738979 3.230451e-005 115.12466 2.6762416e-005 140.67525 0.86265641 -144.62625
10952784375 1.0348248 -41.790543 4.5037894e-005 -144.17316 4.8875001e-005 -156.32497 0.86121303 -144.67027
10952818750 1.0353127 -41.812412 1.4968005e-005 47.932358 5.6083642e-005 -104.24818 0.86176831 -144.66129
10952853125 1.0346324 -41.751801 5.0915361e-005 179.06808 2.9689201e-005 127.26534 0.86275715 -144.62976
10952887500 1.0354524 -41.759468 2.0382973e-005 81.791328 2.552224e-005 52.006298 0.86172426 -144.65027
10952921875 1.035905 -41.715206 3.9108749e-005 149.92213 2.8942855e-005 60.4412 0.86150885 -144.69295
10952956250 1.0349672 -41.836842 2.5415435e-005 157.80258 7.3502801e-005 155.17567 0.86286539 -144.63434
10952990625 1.0351086 -41.794197 1.588261e-005 95.761559 8.1697479e-005 99.874275 0.86136192 -144.73575
10953025000 1.0344994 -41.82943 1.7529715e-005 -133.17308 3.562951e-005 -135.408 0.86090493 -144.73599
10953059375 1.0339987 -41.760986 3.9708902e-005 -159.20216 2.8270952e-005 -168.24512 0.86058009 -144.72891
10953093750 1.0344477 -41.759186 3.8056049e-005 -177.85223 4.224473e-005 -124.78555 0.85976189 -144.7782
10953128125 1.0350121 -41.775806 1.9371922e-005 126.21231 7.8683268e-005 118.90095 0.86150438 -144.67403
10953162500 1.0347083 -41.817474 2.1901598e-005 121.11212 4.0131185e-005 -140.53163 0.86081254 -144.69112
10953196875 1.0352764 -41.786777 2.4979016e-005 141.23605 4.2865388e-005 -153.96631 0.85988081 -144.77264
10953231250 1.0342873 -41.781322 2.4983518e-005 -165.6357 2.5433146e-005 81.539017 0.86104882 -144.75771
10953265625 1.0352507 -41.749748 1.3303176e-005 -169.90823 1.8866464e-005 92.235733 0.86164427 -144.73499
10953300000 1.0340956 -41.800743 2.1757347e-005 -77.868744 1.098244e-005 156.09254 0.86165529 -144.80644
10953334375 1.0350441 -41.829102 2.1341479e-005 83.21862 2.5839923e-005 -129.23309 0.86198002 -144.83426
10953368750 1.0341084 -41.757019 1.2505193e-005 -165.21738 1.3125917e-005 59.687889 0.86113 -144.79962
10953403125 1.0345956 -41.800426 9.7130924e-006 36.64172 1.410171e-005 -154.40123 0.86231601 -144.79747
10953437500 1.0353491 -41.80798 2.2766246e-005 43.845875 3.4708555e-005 -142.86011 0.86281931 -144.78256
10953471875 1.0354624 -41.827454 2.6770058e-005 121.24657 4.7701491e-005 105.38563 0.86241704 -144.81024
10953506250 1.0357835 -41.818901 8.414203e-006 -101.57384 2.9553632e-005 128.46365 0.86124289 -144.77127
10953540625 1.036137 -41.853912 9.8026012e-006 -167.89119 3.7845555e-005 164.6095 0.86159426 -144.85594
10953575000 1.0345286 -41.830166 1.1892066e-005 123.53857 2.1894935e-005 156.57231 0.86140168 -144.85144
10953609375 1.0356225 -41.816498 1.2939735e-005 29.166813 1.5089949e-005 3.5368979 0.86201489 -144.77538
10953643750 1.0354218 -41.786812 2.5863601e-005 171.17853 6.7633315e-005 66.305862 0.86194676 -144.78546
10953678125 1.0346589 -41.745296 2.8976701e-005 124.603 4.1929819e-005 157.64935 0.86258358 -144.81908
10953712500 1.0356431 -41.763641 2.1702248e-005 -117.61736 4.5129058e-005 -170.28598 0.86089301 -144.85954
10953746875 1.0358268 -41.795307 4.5335059e-006 -93.874176 2.5585796e-005 -142.89297 0.86079049 -144.78377
10953781250 1.034438 -41.843998 2.4015289e-005 -94.215271 6.5971566e-005 171.12965 0.86183012 -144.75868
10953815625 1.0366296 -41.85268 3.8778871e-005 122.6958 2.8415054e-005 65.613518 0.86111444 -144.7892
10953850000 1.0347843 -41.859715 1.9197978e-005 131.26607 1.4068576e-005 -76.915596 0.86112225 -144.80904
10953884375 1.0345939 -41.821644 3.7701186e-005 -157.31244 4.6781624e-005 -170.67459 0.86240256 -144.80992
10953918750 1.0347195 -41.835804 3.0617804e-005 152.2728 2.0111782e-005 -2.9807713 0.86268443 -144.8674
10953953125 1.0341948 -41.760422 2.8986535e-005 -124.53861 4.7217261e-005 149.08549 0.86252421 -144.76372
10953987500 1.0346508 -41.779083 2.8055714e-005 158.53088 1.6980115e-005 18.908243 0.86226428 -144.78932
10954021875 1.036136 -41.796158 1.8713015e-005 10.758624 4.0993065e-005 50.871746 0.86063892 -144.77821
10954056250 1.0357009 -41.851395 1.5333988e-005 -136.44176 2.4484429e-005 158.52148 0.86001998 -144.79807
10954090625 1.0351424 -41.847198 4.2980373e-005 102.83395 7.9187877e-005 139.26903 0.8616578 -144.83914
10954125000 1.034501 -41.824509 6.3126856e-007 -36.802727 3.5977373e-006 77.0009 0.86230808 -144.87657
10954159375 1.0353596 -41.758686 2.3897104e-005 -138.82663 1.2238149e-005 113.13707 0.86187929 -144.85384
10954193750 1.0351552 -41.823013 5.8169048e-006 155.87463 3.8434326e-005 87.960999 0.8610912 -144.8092
10954228125 1.0347294 -41.796078 1.5250895e-005 -60.94418 2.0481761e-005 129.28145 0.86087245 -144.83771
10954262500 1.0342844 -41.817295 1.2694783e-005 -120.69396 3.9972409e-005 -93.631721 0.86033773 -144.8589
10954296875 1.0354465 -41.753143 8.0986101e-006 -87.657135 6.0198057e-005 157.04663 0.86113441 -144.88771
10954331250 1.0358387 -41.811073 1.7559803e-005 23.466125 6.147231e-005 106.26093 0.86189872 -144.79608
10954365625 1.036165 -41.843063 2.3237739e-005 -103.94234 5.9501475e-005 82.669052 0.86191517 -144.78773
10954400000 1.0359237 -41.879501 2.5916543e-005 41.003273 1.6164609e-005 80.731071 0.86143589 -144.82083
10954434375 1.0349402 -41.84856 3.3349846e-005 133.96721 1.2059975e-005 125.59632 0.86172158 -144.78969
10954468750 1.0345932 -41.788399 2.5607545e-005 33.700531 6.1708131e-005 -166.35117 0.86104345 -144.84767
10954503125 1.0351365 -41.794121 2.9320065e-005 151.41756 1.5650183e-005 -168.6142 0.86167473 -144.83138
10954537500 1.0345119 -41.785374 3.7293925e-005 146.04918 2.0121774e-005 -44.389553 0.86113685 -144.82907
10954571875 1.0336795 -41.759495 4.8094771e-005 84.15596 4.2785239e-005 97.53569 0.86181992 -144.84721
10954606250 1.035099 -41.80595 2.7803371e-005 -155.7989 1.7630353e-005 -78.078857 0.86118203 -144.87386
10954640625 1.0351059 -41.706818 3.9943905e-005 96.179047 2.2936192e-005 -171.45619 0.86096609 -144.8261
10954675000 1.0347244 -41.763615 3.2982516e-005 2.332134 4.7650472e-005 128.52052 0.86024129 -144.78793
10954709375 1.0341362 -41.806717 1.4303591e-005 157.1785 3.1850257e-005 129.93462 0.86049139 -144.8167
10954743750 1.0334736 -41.797741 3.6636382e-005 -88.349968 2.7999935e-005 104.74469 0.86072081 -144.82668
10954778125 1.034538 -41.816879 2.0438632e-005 -179.32556 6.2285086e-005 155.74489 0.86132962 -144.88022
10954812500 1.0335401 -41.83931 1.980906e-005 94.536583 1.0430991e-005 -132.64844 0.86159718 -144.96371
10954846875 1.0344756 -41.800014 2.8004157e-005 148.66237 1.3623538e-005 -124.84972 0.86156017 -145.00623
10954881250 1.0354296 -41.836414 2.3603541e-005 -110.98896 3.1616859e-005 125.75126 0.86076701 -144.91713
10954915625 1.035418 -41.850922 2.5169378e-005 161.03964 6.2605082e-005 124.13497 0.86203074 -144.91025
10954950000 1.0346918 -41.826378 3.18114e-005 133.46997 5.0438281e-005 145.54335 0.86147869 -144.96797
10954984375 1.0347652 -41.816345 4.2700403e-006 171.63879 3.2220807e-005 -120.77003 0.86169213 -144.86037
10955018750 1.0353746 -41.809883 4.9923197e-005 78.471146 2.9922478e-005 -173.9664 0.86065316 -144.89212
10955053125 1.034766 -41.808872 1.879011e-005 -96.420273 3.6049245e-005 34.772438 0.86264253 -144.91359
10955087500 1.0346953 -41.869057 2.0527556e-005 152.41714 1.8917635e-005 -120.48141 0.86130112 -144.94777
10955121875 1.0340089 -41.80851 1.9647352e-005 120.51324 7.5265139e-005 172.25749 0.8628875 -144.94835
10955156250 1.0341213 -41.861919 1.8930765e-005 165.03839 7.0708156e-005 103.69997 0.8611114 -144.85962
10955190625 1.0352278 -41.862808 2.7090902e-005 118.86656 4.0475123e-005 -176.99825 0.86094803 -144.9158
10955225000 1.0355736 -41.794449 2.0580483e-005 115.79652 3.3211807e-005 55.263405 0.86156815 -144.92743
10955259375 1.0351048 -41.80109 2.5518525e-006 55.614941 1.8391873e-005 56.225929 0.86086357 -144.9987
10955293750 1.0352085 -41.795971 1.6352511e-005 76.268745 7.4656971e-005 128.99681 0.86136597 -145.04323
10955328125 1.0347419 -41.787296 1.8961098e-005 -143.7516 4.9401817e-005 23.13341 0.86119759 -144.9812
10955362500 1.0358381 -41.832718 1.7883563e-005 -126.2327 2.0784479e-005 125.91356 0.86041981 -145.04839
10955396875 1.0361605 -41.828854 3.1421449e-005 133.01447 4.1026658e-005 170.59506 0.86163425 -144.99223
10955431250 1.0354267 -41.787205 9.9712752e-006 -174.26089 5.0467042e-005 124.54394 0.86220247 -144.91304
10955465625 1.0345498 -41.85701 1.8415258e-005 112.26276 2.9649154e-005 -93.644737 0.86232364 -144.95035
10955500000 1.0347832 -41.950062 1.9241494e-005 149.89937 4.2696709e-005 102.91383 0.86150038 -144.99242
10955534375 1.0342416 -41.876286 1.7392906e-005 92.245529 3.5526282e-005 152.16519 0.86197042 -144.98312
10955568750 1.0347916 -41.795166 8.0128038e-006 174.84602 3.6771286e-005 93.874596 0.86224067 -144.92001
10955603125 1.0348732 -41.824753 2.9430776e-005 145.06593 5.6282147e-006 -118.63528 0.86090928 -144.96866
10955637500 1.034773 -41.788921 3.2312917e-005 64.410507 1.0822038e-005 -0.73731303 0.86098915 -145.00169
10955671875 1.0347912 -41.805893 1.3513382e-005 115.03551 5.3445376e-005 174.58279 0.86008239 -144.9883
10955706250 1.0353384 -41.765324 1.2632529e-005 32.645191 3.0687355e-005 -122.19328 0.8609938 -145.02397
10955740625 1.034831 -41.723282 4.3633827e-005 122.45892 2.8810246e-005 113.77279 0.86083454 -144.98834
10955775000 1.0348799 -41.851955 1.8152257e-005 -25.148151 2.4514155e-005 123.59278 0.86119485 -144.99599
10955809375 1.0356103 -41.907066 2.7016526e-005 -30.568863 4.2982374e-005 145.69145 0.86168468 -144.97144
10955843750 1.0346559 -41.882454 2.6732292e-005 -99.022743 2.3138737e-005 -167.19366 0.8621676 -145.0573
10955878125 1.0363542 -41.885487 1.8209294e-005 114.90868 1.8147311e-005 68.995636 0.86104292 -144.98282
10955912500 1.033988 -41.871655 5.013814e-005 -141.69307 3.9300761e-005 -176.46376 0.86129415 -144.97002
10955946875 1.0349929 -41.906696 2.0848955e-005 -156.692 4.1460051e-005 111.37847 0.86169106 -145.01656
10955981250 1.0350385 -41.921505 1.9837478e-005 -147.86932 1.2947606e-005 64.608963 0.86258399 -144.97676
10956015625 1.0339522 -41.887608 5.1794909e-006 -93.08567 6.9605128e-005 -175.49808 0.8625471 -145.0388
10956050000 1.033595 -41.846024 1.5535874e-005 -98.310318 1.8794221e-005 61.336929 0.86158913 -145.00829
10956084375 1.0328364 -41.827808 2.1250005e-005 -119.11361 6.3247164e-005 148.4902 0.86182898 -145.04385
10956118750 1.0348127 -41.753204 1.8178866e-005 -145.40192 5.3158452e-005 145.06767 0.86254334 -144.95853
10956153125 1.0346593 -41.845814 2.0749998e-005 50.44976 2.7085995e-005 -177.94142 0.86181194 -145.01559
10956187500 1.0347829 -41.806484 1.1812403e-005 87.000519 3.1912423e-006 -155.56131 0.861233 -145.00421
10956221875 1.0356528 -41.841743 2.4208419e-005 -150.94072 4.4328248e-005 69.347557 0.86148137 -144.95607
10956256250 1.0353756 -41.835285 2.1799566e-005 76.780571 7.31295e-005 87.899315 0.86012816 -145.00255
10956290625 1.0348308 -41.792816 4.5082626e-005 -32.1693 3.1453321e-005 90.822952 0.86103356 -144.9534
10956325000 1.0351634 -41.853226 3.3807642e-005 112.97444 2.799633e-005 152.65993 0.86118901 -144.95363
10956359375 1.0339221 -41.77029 2.7553404e-005 137.19485 7.1409959e-005 147.79453 0.86123836 -145.01917
