!Agilent Technologies,E8362C,MY49020356,A.09.42.23
!Agilent E8362C: A.09.42.23
!Date: Saturday, September 11, 2021 04:13:14
!Correction: S11(Full 2 Port(1,2)) 
!S21(Full 2 Port(1,2)) 
!S12(Full 2 Port(1,2)) 
!S22(Full 2 Port(1,2)) 
!S2P File: Measurements: S11, S21, S12, S22:
# Hz S  MA   R 50
10950000000 1.0346012 -41.735657 1.2096264e-005 -157.43985 3.0344136e-005 142.81978 0.87043709 -145.96815
10950034375 1.0340466 -41.744896 5.1467225e-005 152.15323 1.8362134e-005 13.738569 0.86913818 -145.92567
10950068750 1.0342708 -41.780724 2.3852754e-005 113.71122 4.8756378e-005 115.70286 0.86845469 -145.88606
10950103125 1.0347692 -41.793392 2.8268283e-005 -167.32906 1.3367564e-005 172.81842 0.86925232 -145.94528
10950137500 1.036796 -41.795902 3.238683e-005 46.559658 5.2525309e-005 -170.24757 0.87021291 -145.9404
10950171875 1.0368208 -41.786751 8.5871416e-006 -38.41264 4.1232634e-005 46.134453 0.86880994 -145.97237
10950206250 1.035768 -41.788219 7.9654237e-006 68.505913 5.2599593e-005 83.221642 0.8690992 -146.05031
10950240625 1.0361339 -41.819637 1.648095e-005 23.829132 2.3853583e-005 -45.518318 0.86874193 -145.98143
10950275000 1.0352247 -41.800312 4.0126004e-005 135.02846 2.0184338e-005 -112.76553 0.86878133 -145.8618
10950309375 1.0357211 -41.738903 1.5012885e-005 135.96907 4.1982577e-005 -32.881344 0.8690601 -145.99297
10950343750 1.0356345 -41.69368 2.6319805e-005 78.786232 7.5712128e-006 -126.75056 0.86881071 -146.01263
10950378125 1.0355651 -41.752022 3.3175456e-005 178.54884 3.8620616e-005 -177.29218 0.87010175 -145.96315
10950412500 1.0338956 -41.701691 6.7864189e-006 176.77811 5.4770819e-005 -163.0433 0.87024993 -145.97562
10950446875 1.0342346 -41.763458 3.1583808e-005 59.127472 4.6376295e-005 105.2165 0.86851853 -145.90337
10950481250 1.0343981 -41.8466 1.6796019e-005 19.674114 1.2841248e-005 67.676323 0.86909962 -145.91968
10950515625 1.0357485 -41.762157 2.0689478e-005 62.143089 2.9876377e-005 78.318237 0.86872578 -145.91684
10950550000 1.0348493 -41.756657 3.1024974e-005 44.620491 6.9108188e-005 45.915707 0.86809641 -146.00034
10950584375 1.0338858 -41.803185 2.2889104e-005 -0.74408317 5.5417851e-005 118.84983 0.86870766 -146.03932
10950618750 1.0330857 -41.805706 3.2344396e-005 130.78712 1.9350267e-005 126.36256 0.87008393 -145.99681
10950653125 1.0332189 -41.785522 3.4298588e-005 66.818703 2.5685858e-005 12.71102 0.86918759 -146.02849
10950687500 1.0343647 -41.798817 2.8580414e-005 100.60806 1.8068502e-005 98.412918 0.86885303 -145.96761
10950721875 1.0347713 -41.833706 1.3457888e-005 155.91367 1.0692967e-005 98.901009 0.86946547 -146.0163
10950756250 1.0345671 -41.867573 1.7696724e-005 64.75563 2.7495505e-005 -171.93906 0.86874431 -145.96104
10950790625 1.035543 -41.80859 2.0196074e-005 -0.080388285 3.9192604e-005 78.895607 0.86856765 -145.97745
10950825000 1.0340316 -41.761395 1.8288227e-005 114.22911 2.8637045e-005 -61.580051 0.86863893 -145.98421
10950859375 1.035005 -41.759106 2.8414139e-005 -110.11755 2.389868e-005 -116.10047 0.86875033 -146.00665
10950893750 1.0353435 -41.778328 1.9507792e-005 -8.6506767 2.8027656e-005 -10.367371 0.86861306 -145.97771
10950928125 1.0353808 -41.738621 1.3812088e-005 106.39752 1.759503e-005 119.70203 0.86829543 -145.97986
10950962500 1.0358952 -41.706917 1.9010125e-005 106.47092 2.5371166e-005 -85.968201 0.86784142 -145.95277
10950996875 1.0346696 -41.759411 6.2240192e-006 -129.87875 8.0241967e-005 57.229847 0.86840641 -146.04698
10951031250 1.0354077 -41.740101 1.356648e-005 143.8876 2.0162526e-005 -150.97917 0.86871886 -146.02538
10951065625 1.0345262 -41.729088 4.922078e-006 54.528881 4.2874373e-005 -55.051991 0.86787099 -146.05734
10951100000 1.0351183 -41.735924 2.106763e-005 44.893085 9.1534921e-006 -111.39355 0.86864567 -146.05815
10951134375 1.0348376 -41.713413 2.6791173e-005 104.99619 5.2284584e-005 15.248553 0.86866862 -146.04172
10951168750 1.0348338 -41.770683 5.4643506e-006 -1.5691833 2.0415225e-006 5.3390536 0.86820394 -146.09889
10951203125 1.0335538 -41.820263 3.8526949e-005 -107.174 1.1145151e-005 -76.058334 0.86874259 -146.00143
10951237500 1.0347736 -41.781048 2.8136621e-005 152.09375 9.8692408e-006 35.248859 0.868177 -146.03288
10951271875 1.0336432 -41.838528 1.4879543e-005 -127.31746 3.3307995e-005 59.660843 0.86882406 -145.97328
10951306250 1.0338193 -41.76527 2.7756461e-005 54.684517 3.6371504e-005 -122.52531 0.86846679 -146.09879
10951340625 1.0340431 -41.834644 1.4537753e-005 -42.329899 4.9948751e-005 -150.68959 0.86859125 -145.99768
10951375000 1.0345066 -41.786003 2.8172371e-005 -25.017658 3.490342e-005 165.18272 0.86875176 -146.03271
10951409375 1.0342875 -41.80777 1.0096107e-005 138.46535 1.6316568e-005 5.756114 0.86827731 -146.08037
10951443750 1.0352547 -41.837582 1.4575126e-005 174.71971 3.6439005e-006 -110.71393 0.86784852 -145.98314
10951478125 1.0349865 -41.774097 2.4706113e-005 108.56331 4.002326e-005 9.4554539 0.86837733 -146.00107
10951512500 1.0351483 -41.740982 2.6981708e-005 -28.560507 2.4598934e-005 69.519485 0.86762929 -146.00961
10951546875 1.0359219 -41.735271 3.4494093e-005 -78.821548 5.7971673e-005 56.746082 0.86830604 -146.07884
10951581250 1.0342319 -41.777088 1.9375266e-005 134.4043 3.0591764e-005 -173.81366 0.86867809 -146.01068
10951615625 1.0341811 -41.80851 2.6209567e-005 -37.90181 4.5566594e-005 53.471432 0.86803961 -146.03581
10951650000 1.0348731 -41.73661 3.3930934e-005 112.53745 5.0499999e-005 -159.70735 0.86948055 -146.05333
10951684375 1.0354223 -41.743752 2.3924236e-005 15.023116 7.3586129e-006 76.912239 0.8691799 -146.05486
10951718750 1.0351778 -41.783531 2.5081075e-005 27.237549 4.2305779e-005 -12.711767 0.86872488 -146.04579
10951753125 1.0343444 -41.75415 1.8451334e-005 -146.65794 2.1771641e-005 102.83378 0.87043226 -146.07443
10951787500 1.0343878 -41.721886 3.3130389e-005 41.578838 3.5951936e-005 -169.57269 0.86958557 -146.05486
10951821875 1.0345286 -41.817139 7.3783417e-006 -26.685736 2.909573e-005 -68.827965 0.86969203 -146.06023
10951856250 1.0346774 -41.780666 3.5697332e-005 150.43941 5.2728679e-005 17.340595 0.86880833 -146.05382
10951890625 1.035998 -41.826229 9.6148733e-006 -76.783707 3.2712698e-005 137.14253 0.86868978 -146.07269
10951925000 1.0356854 -41.823822 3.241537e-005 -35.214867 6.2137246e-005 47.771847 0.8689478 -146.12086
10951959375 1.0355545 -41.769058 9.1715119e-006 -68.606445 3.1464409e-005 -131.87001 0.86851954 -146.09016
10951993750 1.0342783 -41.822861 2.4155966e-005 69.630264 9.8535211e-006 103.9772 0.8680737 -146.18192
10952028125 1.0349883 -41.798336 2.4644269e-005 95.613419 6.0152062e-005 120.87167 0.8672995 -146.10176
10952062500 1.0341347 -41.820122 2.2927663e-005 57.805134 3.557442e-005 73.371597 0.8679474 -146.02573
10952096875 1.0346419 -41.763924 3.2767282e-005 173.87585 1.3881549e-005 -176.24207 0.86816543 -146.11272
10952131250 1.0356543 -41.743385 1.4939873e-005 -86.137703 2.9420371e-005 48.791698 0.86785543 -146.08806
10952165625 1.0351056 -41.765659 1.3031253e-005 -20.287806 5.5085704e-005 93.033073 0.86813492 -146.10942
10952200000 1.034498 -41.823627 1.8812942e-005 -2.6251724 4.4765136e-005 -32.169773 0.86802423 -146.13107
10952234375 1.0353068 -41.756168 3.2730793e-005 53.447216 6.9372094e-005 89.917152 0.86900699 -146.10056
10952268750 1.035398 -41.808319 1.8810351e-005 91.776917 4.6337616e-005 172.1756 0.86781335 -146.127
10952303125 1.0353435 -41.839928 1.6833843e-005 10.514101 6.2193896e-005 108.7639 0.86848372 -146.09503
10952337500 1.0350777 -41.801884 2.281422e-005 113.96464 4.3858632e-005 126.90545 0.86825949 -146.18187
10952371875 1.0351282 -41.803486 1.1074046e-005 128.00809 3.4129884e-005 96.145355 0.86830801 -146.13937
10952406250 1.0352536 -41.770672 2.5162297e-005 116.80016 5.0001388e-005 -7.3902092 0.86732382 -146.18845
10952440625 1.0357193 -41.751621 2.4442681e-005 178.80351 5.0964754e-005 32.571995 0.86617553 -146.16571
10952475000 1.034727 -41.782875 2.5301395e-005 -36.416775 2.3597733e-005 -41.445477 0.8677026 -146.18367
10952509375 1.0351094 -41.756767 2.4328379e-005 -19.10223 3.2852575e-005 -12.396711 0.86739343 -146.16641
10952543750 1.0354702 -41.817516 4.6182871e-005 95.679138 3.0844643e-005 99.408958 0.86769772 -146.17361
10952578125 1.0355456 -41.881363 4.470746e-005 -117.28253 2.2686278e-005 -18.60006 0.86830312 -146.07474
10952612500 1.0343392 -41.823013 1.7444981e-005 -18.837601 4.5389465e-005 163.74162 0.86792636 -146.13379
10952646875 1.033764 -41.809772 1.6335936e-005 117.82553 1.4639741e-005 -138.17215 0.86898673 -146.06116
10952681250 1.0350713 -41.824661 2.9868455e-005 16.827093 7.7031291e-006 26.59412 0.86893284 -146.16953
10952715625 1.0339512 -41.785278 7.567975e-006 30.262701 1.9921124e-005 95.882828 0.86931914 -146.16368
10952750000 1.0339849 -41.771427 2.696272e-005 -9.9085541 3.6285757e-005 71.775558 0.86838692 -146.11061
10952784375 1.0349019 -41.791897 2.8756393e-005 71.722443 3.5561734e-005 155.95007 0.86844391 -146.13271
10952818750 1.0356841 -41.792824 7.4894251e-006 -72.844368 2.9546296e-005 172.52213 0.86882347 -146.14494
10952853125 1.0358658 -41.796665 1.8472918e-005 17.941845 4.3396929e-005 -123.77138 0.86961877 -146.09828
10952887500 1.0358778 -41.81744 2.0820429e-005 76.058609 4.3895147e-005 -137.81635 0.86953115 -146.21368
10952921875 1.0357231 -41.716343 1.0613117e-005 135.39873 1.6216005e-005 -134.55746 0.8685354 -146.15398
10952956250 1.0349844 -41.750103 3.7357466e-005 69.81636 1.1071344e-005 127.19789 0.86906624 -146.10648
10952990625 1.0352463 -41.765678 2.0386242e-005 53.679367 1.7855653e-005 96.110382 0.86863256 -146.14413
10953025000 1.0344553 -41.781994 2.2723149e-005 -14.406802 1.0916128e-005 157.45872 0.86854315 -146.20013
10953059375 1.0341468 -41.746567 1.6375629e-005 -14.934801 4.350258e-005 71.04438 0.8680777 -146.22969
10953093750 1.0338031 -41.753559 7.9660604e-006 117.66909 9.2493947e-006 -118.96317 0.86919713 -146.20538
10953128125 1.0353587 -41.748116 5.3030159e-005 50.730503 4.7857433e-005 101.76272 0.86807543 -146.21487
10953162500 1.0341911 -41.779186 2.5966514e-005 -102.54333 5.4654774e-005 169.07912 0.86704713 -146.21156
10953196875 1.0341841 -41.754406 2.086643e-005 -13.155055 2.1185211e-005 142.41055 0.8677479 -146.25127
10953231250 1.0355407 -41.775196 1.5740747e-005 32.771122 1.9983112e-005 167.67929 0.8675403 -146.2541
10953265625 1.0347259 -41.811596 2.0192118e-005 57.597946 3.9316325e-005 -145.83609 0.86893755 -146.2265
10953300000 1.0344197 -41.787449 2.2880724e-005 95.949852 4.5375022e-005 49.159664 0.86925888 -146.16119
10953334375 1.0345052 -41.803963 2.6973141e-005 -79.62014 3.7654703e-005 96.857635 0.86982101 -146.22977
10953368750 1.0345429 -41.74361 8.2060851e-006 58.127041 3.2592619e-005 69.601707 0.86875647 -146.23448
10953403125 1.0344479 -41.785671 2.3087565e-005 156.88933 4.1251573e-005 136.79839 0.86892837 -146.26453
10953437500 1.0348266 -41.862526 8.1200451e-006 134.31653 5.7185584e-006 -125.42493 0.86925817 -146.18181
10953471875 1.0350789 -41.785591 6.733374e-006 -134.7117 3.4608278e-005 65.564438 0.86756539 -146.24574
10953506250 1.0355918 -41.802998 3.1375104e-005 71.71769 2.7664288e-005 -55.338127 0.86845362 -146.31067
10953540625 1.0355968 -41.805664 9.3020581e-006 114.97433 4.5882316e-005 83.408005 0.8692233 -146.256
10953575000 1.0357376 -41.814808 1.1286277e-005 -26.002317 3.690481e-005 -175.25514 0.87002218 -146.30423
10953609375 1.0355209 -41.808033 2.5175224e-005 162.97302 5.3957312e-005 -86.187149 0.8686682 -146.24696
10953643750 1.0346612 -41.82568 8.0190484e-006 -164.00246 2.5531517e-006 118.40373 0.86916333 -146.22824
10953678125 1.0350454 -41.773266 3.0495486e-005 76.871643 3.3580713e-005 109.59778 0.86842877 -146.3017
10953712500 1.035264 -41.791626 1.7940705e-005 169.60785 3.6614296e-005 40.467133 0.87005097 -146.28323
10953746875 1.0356063 -41.747242 3.9655029e-006 176.12512 1.8536675e-005 26.439346 0.86857504 -146.26799
10953781250 1.034198 -41.772583 3.3466691e-005 -1.3912553 3.2838299e-005 -8.5730801 0.86860877 -146.26695
10953815625 1.0353053 -41.816139 2.6338548e-005 93.089294 3.8567716e-005 -32.62299 0.86909449 -146.17657
10953850000 1.0355949 -41.826752 2.0667705e-005 81.918427 2.1718202e-005 25.406603 0.86852515 -146.20712
10953884375 1.0345765 -41.816601 8.9719288e-006 80.014336 5.4663982e-005 150.43988 0.86913347 -146.23235
10953918750 1.0341257 -41.768208 1.6066437e-005 -163.28136 4.3694428e-005 155.53345 0.86891359 -146.25713
10953953125 1.0347342 -41.734135 2.4473151e-005 20.08054 1.0206446e-005 -61.103371 0.87017167 -146.3194
10953987500 1.0351721 -41.849594 2.7698468e-005 55.046719 5.7658685e-006 -144.76338 0.86839259 -146.29829
10954021875 1.0350499 -41.833122 2.3271788e-005 54.104393 3.560631e-005 90.136604 0.86748087 -146.28233
10954056250 1.0355064 -41.815186 1.7336268e-005 114.74911 2.6338819e-005 66.244835 0.86771327 -146.18309
10954090625 1.0344886 -41.759014 3.7846734e-005 -6.1232877 9.7316743e-006 -162.16379 0.86780781 -146.29875
10954125000 1.0347345 -41.816395 6.2821462e-005 -173.45213 2.6128277e-005 -62.256294 0.86927813 -146.27313
10954159375 1.0348072 -41.728832 5.0766412e-006 128.90637 1.8473535e-005 -152.69983 0.86776495 -146.24062
10954193750 1.0349712 -41.737087 4.7050788e-005 -36.839828 3.4369219e-005 121.46809 0.86691725 -146.2966
10954228125 1.0342311 -41.788845 3.9800078e-005 -39.743687 1.7799675e-005 -150.68985 0.86713517 -146.32114
10954262500 1.0335802 -41.724312 1.2981857e-005 -133.87517 1.307327e-005 90.39753 0.86660492 -146.28156
10954296875 1.0342319 -41.787216 9.1728334e-006 52.884319 2.4209443e-005 -147.48317 0.8691113 -146.33879
10954331250 1.0347681 -41.8148 1.1146783e-005 -153.8203 2.6963414e-006 74.546814 0.86798298 -146.30986
10954365625 1.0350267 -41.835381 1.2673178e-005 -137.7007 2.6692293e-005 17.301102 0.86866105 -146.28052
10954400000 1.0357537 -41.802818 1.3828973e-005 134.716 2.3036277e-005 -144.01524 0.86910808 -146.23331
10954434375 1.035707 -41.808491 1.37827e-005 143.14914 4.5397992e-005 -80.672821 0.86771727 -146.32002
10954468750 1.0361855 -41.797417 1.1394514e-005 -23.990644 2.8904751e-005 100.47259 0.8677696 -146.35255
10954503125 1.0353944 -41.843502 2.5877433e-005 56.508476 4.614333e-005 151.28149 0.86795539 -146.37978
10954537500 1.0347747 -41.781029 1.3304789e-005 63.885696 3.7841135e-005 -82.725754 0.86817259 -146.31752
10954571875 1.0343927 -41.838818 2.9613622e-005 42.762249 5.1198989e-005 163.06462 0.86879182 -146.29895
10954606250 1.0353943 -41.776688 2.2658822e-005 -140.66347 1.6069043e-005 -78.310555 0.86899537 -146.29942
10954640625 1.0354513 -41.710258 2.0408324e-005 62.46637 1.9767465e-005 24.583824 0.86837131 -146.24373
10954675000 1.0344033 -41.720795 1.5225428e-005 21.308359 2.3403538e-005 -19.070673 0.86830223 -146.23503
10954709375 1.0337732 -41.782238 1.8677052e-005 41.370937 8.9718824e-006 165.17224 0.86785781 -146.29915
10954743750 1.033893 -41.838993 1.5853062e-005 -138.96442 3.406002e-005 110.65462 0.86735815 -146.31021
10954778125 1.0343746 -41.832352 2.0617825e-005 27.335634 1.8009689e-005 171.12151 0.86788911 -146.26408
10954812500 1.033573 -41.814594 3.1438467e-005 110.04075 4.9314058e-005 73.434059 0.86862463 -146.34724
10954846875 1.0342904 -41.727695 2.4674731e-005 40.927246 5.1733161e-005 -0.38334894 0.86831397 -146.33737
10954881250 1.0346117 -41.78307 1.2760036e-005 133.59834 3.8000318e-005 94.918953 0.86893404 -146.37277
10954915625 1.0357586 -41.803062 2.8292854e-005 61.17226 2.4929703e-005 -125.3447 0.86800671 -146.33492
10954950000 1.0344543 -41.808468 1.5859936e-005 17.123362 4.7295856e-005 -33.050007 0.86933833 -146.36888
10954984375 1.0345446 -41.792431 3.9261533e-005 56.301765 2.1508615e-005 73.445686 0.86930519 -146.28789
10955018750 1.0351148 -41.838001 2.2235658e-005 70.304512 5.9181926e-005 162.33308 0.86867356 -146.38734
10955053125 1.0352168 -41.845539 5.2390301e-006 56.451195 8.9476143e-006 165.90759 0.86826259 -146.35924
10955087500 1.0351168 -41.800716 1.4277742e-005 -88.585533 1.710278e-005 -98.011909 0.86892438 -146.39175
10955121875 1.0342044 -41.801079 2.7130727e-005 91.239395 1.9700636e-005 126.54139 0.86857486 -146.35249
10955156250 1.0340869 -41.829002 1.6568632e-005 75.105782 3.1845782e-005 -155.75102 0.86806816 -146.37764
10955190625 1.0349107 -41.83139 3.6439953e-005 131.52553 3.8634389e-005 -117.3238 0.86806446 -146.41693
10955225000 1.0359337 -41.794582 1.8934677e-005 90.411995 4.4754641e-005 23.094643 0.86841756 -146.3213
10955259375 1.0349387 -41.771343 1.7226703e-005 165.15724 3.7926628e-005 95.400681 0.8690446 -146.51994
10955293750 1.0344429 -41.731434 1.9598303e-005 -5.812747 4.0675459e-005 19.671677 0.86940455 -146.41513
10955328125 1.0339571 -41.799377 3.6926562e-005 74.014915 3.4483794e-005 -114.11266 0.86792481 -146.50914
10955362500 1.0358435 -41.764393 2.0822332e-005 4.5795059 1.5296731e-005 69.635132 0.86864138 -146.46811
10955396875 1.0360965 -41.790287 3.2913751e-005 56.60363 2.3776332e-005 42.11697 0.86798632 -146.45471
10955431250 1.0355031 -41.825764 2.8292452e-005 106.99451 3.3617758e-005 -78.199547 0.86940116 -146.42203
10955465625 1.0349923 -41.85672 2.2313157e-005 34.279873 1.6941678e-005 95.086502 0.86818343 -146.37068
10955500000 1.0343789 -41.883873 1.8053267e-006 116.39989 3.0972595e-005 -1.6654088 0.86789066 -146.38533
10955534375 1.0342079 -41.848663 1.2629584e-005 116.39169 3.7727958e-005 135.31743 0.86963063 -146.43272
10955568750 1.0350037 -41.876575 3.0430638e-005 -118.20439 3.4189376e-005 6.7160835 0.86897504 -146.41953
10955603125 1.0349045 -41.841534 8.6808295e-006 -162.49049 4.1079489e-005 21.365494 0.86831981 -146.34583
10955637500 1.0352972 -41.781506 4.3427372e-005 -19.238768 3.0340056e-005 166.94635 0.86934888 -146.39796
10955671875 1.0355495 -41.802921 1.5814303e-005 85.785637 1.7805987e-005 79.869751 0.86695904 -146.42279
10955706250 1.0352032 -41.718708 3.0796273e-005 -22.930403 4.7801663e-005 13.650541 0.86863661 -146.44516
10955740625 1.0360047 -41.690102 3.8498692e-005 117.70689 1.6416187e-005 179.7146 0.86813408 -146.45042
10955775000 1.0352994 -41.910263 2.4631177e-005 -46.038406 1.3921417e-005 -63.047802 0.86969155 -146.4404
10955809375 1.0348219 -41.892227 1.7764545e-005 7.6636677 6.1854087e-005 100.13124 0.86803198 -146.47186
10955843750 1.0358995 -41.864285 1.7119919e-005 85.168396 2.9229439e-005 114.85497 0.86830705 -146.49773
10955878125 1.0352869 -41.857262 2.994953e-005 115.40047 4.598586e-005 31.621557 0.86763394 -146.48486
10955912500 1.0361813 -41.86805 2.3974464e-005 87.67009 3.3920656e-005 42.100574 0.86908752 -146.44875
10955946875 1.0336515 -41.824306 1.6647504e-005 -130.33055 3.9221533e-005 128.09035 0.86860913 -146.44034
10955981250 1.0334917 -41.879108 1.636762e-005 131.77879 3.9759179e-006 -165.77921 0.86809641 -146.39305
10956015625 1.0335364 -41.934452 2.6759857e-005 89.015472 1.7784291e-006 167.57816 0.86918342 -146.50484
10956050000 1.0335095 -41.862236 3.270193e-005 61.218769 3.3439806e-005 106.36942 0.869596 -146.49794
10956084375 1.0340071 -41.842308 2.9312972e-005 101.40055 3.3562646e-005 135.71333 0.86955136 -146.55997
10956118750 1.0344625 -41.729858 2.5246165e-005 -2.4298329 2.8087312e-005 -46.852654 0.86907309 -146.4966
10956153125 1.034891 -41.808147 3.8970815e-005 64.335365 5.6859558e-006 -153.38766 0.86939383 -146.42422
10956187500 1.0350504 -41.801392 2.2143891e-005 -90.260574 3.1235239e-005 153.04237 0.86985403 -146.43303
10956221875 1.0359737 -41.806095 1.9855202e-005 97.861603 2.6616208e-005 -155.03069 0.86793065 -146.35783
10956256250 1.035063 -41.861282 1.7999177e-005 -17.006208 5.1680185e-005 152.17856 0.86766928 -146.4012
10956290625 1.0352277 -41.821308 5.0342976e-005 108.17619 1.3308133e-005 114.93108 0.86742437 -146.53786
10956325000 1.0345907 -41.774864 2.6536895e-006 149.11127 4.2168478e-005 28.938818 0.86849362 -146.43999
