!Agilent Technologies,E8362C,MY49020356,A.09.42.23
!Agilent E8362C: A.09.42.23
!Date: Saturday, September 11, 2021 04:13:39
!Correction: S11(Full 2 Port(1,2)) 
!S21(Full 2 Port(1,2)) 
!S12(Full 2 Port(1,2)) 
!S22(Full 2 Port(1,2)) 
!S2P File: Measurements: S11, S21, S12, S22:
# Hz S  MA   R 50
10950000000 1.0343198 -41.746201 6.022819e-006 -33.810883 2.0879959e-005 138.34685 0.87180203 -149.45528
10950034375 1.0341196 -41.757736 1.9426887e-005 -79.804573 4.2051724e-005 -152.14226 0.8709988 -149.44623
10950068750 1.0343157 -41.73716 1.493288e-005 46.533401 4.7739621e-005 -127.79277 0.87117898 -149.47977
10950103125 1.0345074 -41.768124 3.3996592e-005 -151.65822 5.0861134e-005 24.35812 0.87133348 -149.44833
10950137500 1.0351216 -41.76231 1.4938533e-005 169.16435 4.9760815e-006 -140.52859 0.87073815 -149.47551
10950171875 1.0370556 -41.785702 3.6803042e-006 -96.207672 4.2754971e-005 -124.91991 0.87077761 -149.50165
10950206250 1.0366962 -41.802258 3.2708296e-005 30.943052 4.474404e-005 68.469406 0.87150514 -149.49219
10950240625 1.0358884 -41.776485 3.3231205e-005 1.3666395 2.1552754e-005 120.35002 0.87062734 -149.52682
10950275000 1.0366045 -41.789101 5.9686357e-005 -3.4246368 9.4167108e-006 -107.2283 0.86984742 -149.49872
10950309375 1.0357449 -41.776138 1.452264e-005 -84.051834 3.8874579e-005 -143.85275 0.87080693 -149.52003
10950343750 1.0361356 -41.691658 2.0627986e-005 96.962524 3.6618258e-005 167.77112 0.87165958 -149.54776
10950378125 1.0351075 -41.75058 1.2342553e-005 104.99408 3.9219784e-005 16.633282 0.87159944 -149.48766
10950412500 1.0347573 -41.745872 2.9079254e-005 91.432983 4.2115968e-005 113.89402 0.87102383 -149.48868
10950446875 1.0348172 -41.823059 1.7113421e-006 -131.18503 1.4818189e-005 65.335251 0.87174052 -149.53673
10950481250 1.0351181 -41.805168 2.1214924e-005 -82.75444 1.3870821e-005 -118.13584 0.87147605 -149.46735
10950515625 1.0352422 -41.780876 1.747955e-005 79.996094 8.5179781e-006 -167.42622 0.87017548 -149.46057
10950550000 1.0342003 -41.749054 3.0924468e-005 38.829136 6.897319e-005 131.54025 0.8706249 -149.53665
10950584375 1.0338577 -41.780781 1.3064521e-005 162.38406 5.0346302e-005 -75.138725 0.87110293 -149.58679
10950618750 1.0345625 -41.752857 2.2013663e-005 156.35709 3.5466011e-005 -156.49883 0.87039411 -149.5583
10950653125 1.0343174 -41.748138 1.7660272e-005 8.3381958 4.1165069e-005 167.8259 0.8703866 -149.51817
10950687500 1.033971 -41.792503 2.7545811e-005 135.85175 4.2525451e-005 -3.4045064 0.87102294 -149.54062
10950721875 1.0343624 -41.795795 4.2139109e-005 106.0031 5.2458738e-005 -78.402992 0.87097794 -149.51627
10950756250 1.0346047 -41.731651 8.6852397e-006 69.846802 2.9565632e-005 23.787558 0.87155855 -149.45564
10950790625 1.0343574 -41.802994 2.549601e-005 42.867958 1.9955178e-005 6.1151643 0.87027812 -149.49536
10950825000 1.0341015 -41.721317 3.7243964e-005 28.843008 5.5755765e-005 -0.83138341 0.87115687 -149.50331
10950859375 1.0348182 -41.70718 9.8077926e-006 -92.233704 1.1657632e-005 -98.99263 0.86969578 -149.57037
10950893750 1.0350014 -41.706161 1.2655246e-005 59.74297 4.4304157e-005 -28.596258 0.87121898 -149.55405
10950928125 1.0351844 -41.702358 1.6358788e-005 143.0954 5.3109034e-005 -35.301785 0.87094289 -149.53012
10950962500 1.0355633 -41.705475 2.5999776e-005 78.710861 1.9176694e-005 -152.45737 0.86998153 -149.45374
10950996875 1.0353873 -41.749233 2.1575544e-005 -68.421059 1.2541371e-005 8.8372364 0.87081552 -149.50533
10951031250 1.0342993 -41.707577 1.824601e-005 -121.63197 2.7618293e-005 99.708107 0.86999941 -149.46709
10951065625 1.0356499 -41.726105 2.7852895e-005 -17.894915 2.0680365e-005 5.1091313 0.86915892 -149.63466
10951100000 1.0349555 -41.744587 5.9573606e-005 46.230259 1.7889804e-005 74.827011 0.87030232 -149.64481
10951134375 1.0341717 -41.723671 2.4232455e-005 -6.1592102 9.1992833e-006 26.102921 0.87054294 -149.64075
10951168750 1.0337666 -41.755577 2.8346973e-005 150.18959 4.9896516e-005 -21.543266 0.871279 -149.61314
10951203125 1.033862 -41.784359 2.422085e-005 120.86877 6.6263879e-006 29.599434 0.87075192 -149.50919
10951237500 1.0349951 -41.806858 6.3451575e-005 28.280125 1.6634869e-005 56.942387 0.87007415 -149.59081
10951271875 1.0344801 -41.80814 2.0990996e-005 60.229877 4.4322933e-005 -31.424812 0.8713339 -149.58931
10951306250 1.0341121 -41.734333 3.8553776e-006 77.516777 5.1007955e-005 89.118866 0.87064499 -149.51569
10951340625 1.0343882 -41.829781 6.5642203e-006 -105.86809 4.2435346e-005 -140.91151 0.87149876 -149.57921
10951375000 1.0328251 -41.814877 2.8701668e-005 27.211584 3.8823644e-005 94.937805 0.87112677 -149.54541
10951409375 1.0347288 -41.825363 1.6376664e-005 159.48936 1.8190462e-005 108.53281 0.87040019 -149.58423
10951443750 1.0352992 -41.779095 1.1862946e-005 -71.897446 3.630784e-005 137.34146 0.87021494 -149.57271
10951478125 1.0354749 -41.810787 2.053535e-005 149.67262 5.5880591e-005 19.989569 0.8711229 -149.56551
10951512500 1.0355349 -41.756645 2.899187e-005 71.410294 2.3235672e-005 -7.8944702 0.87085843 -149.57684
10951546875 1.0349948 -41.750828 1.6184247e-005 -94.48037 3.0043713e-005 95.088211 0.86915886 -149.61121
10951581250 1.035832 -41.741001 9.1759548e-006 -83.475426 2.5052079e-005 -54.53347 0.87042236 -149.56441
10951615625 1.0349972 -41.815224 2.2552547e-005 -42.894005 3.129966e-005 68.960175 0.86997437 -149.59549
10951650000 1.0353943 -41.818729 2.6147356e-005 166.12117 4.6893332e-005 33.428135 0.8701818 -149.64215
10951684375 1.0349625 -41.836281 7.138392e-006 -142.36464 3.3022199e-005 63.962387 0.87024027 -149.65042
10951718750 1.035434 -41.790081 1.0419713e-005 68.849983 3.0523017e-005 -162.09428 0.87105995 -149.57928
10951753125 1.0345901 -41.727097 7.3793049e-006 101.7511 3.0053534e-005 76.557915 0.87172514 -149.54169
10951787500 1.0347749 -41.766975 1.2810217e-005 -156.30807 2.608423e-005 -64.972084 0.87208426 -149.56734
10951821875 1.0344899 -41.781441 2.2323376e-005 76.040871 3.397539e-005 151.2243 0.87100947 -149.57892
10951856250 1.0337483 -41.761074 2.5810401e-005 74.767693 4.6177302e-005 15.33252 0.87053615 -149.65485
10951890625 1.0355952 -41.805763 3.4849312e-005 -54.522751 8.5820386e-005 38.398678 0.87085789 -149.63675
10951925000 1.0355203 -41.780235 2.3358611e-005 8.7112169 3.69603e-005 -145.24562 0.87060797 -149.6044
10951959375 1.0350554 -41.76479 8.2706238e-006 139.33313 3.9808314e-005 87.563271 0.87004918 -149.68948
10951993750 1.0344996 -41.792717 1.9818573e-005 104.55025 2.2277865e-005 -124.86881 0.86951911 -149.66017
10952028125 1.0343343 -41.77449 3.5184665e-005 72.850693 7.2700132e-005 98.313011 0.87006664 -149.68011
10952062500 1.0337926 -41.790611 1.4284786e-005 72.184807 1.3124246e-005 39.994019 0.86956674 -149.6236
10952096875 1.0362236 -41.749012 3.0589119e-005 168.95096 3.1814681e-005 23.280396 0.8693037 -149.65584
10952131250 1.0354718 -41.784081 4.1857998e-005 55.167324 4.6915233e-005 26.239571 0.8699069 -149.62411
10952165625 1.0350275 -41.709694 3.6234836e-005 43.252365 8.4422536e-006 -164.3195 0.87020892 -149.62607
10952200000 1.0358379 -41.733673 9.4147063e-006 129.62437 8.4474901e-005 -29.355406 0.87027931 -149.71414
10952234375 1.0354789 -41.770325 3.1603802e-005 28.494699 2.8608702e-005 104.88039 0.87082225 -149.65005
10952268750 1.0362153 -41.77121 2.4860417e-005 83.719032 3.8587921e-005 42.864529 0.87042677 -149.65233
10952303125 1.0359462 -41.802521 3.7556567e-006 -91.368965 2.8600414e-005 -154.73305 0.87063175 -149.75792
10952337500 1.0363443 -41.797871 1.4465746e-005 28.181274 1.8283226e-006 155.24503 0.86948836 -149.70522
10952371875 1.0360119 -41.815525 2.5467664e-006 112.26672 2.7004315e-005 36.906158 0.87040818 -149.7493
10952406250 1.0361186 -41.705265 1.6067113e-005 31.06802 3.8481554e-005 93.645081 0.8708725 -149.77693
10952440625 1.0359151 -41.734257 2.524059e-005 44.599167 3.1542702e-005 -124.59415 0.86982834 -149.69876
10952475000 1.0360528 -41.831402 1.2449732e-005 104.13728 2.040499e-005 128.95811 0.86893994 -149.69661
10952509375 1.0348325 -41.766476 3.1684707e-005 -68.922546 6.5755477e-005 152.37686 0.86885619 -149.69041
10952543750 1.0357634 -41.796745 3.7418344e-005 -42.367687 3.4618257e-005 173.98967 0.86922467 -149.74547
10952578125 1.0344886 -41.828438 9.4329207e-006 -139.61702 2.1979788e-005 17.344322 0.87034053 -149.69672
10952612500 1.0352895 -41.786961 4.1646086e-005 26.967297 3.8034083e-005 11.036228 0.87136298 -149.63544
10952646875 1.034358 -41.755764 4.6736914e-005 69.552223 3.8376973e-005 83.831932 0.87008512 -149.67416
10952681250 1.0353689 -41.812778 2.5049618e-005 41.789993 5.313271e-005 160.79436 0.87077671 -149.67917
10952715625 1.0344415 -41.76194 3.2230171e-005 -77.730476 4.7780341e-005 94.53437 0.87056822 -149.66229
10952750000 1.0343946 -41.726616 1.9836378e-005 9.1602526 6.3803241e-006 -113.91499 0.86961013 -149.64621
10952784375 1.0351194 -41.790569 1.6175731e-005 -85.303825 3.4682616e-005 -20.878635 0.86976469 -149.66927
10952818750 1.0344577 -41.799221 3.8351915e-005 68.106865 2.0099878e-005 26.71673 0.87122136 -149.67099
10952853125 1.0355151 -41.751514 3.2302509e-005 94.944008 3.1372208e-005 -105.47167 0.87115544 -149.75613
10952887500 1.0357009 -41.754883 1.918355e-005 99.432335 2.4373841e-005 -10.752141 0.87247002 -149.7236
10952921875 1.0346359 -41.744129 2.5243655e-005 26.736273 2.9905616e-005 28.873396 0.87116462 -149.66414
10952956250 1.0350724 -41.740917 1.888284e-005 166.44296 4.0829354e-006 2.956141 0.87158734 -149.75247
10952990625 1.0354372 -41.709499 1.8673323e-005 25.221506 2.9204102e-005 -38.00618 0.87075913 -149.71495
10953025000 1.0352832 -41.806221 1.5122216e-005 -89.732475 3.8561328e-005 149.66231 0.87055773 -149.75432
10953059375 1.0338066 -41.748253 2.0281952e-005 123.28931 2.1523172e-005 -59.789005 0.87058926 -149.76953
10953093750 1.0343635 -41.763199 3.1649874e-005 88.626884 3.1023224e-005 159.95459 0.86962414 -149.77432
10953128125 1.0346384 -41.782211 1.4326298e-005 82.403572 3.6848138e-005 16.676216 0.86970806 -149.73244
10953162500 1.0340229 -41.767288 1.9367535e-005 -40.129749 2.1049802e-005 -5.4917798 0.87052643 -149.63959
10953196875 1.0344533 -41.792248 1.6384867e-005 -27.255871 3.8622242e-005 148.61975 0.86950499 -149.74236
10953231250 1.0350069 -41.744167 2.7931268e-005 -10.72545 1.0664509e-005 86.757774 0.87046117 -149.79434
10953265625 1.0351776 -41.710922 8.0886994e-006 122.83927 2.6068994e-005 -173.9325 0.86963648 -149.84306
10953300000 1.0354223 -41.727802 1.8434203e-005 -91.406944 2.84411e-005 74.476173 0.87069708 -149.7146
10953334375 1.0346758 -41.797699 2.9488507e-005 52.708015 3.4782362e-005 33.7812 0.87049049 -149.77606
10953368750 1.0342416 -41.683136 1.9309557e-005 25.473469 3.4162134e-005 38.532566 0.87047446 -149.75566
10953403125 1.034749 -41.811142 2.9342165e-005 27.751125 2.2122465e-005 -103.36541 0.87098163 -149.80367
10953437500 1.035507 -41.81081 8.3898785e-006 52.670864 7.3359779e-006 -83.008438 0.87145609 -149.78011
10953471875 1.0360402 -41.795166 1.0590858e-005 -34.257488 1.2221828e-005 -70.7649 0.87001276 -149.84592
10953506250 1.0354156 -41.78891 2.458139e-005 46.482002 2.1633699e-005 52.837082 0.87196189 -149.81123
10953540625 1.0355692 -41.816071 4.2999254e-005 36.596012 4.855113e-005 46.656242 0.87061685 -149.78842
10953575000 1.0358273 -41.780563 2.6248135e-005 12.234944 1.2182868e-005 94.087807 0.87122744 -149.84908
10953609375 1.036433 -41.823933 2.6733896e-005 21.688761 2.8192007e-005 52.672829 0.87167794 -149.80597
10953643750 1.0351071 -41.75745 2.3265384e-005 107.27179 2.5673769e-005 112.66749 0.87089741 -149.78719
10953678125 1.0339878 -41.728939 6.9828561e-006 -52.240715 1.6737999e-005 18.271828 0.87104732 -149.85953
10953712500 1.0351508 -41.687675 1.6310343e-005 43.737888 5.0219493e-005 117.1474 0.87073261 -149.87279
10953746875 1.0358667 -41.711819 2.2777176e-005 -25.729269 2.9424313e-005 58.908436 0.87087148 -149.80786
10953781250 1.0355071 -41.798779 3.0271001e-005 131.17303 3.7403515e-005 53.792503 0.86978066 -149.76625
10953815625 1.0352014 -41.807358 3.1618365e-005 76.929588 4.3587432e-005 -67.044189 0.86962271 -149.78993
10953850000 1.0354046 -41.731121 2.2513255e-005 -168.36671 1.6342216e-005 101.69228 0.87011731 -149.82649
10953884375 1.034651 -41.813297 2.480528e-005 45.357018 1.5508704e-005 -28.647758 0.8707577 -149.86612
10953918750 1.0347078 -41.773788 3.3272907e-005 -98.146332 2.6474951e-005 30.071623 0.87196416 -149.76123
10953953125 1.0342547 -41.720032 1.2533216e-006 11.874172 6.5607084e-005 61.959797 0.87070489 -149.79099
10953987500 1.0351679 -41.786526 1.3789128e-005 -38.625889 3.6450307e-005 73.901024 0.8710916 -149.83275
10954021875 1.0360878 -41.71003 1.1344458e-005 18.35717 2.0267555e-005 131.76222 0.8701939 -149.84068
10954056250 1.0348759 -41.815514 1.0504038e-005 -150.76175 2.2898294e-005 139.98662 0.86977875 -149.80849
10954090625 1.0351068 -41.806286 3.7779977e-005 -3.3889468 2.5235498e-005 89.490013 0.87112963 -149.82076
10954125000 1.0339752 -41.801994 3.8317383e-005 104.01858 3.5163644e-005 56.586555 0.87064368 -149.8539
10954159375 1.0350312 -41.74918 4.8995516e-005 -23.821966 4.5600627e-005 151.74348 0.86996931 -149.80132
10954193750 1.0353323 -41.759598 1.1855305e-005 44.360271 1.994072e-005 29.130768 0.86982071 -149.79565
10954228125 1.0340912 -41.801392 1.9703188e-005 -18.333948 1.6994245e-005 133.55641 0.86997968 -149.7785
10954262500 1.0342253 -41.802593 7.9491556e-006 -59.127403 8.9057476e-006 -135.22229 0.8705321 -149.83693
10954296875 1.0344517 -41.810696 1.4669198e-005 -108.43934 2.5551277e-005 -79.199135 0.86947072 -149.8981
10954331250 1.0343528 -41.722694 9.5068253e-006 110.17567 2.5554843e-006 113.90142 0.87041861 -149.83919
10954365625 1.0338557 -41.816769 1.6893395e-005 -29.471348 3.086073e-005 -41.606815 0.87003249 -149.84668
10954400000 1.0341842 -41.822655 2.6686737e-005 166.06038 3.0084348e-005 27.662382 0.87083822 -149.85924
10954434375 1.0354357 -41.806007 2.0187743e-005 16.272688 4.5267378e-005 92.557579 0.86963755 -149.87083
10954468750 1.0352572 -41.797215 1.792466e-005 23.035515 4.170867e-005 -162.12697 0.8698228 -149.92818
10954503125 1.035401 -41.769073 2.2032002e-005 71.965668 1.6642094e-005 28.616598 0.87047726 -149.89404
10954537500 1.0353299 -41.750679 2.5695108e-005 91.7248 7.2718722e-006 -13.64866 0.87007236 -149.87747
10954571875 1.0340288 -41.847717 1.888603e-005 73.042328 2.6711346e-005 -8.9048529 0.87108707 -149.83803
10954606250 1.0348535 -41.767063 3.1899202e-005 50.923187 9.0181447e-006 -147.43369 0.87061858 -149.88448
10954640625 1.0354788 -41.674892 3.7172475e-005 -176.44373 9.1944567e-006 148.15485 0.86985904 -149.8602
10954675000 1.0350851 -41.708385 4.5917179e-005 47.616386 2.5497513e-005 24.510801 0.8695159 -149.86516
10954709375 1.0339314 -41.78093 1.7857954e-005 5.1701627 1.9109291e-005 50.262501 0.86995435 -149.85323
10954743750 1.0343637 -41.769085 1.7838536e-005 36.236904 5.3574811e-005 -56.573425 0.87021363 -149.91728
10954778125 1.0332923 -41.801739 2.7403346e-005 -47.583263 3.3191693e-005 -7.8801508 0.86941588 -149.9269
10954812500 1.0343424 -41.789478 3.420519e-005 166.09583 2.0743541e-005 69.809334 0.87179267 -149.90799
10954846875 1.03376 -41.743362 2.7012215e-005 24.569887 5.2732983e-005 167.79716 0.87060755 -149.90218
10954881250 1.0353279 -41.798496 4.4701766e-005 -1.8200061 1.6231192e-005 -76.536972 0.87026006 -149.97124
10954915625 1.0352765 -41.791016 4.9902152e-005 79.876175 2.1595033e-005 159.99974 0.87018198 -149.92886
10954950000 1.0344019 -41.74678 9.6475342e-006 127.19407 4.8389857e-006 48.267147 0.86960155 -149.88232
10954984375 1.0341972 -41.795586 3.5124693e-005 70.035004 6.0348689e-006 -83.295235 0.87065196 -149.86101
10955018750 1.0358983 -41.766945 2.5524558e-005 40.668823 3.8453498e-005 149.44246 0.87047172 -149.89377
10955053125 1.0357901 -41.800774 1.3057221e-005 -46.747879 5.8488473e-005 -99.980949 0.87164629 -149.89729
10955087500 1.0348225 -41.794834 1.4008015e-005 9.0432777 5.4670727e-006 169.75943 0.86995357 -149.90765
10955121875 1.034156 -41.764591 8.5066795e-006 -12.225389 7.2139206e-005 56.645756 0.86999106 -149.951
10955156250 1.0343313 -41.832539 9.60125e-006 96.783005 5.7363686e-005 12.646 0.87019944 -149.9552
10955190625 1.0352093 -41.817703 1.1936097e-005 169.17384 1.1692734e-005 92.984573 0.87072754 -150.0058
10955225000 1.0348278 -41.83477 2.5024097e-005 158.68851 5.988972e-005 -27.254705 0.87028217 -149.93491
10955259375 1.0358013 -41.788597 2.3386901e-005 126.84939 3.3397355e-005 -55.737278 0.86992389 -150.00923
10955293750 1.0356796 -41.736183 7.6582892e-006 -116.93496 9.6808881e-006 -131.21867 0.87182063 -150.02621
10955328125 1.0349399 -41.784363 2.8492672e-005 -23.880968 3.6558828e-005 81.996376 0.86972308 -150.01889
10955362500 1.0346371 -41.732212 2.9910698e-005 27.160164 2.813989e-005 -131.71184 0.86956447 -150.09277
10955396875 1.0355275 -41.738934 1.6090729e-005 -56.692722 4.2196436e-005 58.506672 0.86924541 -150.06291
10955431250 1.0348822 -41.811893 1.412364e-005 22.589798 6.3690066e-005 151.10359 0.87007892 -150.00888
10955465625 1.0341567 -41.82877 3.4257343e-006 -6.943727 4.116639e-005 87.370346 0.87058061 -150.01433
10955500000 1.034019 -41.891575 2.737475e-005 27.123566 7.231828e-006 153.9182 0.87064821 -149.97484
10955534375 1.0346833 -41.848209 3.5112258e-005 -45.562504 4.8881651e-005 -101.46975 0.87147593 -149.96352
10955568750 1.0335653 -41.813499 3.0981017e-005 95.643578 2.9419563e-005 -161.144 0.8701669 -149.95399
10955603125 1.0353428 -41.800961 3.828312e-005 171.64064 3.3754586e-005 121.59383 0.87046182 -149.97778
10955637500 1.0358326 -41.794064 2.658439e-005 -8.7858791 1.2540071e-005 161.38138 0.87039047 -149.95503
10955671875 1.0360318 -41.778389 2.4243471e-005 33.838341 3.1212905e-005 84.530083 0.86924714 -150.02515
10955706250 1.0358146 -41.741165 1.9000925e-005 -4.1836381 3.1985033e-005 134.86676 0.8697449 -149.99048
10955740625 1.0356554 -41.766716 3.1980497e-005 106.76682 2.9628134e-005 132.59518 0.87064433 -150.02914
10955775000 1.0342892 -41.820709 8.0800983e-006 124.05413 1.7010898e-005 71.578194 0.87129909 -150.04433
10955809375 1.0344517 -41.880512 1.1438754e-005 169.09836 8.9492772e-007 161.53069 0.87018061 -150.05833
10955843750 1.0357771 -41.822746 2.0662528e-005 113.0299 3.6270561e-005 -165.44725 0.87049538 -150.05655
10955878125 1.0348418 -41.818356 1.3565018e-005 -54.865154 4.2222462e-005 39.688656 0.86977172 -150.08369
10955912500 1.0350614 -41.855072 2.3503635e-005 166.42119 6.9827511e-006 -158.39041 0.86856025 -150.02492
10955946875 1.0353075 -41.816368 6.406039e-007 16.056751 1.7355311e-005 -30.011421 0.86995322 -150.02263
10955981250 1.0334992 -41.810883 8.6025657e-006 154.02705 2.1588738e-005 47.510658 0.8700462 -150.04547
10956015625 1.0332544 -41.856262 1.5465508e-005 -13.648442 1.8860879e-005 -12.502516 0.8721863 -150.02039
10956050000 1.0336193 -41.838821 1.032694e-005 99.059067 9.4794705e-006 120.88149 0.87008601 -150.04956
10956084375 1.0338997 -41.758602 3.8453338e-005 106.4035 3.9103805e-005 -73.185165 0.87065977 -150.1431
10956118750 1.0349808 -41.748302 3.3746062e-005 7.635891 2.5573936e-005 101.42853 0.87207311 -150.03941
10956153125 1.0343457 -41.767456 1.7438135e-005 89.423218 1.2980746e-005 56.25515 0.8712694 -150.03749
10956187500 1.0347451 -41.752594 5.2888372e-006 -177.43675 2.985653e-005 -171.25259 0.8700738 -150.0661
10956221875 1.0350013 -41.767391 1.3877785e-005 72.978783 3.1269632e-005 -14.345399 0.87091368 -149.93745
10956256250 1.0351187 -41.805912 4.0547598e-005 95.722771 1.5934565e-005 99.074013 0.86931449 -149.9765
10956290625 1.0350978 -41.78476 1.2470102e-005 72.263397 7.3531087e-006 -31.489922 0.87072396 -150.08105
10956325000 1.0357639 -41.801575 2.7019252e-005 16.694517 3.9086866e-005 -83.234245 0.8703106 -150.05832
10956359375 1.034284 -41.695538 1.4156882e-005 -70.386063 2.3211898e-005 77.000839 0.86925203 -150.02924
