!Agilent Technologies,E8362C,MY49020356,A.09.42.23
!Agilent E8362C: A.09.42.23
!Date: Saturday, September 11, 2021 04:14:44
!Correction: S11(Full 2 Port(1,2)) 
!S21(Full 2 Port(1,2)) 
!S12(Full 2 Port(1,2)) 
!S22(Full 2 Port(1,2)) 
!S2P File: Measurements: S11, S21, S12, S22:
# Hz S  MA   R 50
10950000000 1.0349386 -41.713467 5.0069273e-005 27.973232 2.0720152e-005 39.562496 0.89421552 -139.17526
10950034375 1.0348388 -41.725456 3.1685664e-005 71.544273 3.8984643e-005 -3.6183059 0.893139 -139.24838
10950068750 1.0354199 -41.756657 2.3840439e-005 72.94754 1.8355338e-005 -147.25345 0.89302593 -139.20815
10950103125 1.0345 -41.776028 1.2511948e-005 128.01915 9.4421695e-005 91.587418 0.89361435 -139.22476
10950137500 1.0359839 -41.762886 2.4378709e-005 64.34684 2.2691083e-005 114.27695 0.89344209 -139.21843
10950171875 1.0366597 -41.789375 3.70573e-006 -103.24862 1.148287e-005 95.914284 0.8936013 -139.231
10950206250 1.0364292 -41.786118 6.5806908e-006 33.712601 3.5821286e-005 54.833359 0.89385998 -139.22601
10950240625 1.0363505 -41.749989 2.5671341e-005 73.027466 2.2067117e-005 33.948486 0.89247119 -139.23886
10950275000 1.0359367 -41.76379 3.8664853e-005 41.396736 4.0613304e-005 153.20241 0.89170879 -139.15276
10950309375 1.0353227 -41.707462 4.6266865e-005 66.798981 4.4227781e-005 -46.253014 0.89379072 -139.2002
10950343750 1.03627 -41.686718 4.8301223e-005 112.57195 3.8123733e-005 24.620852 0.8932994 -139.25294
10950378125 1.0344853 -41.74432 2.5706271e-005 31.343769 4.6592253e-005 31.388742 0.89426476 -139.20615
10950412500 1.0341413 -41.755913 1.2257125e-005 -175.66158 6.1123319e-005 42.958031 0.89480251 -139.19543
10950446875 1.0347698 -41.768692 2.6371014e-005 -78.359863 1.4152445e-005 -25.284182 0.89311951 -139.21629
10950481250 1.0355636 -41.795025 3.0633284e-005 99.146553 6.6116852e-005 67.236557 0.89316308 -139.16476
10950515625 1.0357012 -41.72242 4.7638117e-005 71.199112 1.8682438e-005 -3.9991419 0.89335239 -139.24663
10950550000 1.0349066 -41.782833 1.1660159e-005 74.222343 3.1763571e-005 -34.000038 0.89395493 -139.28584
10950584375 1.034395 -41.754978 3.7506525e-005 80.564117 4.0833907e-005 22.758516 0.89303344 -139.16368
10950618750 1.0330743 -41.761879 3.9858496e-005 -10.256297 4.2160391e-005 -129.34964 0.89327985 -139.24036
10950653125 1.035181 -41.755207 4.1092302e-005 155.01967 6.0858321e-005 61.785877 0.89283383 -139.22311
10950687500 1.0357927 -41.792141 4.041463e-005 126.32903 3.1046919e-005 18.499199 0.89421964 -139.27267
10950721875 1.0356183 -41.76741 2.419492e-005 -0.7700398 2.5385367e-005 25.313456 0.89339381 -139.25546
10950756250 1.0357953 -41.782223 4.0646424e-005 52.759605 4.3110311e-005 93.281418 0.89372528 -139.14058
10950790625 1.0354971 -41.769703 3.8484879e-005 22.977879 2.1906269e-005 122.67588 0.8920325 -139.15387
10950825000 1.0347321 -41.726028 3.9545885e-005 37.020901 4.8099817e-005 113.50105 0.89324689 -139.16714
10950859375 1.0342308 -41.696331 1.3477608e-005 -108.52454 2.066225e-005 144.42496 0.89251274 -139.24379
10950893750 1.0350298 -41.692116 5.4732354e-006 95.562241 3.531127e-005 48.317638 0.89230096 -139.25916
10950928125 1.0355648 -41.666157 3.4739765e-005 -6.6218967 5.673942e-005 89.141022 0.89337826 -139.16792
10950962500 1.0357193 -41.722565 7.1412856e-006 -79.917824 8.430177e-005 51.195072 0.89300096 -139.28795
10950996875 1.0358622 -41.699493 3.1393349e-005 30.552652 5.2515421e-005 100.87901 0.89310539 -139.1636
10951031250 1.0360249 -41.743523 2.0234687e-005 69.229538 1.8032102e-005 98.395782 0.89229047 -139.23973
10951065625 1.035373 -41.687813 1.9379941e-005 124.67393 2.0240464e-006 -90.647942 0.89205366 -139.31163
10951100000 1.0363158 -41.713722 6.5239087e-006 20.59536 3.2683118e-005 30.756613 0.89223701 -139.29485
10951134375 1.0349028 -41.735664 3.9242059e-006 18.064314 4.4872766e-005 60.458958 0.89231342 -139.29279
10951168750 1.0353314 -41.768867 2.029383e-005 40.580605 3.7279431e-005 130.22263 0.89358032 -139.29967
10951203125 1.0355372 -41.766285 1.66797e-005 123.57502 2.5160583e-005 137.30887 0.89304805 -139.22795
10951237500 1.0344003 -41.808655 3.6753045e-005 41.914352 2.4326206e-005 11.26757 0.89383447 -139.27252
10951271875 1.0345293 -41.758278 1.1063936e-005 72.931541 3.4335615e-005 26.473816 0.89319479 -139.25047
10951306250 1.0353761 -41.748295 7.7663872e-006 -38.496349 4.5753604e-005 107.3828 0.89264375 -139.28577
10951340625 1.0354197 -41.782009 2.9950717e-005 24.144241 4.631079e-005 95.930473 0.89240533 -139.22327
10951375000 1.0344257 -41.763916 1.3453146e-005 135.96031 3.1058822e-005 34.894676 0.89251733 -139.30583
10951409375 1.0339875 -41.733322 1.2221809e-005 177.69775 7.5168209e-005 92.434196 0.89268577 -139.29916
10951443750 1.0350091 -41.792706 1.3527097e-005 30.733894 4.1506486e-005 116.6548 0.8927722 -139.21181
10951478125 1.0363492 -41.822102 2.6957205e-005 104.96655 4.5144432e-005 26.726812 0.89317429 -139.24046
10951512500 1.0359418 -41.714485 2.5298468e-005 96.34272 5.4694563e-005 -130.85144 0.89329559 -139.24521
10951546875 1.0360384 -41.697903 2.2386399e-005 -3.5822623 3.1043179e-005 -71.492012 0.89294809 -139.31232
10951581250 1.0355898 -41.694183 3.461981e-005 58.23209 2.311235e-005 168.33847 0.89215869 -139.26913
10951615625 1.0365455 -41.693012 3.5865658e-005 36.169178 3.9700957e-005 99.772026 0.89245391 -139.30933
10951650000 1.0346905 -41.788155 3.5742371e-005 -23.252304 2.8881581e-005 155.68779 0.89225489 -139.26817
10951684375 1.0360504 -41.737026 4.4076751e-005 58.678585 2.8832763e-005 75.922783 0.89401817 -139.32426
10951718750 1.035169 -41.73048 2.0683565e-005 107.43334 2.0861307e-005 -135.09932 0.8938629 -139.24446
10951753125 1.0353898 -41.718662 2.9855448e-005 32.715488 9.9315963e-005 53.165115 0.89352602 -139.2415
10951787500 1.0347686 -41.719795 1.6189371e-005 21.3459 2.8659619e-005 179.09349 0.89357841 -139.25179
10951821875 1.0350003 -41.797115 1.3950807e-005 26.051998 5.1825529e-005 -14.171977 0.89374936 -139.34279
10951856250 1.0370102 -41.779209 4.2144431e-005 66.007111 3.4290359e-005 45.909996 0.89334565 -139.29863
10951890625 1.0360135 -41.807144 4.6624755e-005 53.329662 4.6043591e-005 69.308228 0.89254814 -139.33681
10951925000 1.0363375 -41.779099 2.4507382e-005 37.4911 2.7057449e-006 117.46789 0.89216077 -139.3474
10951959375 1.0355304 -41.811184 1.681472e-005 54.280602 2.0265121e-005 6.6607838 0.89294809 -139.40337
10951993750 1.036497 -41.773067 3.2186505e-005 73.672035 5.1531442e-005 60.457352 0.89236397 -139.40114
10952028125 1.03518 -41.803543 2.3485229e-005 73.000908 5.306942e-005 153.01465 0.89205623 -139.35451
10952062500 1.0348959 -41.773392 9.591904e-006 -93.466057 4.0938423e-005 69.278999 0.89274412 -139.27986
10952096875 1.0350795 -41.785515 4.8903836e-005 81.220612 3.0255296e-005 17.562809 0.89200085 -139.34196
10952131250 1.0357717 -41.705059 3.3442677e-005 -17.102428 1.8042174e-006 27.987144 0.89253181 -139.35399
10952165625 1.0364915 -41.76123 2.4440131e-005 102.26768 3.7368914e-005 19.605312 0.89307541 -139.382
10952200000 1.0347973 -41.697983 7.4254881e-006 162.05475 3.9835581e-005 33.278423 0.89340752 -139.3656
10952234375 1.0346936 -41.763733 4.4303895e-005 107.84558 4.693295e-005 66.087975 0.89457446 -139.3454
10952268750 1.0363796 -41.771301 1.3860934e-005 8.6301966 5.5687608e-005 158.588 0.89422911 -139.41405
10952303125 1.0356421 -41.71785 2.6529651e-005 19.636637 3.0950468e-005 -53.495693 0.89237058 -139.42081
10952337500 1.036003 -41.721916 2.3739858e-005 15.565299 4.7481084e-005 38.087898 0.89193118 -139.38509
10952371875 1.0354989 -41.766903 9.7017046e-006 -134.22562 6.7814617e-005 -1.9397595 0.89286906 -139.41393
10952406250 1.0365074 -41.674519 1.8637502e-005 160.55673 2.0224863e-005 -93.944138 0.8921932 -139.37199
10952440625 1.0355159 -41.702404 4.5548757e-005 61.581402 1.8547162e-005 51.306343 0.89180082 -139.39201
10952475000 1.0350695 -41.708714 2.8827555e-005 35.483109 2.6984928e-005 58.452118 0.89134651 -139.42966
10952509375 1.0360097 -41.778507 1.0862876e-005 -4.1020193 3.1063992e-005 140.68228 0.89215988 -139.4234
10952543750 1.0358384 -41.777367 1.1411495e-005 -46.689526 6.515198e-005 146.60953 0.89221847 -139.40189
10952578125 1.035264 -41.776871 2.8668159e-005 67.821968 2.289503e-005 73.655205 0.8928284 -139.42465
10952612500 1.0348219 -41.763794 4.4724002e-006 129.10277 4.0135896e-005 161.11176 0.89336878 -139.37602
10952646875 1.0345511 -41.782803 2.5566169e-006 58.887699 3.8923292e-005 -4.8876247 0.89323533 -139.42055
10952681250 1.0354257 -41.774921 2.3736126e-005 115.76675 3.2411735e-005 -152.60999 0.89358419 -139.34723
10952715625 1.0349107 -41.774414 3.9820447e-006 124.32933 4.5521159e-005 128.08707 0.89272487 -139.36035
10952750000 1.0334923 -41.717022 5.72873e-005 100.25763 2.0100097e-005 39.381222 0.89272273 -139.32297
10952784375 1.0351211 -41.736053 2.2799974e-005 38.147133 4.4240638e-005 145.70969 0.89287227 -139.33612
10952818750 1.0337398 -41.788609 4.6379846e-005 40.847145 3.5467041e-005 178.7296 0.8927871 -139.43983
10952853125 1.0356085 -41.738132 8.7989629e-006 -61.648224 4.29582e-005 -23.343624 0.89246488 -139.37207
10952887500 1.0355384 -41.773434 2.2413669e-005 144.01424 5.0955921e-005 104.98944 0.89236456 -139.35443
10952921875 1.0357538 -41.67506 1.5380836e-005 -30.414267 5.1140963e-005 19.234602 0.89362085 -139.43234
10952956250 1.0364871 -41.707359 3.2339736e-005 58.014465 1.1375556e-005 137.80698 0.89351308 -139.42029
10952990625 1.035926 -41.77063 1.3209561e-005 54.401756 2.2555103e-005 34.029446 0.8937729 -139.40933
10953025000 1.0352073 -41.814953 3.1186904e-005 -0.017906023 4.526562e-005 -157.3734 0.8932448 -139.48514
10953059375 1.0348569 -41.766876 7.2996645e-006 -36.130939 2.4170389e-005 167.61415 0.89303583 -139.41592
10953093750 1.0356537 -41.734055 1.1105473e-005 22.145561 3.173028e-005 54.809013 0.89227849 -139.42586
10953128125 1.0345205 -41.810608 2.2791422e-005 108.96509 3.217113e-005 59.816223 0.89210761 -139.47867
10953162500 1.0342271 -41.733643 2.3320759e-005 30.210361 3.7033704e-005 105.69979 0.89248878 -139.41629
10953196875 1.0356581 -41.764439 9.4969673e-006 50.892792 2.4934427e-005 -29.991167 0.89222103 -139.43153
10953231250 1.0356523 -41.730377 3.98183e-005 32.968487 5.1698407e-005 63.542915 0.89089608 -139.45468
10953265625 1.0356245 -41.717762 8.496364e-006 -178.67697 4.267117e-005 -164.67143 0.89276075 -139.46164
10953300000 1.0349578 -41.703053 2.423918e-005 39.757946 2.1594915e-005 115.19302 0.8927719 -139.43893
10953334375 1.0341852 -41.797291 2.0110427e-005 14.10094 2.328831e-005 7.4414573 0.89316326 -139.4502
10953368750 1.0339838 -41.723347 1.9489755e-005 -145.30803 3.5147343e-005 126.00233 0.89339244 -139.43954
10953403125 1.0349042 -41.726837 6.5232434e-006 57.894718 1.8928517e-005 -155.22176 0.89365774 -139.47035
10953437500 1.0349853 -41.712879 1.9178149e-005 55.698528 5.0315699e-005 160.20317 0.89343309 -139.43718
10953471875 1.0361062 -41.772758 4.1445215e-005 99.783607 3.3071847e-005 160.98877 0.89313453 -139.46802
10953506250 1.0356884 -41.765545 2.3152217e-005 55.895638 5.1437401e-005 114.40519 0.89413172 -139.51662
10953540625 1.035113 -41.775272 4.7824975e-005 89.216591 4.4440385e-005 21.221062 0.89269519 -139.44885
10953575000 1.035508 -41.764183 6.1337079e-005 10.937409 4.4770874e-005 30.466558 0.89320284 -139.49348
10953609375 1.0364684 -41.79295 1.7739509e-005 119.95341 1.6508297e-005 71.240707 0.8931399 -139.47375
10953643750 1.0350888 -41.749954 5.2654595e-005 113.29562 2.7254144e-005 147.9949 0.89380217 -139.52527
10953678125 1.0346688 -41.732586 5.1662887e-006 179.18607 1.0792031e-005 125.46765 0.89432716 -139.54573
10953712500 1.0347688 -41.733467 2.646465e-005 61.568481 3.3313332e-005 61.41655 0.89272147 -139.50517
10953746875 1.0362118 -41.718445 3.2213367e-005 18.431688 3.4612069e-005 -38.01178 0.89247888 -139.56335
10953781250 1.0355291 -41.785187 1.5386529e-005 -26.264038 2.8308383e-005 155.52026 0.89206481 -139.43985
10953815625 1.036288 -41.747925 1.8820683e-005 -67.555191 1.6134392e-005 50.35733 0.89241314 -139.48877
10953850000 1.0370996 -41.816708 2.6969114e-005 -2.3679776 1.4747914e-005 -44.963326 0.89254439 -139.49161
10953884375 1.0355922 -41.798962 3.3143591e-005 140.95285 4.8519971e-005 143.85217 0.89361757 -139.49675
10953918750 1.0355386 -41.745041 1.4653415e-005 16.678682 4.7256377e-005 91.642502 0.89399928 -139.48354
10953953125 1.0354501 -41.744175 2.8080165e-005 1.4240459 1.7964865e-005 25.444645 0.89309484 -139.52809
10953987500 1.0355313 -41.775402 2.3698623e-005 43.901318 4.8402399e-005 125.40479 0.89276004 -139.59538
10954021875 1.0360689 -41.756477 5.1168478e-005 27.43841 1.0412519e-005 0.38100755 0.89076805 -139.52698
10954056250 1.0364054 -41.824104 4.725104e-005 48.982021 2.0381796e-005 -73.877388 0.89294779 -139.51443
10954090625 1.0355929 -41.779613 2.4807679e-005 -127.89431 2.2594832e-005 49.858383 0.89256108 -139.48216
10954125000 1.0347717 -41.765244 4.4016735e-005 20.126045 4.9185208e-005 56.182594 0.89293724 -139.48495
10954159375 1.0350264 -41.769989 2.5061372e-005 50.948204 4.2818181e-005 92.82151 0.8926788 -139.571
10954193750 1.0351328 -41.737984 5.1906841e-006 -27.696552 2.4317731e-005 138.71207 0.89227557 -139.47992
10954228125 1.034896 -41.759827 1.5169439e-005 124.76711 2.9439821e-005 45.761974 0.8915199 -139.47601
10954262500 1.0350014 -41.738522 1.8322587e-005 27.343239 3.0706022e-005 157.29984 0.89175934 -139.51314
10954296875 1.0342215 -41.727928 1.8271399e-005 -149.83444 3.9922425e-006 148.34869 0.89265156 -139.59216
10954331250 1.0350485 -41.737202 5.9436534e-006 18.668192 3.5210982e-005 -66.931213 0.8926965 -139.57098
10954365625 1.0353768 -41.815411 3.3886987e-005 41.370396 5.2921016e-005 43.546242 0.89407897 -139.56645
10954400000 1.0359721 -41.836826 1.8918323e-005 136.59064 3.8760631e-005 3.0622592 0.89370805 -139.53574
10954434375 1.0351292 -41.796852 3.1626776e-005 72.10923 5.1578601e-005 91.942566 0.89283586 -139.53609
10954468750 1.0358076 -41.725708 2.9491552e-005 -3.2403004 3.4597098e-005 133.90779 0.89176744 -139.61052
10954503125 1.0362035 -41.766666 1.4187468e-005 7.8755555 4.4585768e-006 32.142437 0.89252174 -139.58936
10954537500 1.0351604 -41.785862 1.8624683e-005 105.25576 1.6064432e-005 28.947376 0.89232486 -139.57944
10954571875 1.0348705 -41.770603 4.770355e-005 59.448689 4.182976e-005 95.805382 0.89243698 -139.56909
10954606250 1.0348703 -41.720066 4.043965e-006 115.83463 4.104718e-005 -150.09682 0.89304173 -139.55122
10954640625 1.0350637 -41.745731 1.2080224e-005 120.15094 1.5134804e-005 -12.622015 0.89347178 -139.63254
10954675000 1.0345954 -41.726051 1.2278312e-005 65.358658 3.0497677e-005 25.768534 0.89203507 -139.57416
10954709375 1.0346074 -41.742851 1.6569282e-005 -56.173355 1.0825333e-005 113.04367 0.8909592 -139.55116
10954743750 1.0346861 -41.784874 4.6219124e-005 118.50759 1.4488034e-005 -136.94012 0.89172852 -139.56898
10954778125 1.0349408 -41.808109 9.4160923e-006 -82.916939 5.4957534e-005 61.713917 0.89220858 -139.57509
10954812500 1.0344182 -41.806568 3.4289365e-005 -16.656607 5.4728382e-005 79.679909 0.89239472 -139.62756
10954846875 1.0341446 -41.725689 4.2085543e-005 56.553761 3.6689402e-005 71.927231 0.89274043 -139.61888
10954881250 1.0355248 -41.747623 3.0702795e-005 116.18245 1.321563e-005 165.15549 0.89218211 -139.63766
10954915625 1.0358373 -41.786861 5.6769909e-006 14.368618 2.9120505e-005 110.5991 0.89269388 -139.55994
10954950000 1.0353981 -41.743351 2.6681384e-005 75.230743 7.0096634e-005 63.461555 0.89268726 -139.58504
10954984375 1.0343645 -41.782024 2.2012558e-005 89.689774 3.4503089e-005 88.618362 0.89274246 -139.52155
10955018750 1.0355793 -41.774754 1.8325376e-005 2.1110973 1.3217204e-005 80.889732 0.89299899 -139.51656
10955053125 1.0365715 -41.818241 4.6630001e-005 60.771965 4.8542479e-005 41.55088 0.89312935 -139.61807
10955087500 1.035911 -41.777733 3.3535638e-005 40.950108 2.1413734e-005 81.720886 0.89363003 -139.61743
10955121875 1.0351803 -41.806545 5.2168896e-005 74.83152 5.9561448e-006 -30.145273 0.89242631 -139.57961
10955156250 1.0326723 -41.834438 3.1683896e-005 41.530357 1.7896647e-005 6.8003941 0.8937763 -139.60201
10955190625 1.035081 -41.822163 2.2189342e-005 -168.01349 2.3920416e-005 81.340515 0.8928746 -139.64569
10955225000 1.0354234 -41.783039 1.5638945e-005 15.023831 4.4474068e-006 70.357262 0.89311033 -139.60242
10955259375 1.0363195 -41.749878 1.8893015e-005 21.092422 8.894378e-006 70.261139 0.89351779 -139.73294
10955293750 1.0356945 -41.757641 1.0261633e-005 85.758514 8.1817554e-005 68.020355 0.89375484 -139.65758
10955328125 1.0351549 -41.798183 5.4638847e-005 66.589073 2.7527214e-005 108.65373 0.89260024 -139.69531
10955362500 1.035146 -41.78632 2.8511491e-005 40.162163 5.1406798e-005 -131.26009 0.89214927 -139.61946
10955396875 1.0363601 -41.798527 1.1533823e-005 -4.8211536 3.8064041e-005 5.8594422 0.89161199 -139.7282
10955431250 1.0359927 -41.776653 2.9821822e-005 58.854599 3.4177945e-005 114.92912 0.89360952 -139.61736
10955465625 1.0347997 -41.80304 2.6873005e-005 -16.606546 3.8565333e-005 41.90477 0.89320523 -139.58371
10955500000 1.0345836 -41.891251 1.6142834e-005 60.630325 2.6363443e-005 -13.662454 0.89242667 -139.5665
10955534375 1.0345472 -41.809467 2.9446606e-005 74.19101 2.7536618e-005 34.083805 0.89380425 -139.59459
10955568750 1.0355505 -41.803619 1.7363094e-005 96.317406 2.3681803e-005 47.193455 0.8929981 -139.64479
10955603125 1.0348912 -41.755646 2.7681332e-005 93.89872 3.7319776e-005 98.797859 0.8935529 -139.66745
10955637500 1.034853 -41.698547 5.8675734e-005 33.582535 2.3232386e-005 141.92433 0.89193058 -139.69138
10955671875 1.0353533 -41.666828 3.2743526e-005 58.898075 5.3236174e-005 108.91055 0.89240092 -139.69899
10955706250 1.0356066 -41.720139 3.3502401e-005 -34.046341 1.8656638e-005 2.8412938 0.89240044 -139.70842
10955740625 1.0359228 -41.767551 4.7135196e-005 61.425198 4.2465024e-005 34.368362 0.89289165 -139.7072
10955775000 1.0343096 -41.802742 1.6720167e-005 -56.909588 3.5853347e-005 14.375615 0.89369643 -139.67751
10955809375 1.0342698 -41.89082 2.3570894e-005 39.12368 2.9998624e-005 143.4493 0.89432341 -139.70375
10955843750 1.0363066 -41.799931 4.9888546e-005 15.795976 4.1941403e-005 117.31328 0.89221466 -139.70789
10955878125 1.0360103 -41.830311 3.6645935e-005 43.425472 2.1259073e-005 124.7281 0.89275795 -139.64056
10955912500 1.0359054 -41.810371 2.8284372e-005 93.045502 2.6070566e-005 179.4101 0.89282775 -139.71037
10955946875 1.0346565 -41.786377 2.1459779e-005 97.361473 2.8817587e-005 -127.20997 0.89256024 -139.65912
10955981250 1.0339272 -41.827976 4.3716082e-005 100.59529 1.4407839e-005 172.45267 0.89406204 -139.65314
10956015625 1.0335222 -41.841431 5.7179404e-006 -73.319191 7.9752863e-005 122.44848 0.89418846 -139.67953
10956050000 1.0325067 -41.769127 3.3273202e-005 42.359188 5.1870986e-005 82.008049 0.89275515 -139.72922
10956084375 1.0334742 -41.783428 1.7422954e-005 7.4549613 3.387285e-005 20.013062 0.89373308 -139.69804
10956118750 1.0348634 -41.727795 2.9478373e-005 36.396091 3.797112e-005 62.979366 0.89515185 -139.65982
10956153125 1.0351853 -41.771385 1.2387621e-005 -120.7056 1.0327428e-005 55.070789 0.89332598 -139.69891
10956187500 1.0353936 -41.759087 1.86365e-005 143.97884 3.5412155e-005 128.13129 0.89493501 -139.64192
10956221875 1.0358325 -41.801144 4.3159802e-005 91.849854 3.0221927e-005 118.53127 0.89304471 -139.61812
10956256250 1.0359569 -41.839008 2.4617389e-005 -1.8521155 1.3355889e-005 -47.096409 0.8917979 -139.68758
10956290625 1.0359656 -41.782047 7.9478687e-006 94.813919 2.5980798e-005 -19.274979 0.89263755 -139.705
10956325000 1.0356358 -41.772457 2.7122731e-005 -14.585949 7.281059e-006 -158.48933 0.89312845 -139.68379
10956359375 1.0346154 -41.696331 5.1325591e-005 58.861115 4.2401538e-005 47.494873 0.89272863 -139.65395
