!Agilent Technologies,E8362C,MY49020356,A.09.42.23
!Agilent E8362C: A.09.42.23
!Date: Saturday, September 11, 2021 04:03:42
!Correction: S11(Full 2 Port(1,2)) 
!S21(Full 2 Port(1,2)) 
!S12(Full 2 Port(1,2)) 
!S22(Full 2 Port(1,2)) 
!S2P File: Measurements: S11, S21, S12, S22:
# Hz S  MA   R 50
10950000000 0.78594172 -161.94711 0.001088651 -125.23507 0.0010377541 -127.1696 0.86099714 -154.1577
10950034375 0.7844063 -161.93924 0.0011007488 -126.02793 0.001040827 -126.63941 0.85955083 -154.07881
10950068750 0.78593743 -161.94173 0.0010842094 -128.39253 0.0010337356 -128.0939 0.86092889 -154.05386
10950103125 0.78512394 -161.99364 0.001060695 -126.25534 0.0010693626 -127.20483 0.86148942 -154.10229
10950137500 0.78480786 -162.08257 0.0010540413 -127.60613 0.0010643973 -127.46106 0.86137956 -154.09224
10950171875 0.78572589 -162.10808 0.0010852127 -126.76458 0.0010325568 -126.2892 0.86135483 -154.18947
10950206250 0.78519619 -162.06763 0.0010838786 -126.56768 0.001048386 -126.78808 0.86146754 -154.18794
10950240625 0.78641343 -162.10663 0.0010927784 -127.75033 0.0010415644 -126.33033 0.86122382 -154.12128
10950275000 0.78586823 -162.04503 0.0011222766 -125.97971 0.0010397033 -128.64851 0.86133927 -154.04431
10950309375 0.78635991 -161.9751 0.0010931181 -127.48936 0.0010185544 -127.17776 0.86055613 -154.14627
10950343750 0.78597975 -161.94518 0.0011176551 -127.20968 0.0010370038 -124.21941 0.86120361 -154.12425
10950378125 0.78569013 -161.91867 0.001048905 -125.74104 0.0010774683 -127.07831 0.86167777 -154.1331
10950412500 0.78417403 -161.9621 0.0010878236 -125.49869 0.0010476772 -127.35069 0.86193651 -154.08315
10950446875 0.7851032 -162.02087 0.0010980127 -128.01125 0.0010557104 -126.37044 0.86226821 -154.07332
10950481250 0.78457868 -161.98175 0.0010842775 -128.12251 0.0010316583 -127.6343 0.86098641 -154.11952
10950515625 0.78524512 -162.02058 0.0011079027 -126.9491 0.0010219003 -127.37663 0.8602913 -154.11774
10950550000 0.78556991 -161.96107 0.0011241806 -126.87739 0.0010366424 -126.14265 0.86037385 -154.09024
10950584375 0.78540075 -161.99649 0.0010829367 -127.96966 0.0010267891 -125.34624 0.86055219 -154.2132
10950618750 0.78447878 -161.94499 0.0011057059 -124.83776 0.0010387058 -124.85789 0.86063951 -154.17516
10950653125 0.78374469 -162.01106 0.001068749 -126.83289 0.0010354172 -127.9836 0.8608982 -154.17279
10950687500 0.78433096 -161.96057 0.0011149389 -127.7066 0.0010536938 -126.3521 0.86118948 -154.16263
10950721875 0.78423619 -161.96576 0.0010697364 -128.3183 0.001055176 -126.80177 0.8611452 -154.20953
10950756250 0.78506488 -161.97089 0.0010773379 -126.48546 0.0010366954 -126.89202 0.86241364 -154.08174
10950790625 0.78539366 -162.0191 0.001068313 -126.22923 0.001077121 -127.12702 0.85997653 -154.09645
10950825000 0.78540069 -162.02724 0.0010533576 -127.73325 0.0010165455 -128.10559 0.86063856 -154.14651
10950859375 0.7843895 -162.02574 0.0010677782 -127.10601 0.0010584198 -127.62642 0.85940361 -154.15471
10950893750 0.78603685 -161.96602 0.001072689 -126.46601 0.0010459782 -127.42225 0.86101842 -154.07901
10950928125 0.78500396 -162.02249 0.0011028607 -125.88369 0.0010667533 -128.18547 0.86058331 -154.12268
10950962500 0.78454947 -161.96579 0.0010720107 -126.63357 0.0010543166 -127.08277 0.86163574 -154.11946
10950996875 0.78502625 -161.99661 0.0010879386 -127.59184 0.0010364912 -126.36302 0.86180973 -154.09889
10951031250 0.78439081 -162.08023 0.0010605875 -126.77244 0.0010262303 -126.63269 0.86014479 -154.22263
10951065625 0.78570873 -162.13113 0.001081777 -125.96641 0.0010128394 -128.19661 0.86069447 -154.21358
10951100000 0.78449708 -162.0425 0.001079205 -126.77005 0.0010432808 -128.80978 0.86009574 -154.1333
10951134375 0.78638542 -162.09378 0.0010700399 -125.84133 0.0010436256 -127.09595 0.86173236 -154.26073
10951168750 0.78503752 -162.08528 0.0010810887 -126.12155 0.0010647876 -127.11113 0.86139923 -154.23546
10951203125 0.78532445 -162.10542 0.0010910297 -126.80553 0.0010630668 -126.54565 0.86107183 -154.22847
10951237500 0.78501338 -162.11951 0.0010706076 -128.34508 0.0010366384 -125.91125 0.86091954 -154.15987
10951271875 0.78632045 -162.02348 0.0011001112 -127.07943 0.0010473442 -127.18459 0.8607927 -154.20992
10951306250 0.78495741 -162.04752 0.0010986363 -128.17651 0.0010275909 -129.34003 0.86005807 -154.14264
10951340625 0.78557378 -162.00046 0.0011076685 -129.22571 0.0010433001 -126.71832 0.86191761 -154.1075
10951375000 0.78618985 -162.11478 0.0010779811 -126.98102 0.0010648174 -127.92132 0.86131948 -154.15498
10951409375 0.78570288 -162.10957 0.0010798745 -124.96129 0.0010335862 -127.93704 0.86019355 -154.22534
10951443750 0.78580666 -162.13072 0.0010904844 -126.09192 0.0010556086 -129.75679 0.86038458 -154.21275
10951478125 0.78605592 -162.08835 0.0010607153 -126.02283 0.0010458879 -127.63992 0.86064655 -154.16386
10951512500 0.78501123 -162.05815 0.00108428 -126.84151 0.0010663966 -126.64765 0.85984486 -154.15356
10951546875 0.78575206 -162.11179 0.0010721608 -127.31601 0.0010242781 -127.12149 0.86124909 -154.14079
10951581250 0.78599656 -162.12057 0.0010718803 -128.48634 0.001032579 -126.76027 0.85932815 -154.19774
10951615625 0.78585005 -162.20126 0.0010505752 -126.68066 0.0010226753 -129.07982 0.86080331 -154.2088
10951650000 0.78624409 -162.12134 0.0010758719 -126.42249 0.0010855302 -126.10818 0.86082667 -154.27415
10951684375 0.78655612 -162.13411 0.0010780804 -126.34313 0.0010505418 -127.96686 0.86234701 -154.2184
10951718750 0.78567719 -162.11662 0.0011011008 -125.61129 0.0010506683 -127.34082 0.86234164 -154.1714
10951753125 0.78509265 -162.17308 0.0010862208 -126.12241 0.0010402022 -126.9493 0.86202383 -154.20461
10951787500 0.7855925 -162.18666 0.0011143694 -127.25085 0.001057298 -127.16368 0.86189383 -154.19693
10951821875 0.7856549 -162.11926 0.0010784901 -127.40255 0.0010594301 -126.79014 0.86144167 -154.16994
10951856250 0.78500956 -162.13535 0.0010922847 -126.00538 0.001053586 -127.57224 0.86129117 -154.20551
10951890625 0.78576458 -162.15027 0.001098377 -125.55983 0.0010492655 -127.46263 0.86058772 -154.23378
10951925000 0.78583306 -162.21042 0.001107833 -127.36211 0.0010582157 -126.60349 0.86064869 -154.30412
10951959375 0.78598017 -162.16429 0.0010802911 -125.9567 0.0010545998 -128.16634 0.86030692 -154.30328
10951993750 0.7856186 -162.15477 0.001032736 -127.04039 0.0010120128 -126.1323 0.86000466 -154.27013
10952028125 0.78538948 -162.22182 0.0010461379 -127.22227 0.0010461031 -127.84601 0.85952884 -154.32614
10952062500 0.78533357 -162.1882 0.0010503439 -126.66658 0.0010452777 -125.13587 0.85896158 -154.22528
10952096875 0.78531891 -162.21809 0.0010587801 -125.70657 0.0010293903 -126.48383 0.86077577 -154.24937
10952131250 0.78576171 -162.23688 0.0010582284 -128.0022 0.0010609346 -126.79402 0.8593688 -154.29117
10952165625 0.78507745 -162.183 0.0010694652 -125.04688 0.0010359626 -128.00577 0.86083567 -154.30199
10952200000 0.78480512 -162.22565 0.0010839985 -127.38097 0.0010699383 -126.14988 0.86126906 -154.32385
10952234375 0.7847451 -162.22815 0.0010894383 -126.52263 0.0010483625 -127.98571 0.86093986 -154.24969
10952268750 0.78560013 -162.15578 0.0010883169 -128.12544 0.0010445899 -127.06396 0.86181909 -154.28816
10952303125 0.78502691 -162.26051 0.0010598268 -126.20761 0.0010472866 -127.63252 0.86021751 -154.30304
10952337500 0.78650904 -162.15897 0.0010739693 -125.43269 0.0010564779 -127.95457 0.86062592 -154.41005
10952371875 0.78477079 -162.27913 0.0010879849 -127.81871 0.0010608536 -126.71662 0.86118668 -154.30408
10952406250 0.78443682 -162.27567 0.0010895523 -126.38256 0.0010574185 -127.78612 0.86060095 -154.34628
10952440625 0.78509581 -162.21982 0.0010694518 -128.22234 0.0010214361 -127.51213 0.85953552 -154.37572
10952475000 0.78457689 -162.252 0.0010874573 -126.91026 0.0010608017 -128.06573 0.85968828 -154.36687
10952509375 0.78425431 -162.17438 0.0010784375 -126.755 0.0010310314 -127.2042 0.8588872 -154.35597
10952543750 0.78518254 -162.24706 0.0010914922 -126.2562 0.0010451314 -129.04015 0.85963678 -154.30728
10952578125 0.7855655 -162.17152 0.0010748423 -126.25478 0.0010441892 -126.90974 0.86097568 -154.31053
10952612500 0.78512585 -162.21886 0.0010708639 -126.37621 0.0010545431 -125.73653 0.86006069 -154.36638
10952646875 0.78537154 -162.20602 0.0010771678 -126.61651 0.0010531347 -126.73058 0.8604396 -154.30229
10952681250 0.78461003 -162.26524 0.0010744048 -127.33605 0.0010451364 -125.95336 0.86166316 -154.3116
10952715625 0.78436106 -162.25502 0.0010925765 -127.04852 0.0010365009 -127.32511 0.86027557 -154.32884
10952750000 0.78433305 -162.18745 0.0010814662 -126.6819 0.001039642 -128.36794 0.86009204 -154.28329
10952784375 0.78410131 -162.19044 0.0010660171 -126.71075 0.0010600419 -127.35098 0.86074871 -154.34116
10952818750 0.78460592 -162.20081 0.001087878 -127.06836 0.0010345819 -125.82986 0.86094081 -154.32481
10952853125 0.78571725 -162.29102 0.0010815099 -127.70002 0.0010579516 -128.35616 0.86190963 -154.30496
10952887500 0.78549898 -162.21393 0.0010371503 -127.98839 0.0010171812 -128.49013 0.86172318 -154.33153
10952921875 0.78552479 -162.28844 0.0010800846 -127.57761 0.001035215 -128.27151 0.86136466 -154.32027
10952956250 0.78537196 -162.3107 0.0010617255 -126.52512 0.0010528705 -128.17313 0.8625499 -154.36508
10952990625 0.7851786 -162.36296 0.0010786834 -127.30148 0.001041309 -125.34792 0.86206305 -154.40773
10953025000 0.78609979 -162.32451 0.0010928713 -128.05205 0.0010500231 -127.42139 0.86109394 -154.41153
10953059375 0.78520161 -162.3094 0.0010976266 -127.10969 0.0010481172 -127.05659 0.86063075 -154.427
10953093750 0.78604633 -162.3728 0.0011029696 -126.97221 0.0010440792 -127.59207 0.860937 -154.45262
10953128125 0.78554064 -162.36304 0.0010529625 -126.42953 0.0010409692 -128.47136 0.8607251 -154.35042
10953162500 0.78576785 -162.34523 0.0010749965 -127.43447 0.001014368 -128.74426 0.85992569 -154.31895
10953196875 0.78574032 -162.31837 0.0010695331 -127.00181 0.0010418119 -127.71744 0.86026376 -154.35831
10953231250 0.78533435 -162.29956 0.0010890412 -128.46278 0.001044991 -127.2854 0.85955709 -154.38585
10953265625 0.78451204 -162.22983 0.0010693237 -125.67167 0.0010592984 -128.31198 0.85985988 -154.37234
10953300000 0.78548026 -162.25969 0.0010690166 -126.27988 0.0010615822 -127.442 0.86196071 -154.40147
10953334375 0.78490353 -162.30998 0.0010365341 -126.47052 0.001031631 -128.03059 0.8608169 -154.43448
10953368750 0.7852152 -162.27756 0.0010555004 -126.48656 0.0010671293 -128.61505 0.86134833 -154.4209
10953403125 0.78515053 -162.27232 0.0010596053 -128.03252 0.0010428451 -128.9604 0.86055702 -154.42407
10953437500 0.78583753 -162.29387 0.0010712763 -127.21873 0.0010255941 -128.27986 0.86186278 -154.43182
10953471875 0.78569329 -162.31213 0.0010691795 -126.80382 0.0010388065 -128.67049 0.86150622 -154.43858
10953506250 0.7859742 -162.34499 0.0010768763 -125.92816 0.0010339597 -127.29089 0.86110955 -154.49263
10953540625 0.78531408 -162.36272 0.0010846223 -128.39639 0.001038886 -128.61282 0.86121881 -154.44907
10953575000 0.78518969 -162.40118 0.0010846356 -127.81832 0.0010152074 -129.03944 0.86217964 -154.46437
10953609375 0.78489387 -162.35132 0.0010460381 -128.56636 0.0010489837 -128.24902 0.86129016 -154.40469
10953643750 0.78420341 -162.43488 0.0010346817 -126.06012 0.0010534596 -129.04852 0.86140352 -154.48878
10953678125 0.78558385 -162.4789 0.0010590729 -129.29788 0.001016792 -128.59027 0.86165804 -154.45634
10953712500 0.78563368 -162.39674 0.0010462558 -128.56944 0.001041091 -128.43312 0.86084783 -154.46942
10953746875 0.78524446 -162.47441 0.0010774275 -128.46236 0.0010433266 -128.6188 0.86188221 -154.36031
10953781250 0.78620923 -162.38458 0.0010682265 -128.00542 0.0010341763 -129.40967 0.86072165 -154.35037
10953815625 0.786412 -162.29425 0.0010629728 -125.75674 0.0010169762 -127.62257 0.85968989 -154.38902
10953850000 0.78686965 -162.31859 0.0010813226 -126.39176 0.001024986 -130.17628 0.86102772 -154.39961
10953884375 0.78582782 -162.36441 0.0010393774 -126.3002 0.0010268606 -126.27975 0.8610689 -154.49382
10953918750 0.78505176 -162.40207 0.001040457 -126.67252 0.0010294053 -128.5462 0.86091018 -154.42667
10953953125 0.78586507 -162.41008 0.0010427643 -127.46931 0.0010412891 -127.65936 0.8617962 -154.3972
10953987500 0.7859295 -162.39935 0.0010602491 -127.91102 0.0010286435 -127.888 0.86020368 -154.44933
10954021875 0.7868489 -162.31242 0.0010351688 -126.55956 0.0010298158 -129.44307 0.86055642 -154.49846
10954056250 0.78570956 -162.38383 0.0010651599 -127.9081 0.0010471038 -127.66371 0.86122459 -154.47093
10954090625 0.78505433 -162.40993 0.0010885844 -128.17613 0.0010139556 -127.62986 0.86172378 -154.4202
10954125000 0.78506804 -162.48288 0.0010742465 -126.95905 0.001031401 -127.04218 0.86135197 -154.4772
10954159375 0.78591549 -162.49463 0.0010606599 -128.37936 0.0010428716 -127.41919 0.86072648 -154.48048
10954193750 0.78514677 -162.51355 0.0010311498 -128.21472 0.0010406766 -126.44464 0.8608849 -154.40794
10954228125 0.78611755 -162.46091 0.0010563275 -129.15375 0.0010229659 -128.32339 0.85963267 -154.4865
10954262500 0.78524184 -162.42703 0.0010214309 -127.25478 0.0010558722 -128.09142 0.85979056 -154.4462
10954296875 0.78521997 -162.4557 0.0010787317 -127.82407 0.001029238 -127.76097 0.86044741 -154.49538
10954331250 0.78561509 -162.44482 0.0010546638 -129.3457 0.001019352 -128.24431 0.8607446 -154.46109
10954365625 0.78456068 -162.44189 0.001038018 -126.09605 0.0010469723 -129.46895 0.86121953 -154.40854
10954400000 0.7847997 -162.45636 0.0010366125 -128.71887 0.0010430728 -128.79362 0.86031175 -154.40659
10954434375 0.78615057 -162.45869 0.001026483 -127.7148 0.0010006067 -129.82196 0.86012661 -154.56622
10954468750 0.7858364 -162.4951 0.0010426703 -128.27438 0.0010243915 -129.73895 0.85985923 -154.51378
10954503125 0.78495747 -162.4404 0.0010534802 -127.81873 0.0010198097 -128.27289 0.85992885 -154.57663
10954537500 0.78491497 -162.40401 0.0010603472 -127.72387 0.0010146121 -129.88286 0.86041409 -154.45122
10954571875 0.78595841 -162.47917 0.0010493764 -128.90334 0.00103003 -128.5238 0.86054122 -154.41064
10954606250 0.78590727 -162.43321 0.0010594917 -127.94624 0.0010589492 -126.67128 0.86029583 -154.50578
10954640625 0.78597295 -162.47588 0.0010567226 -128.61707 0.0010062699 -128.39154 0.86141223 -154.55878
10954675000 0.78488916 -162.4026 0.0010558561 -128.69841 0.0010239611 -127.70838 0.86030734 -154.53326
10954709375 0.78518212 -162.41988 0.0010599294 -126.94843 0.00098879484 -127.01143 0.86066735 -154.41742
10954743750 0.78594321 -162.48433 0.00106454 -130.37886 0.00098712288 -127.85792 0.85852152 -154.50925
10954778125 0.78620934 -162.51875 0.001019508 -129.70284 0.0010248609 -128.51361 0.85953879 -154.4848
10954812500 0.7865321 -162.50644 0.001069089 -128.05963 0.00099942787 -127.43446 0.85973603 -154.5206
10954846875 0.78532684 -162.54575 0.0010476719 -129.50902 0.0010328065 -129.00175 0.85982394 -154.55554
10954881250 0.7840243 -162.50073 0.0010198196 -126.38118 0.0010099162 -127.88773 0.86097616 -154.56541
10954915625 0.78517878 -162.565 0.0010391223 -127.77493 0.0010432943 -129.70335 0.85991174 -154.57765
10954950000 0.78510576 -162.49657 0.0010483213 -128.5865 0.001031859 -128.57063 0.86162794 -154.50923
10954984375 0.78510404 -162.57118 0.0010237396 -127.99149 0.0010082355 -128.64511 0.86160403 -154.41861
10955018750 0.78460294 -162.53227 0.0010077344 -127.79802 0.0010096476 -127.66048 0.8610732 -154.5038
10955053125 0.78386009 -162.49266 0.0010045004 -126.79731 0.0010128364 -126.97538 0.86103415 -154.52278
10955087500 0.78561771 -162.48674 0.0010226053 -125.46725 0.001036977 -128.90868 0.86144322 -154.60657
10955121875 0.78444225 -162.4716 0.0010035079 -129.43137 0.0009726159 -129.55315 0.86174649 -154.61121
10955156250 0.78396142 -162.44792 0.0010293711 -127.70644 0.00099094864 -129.32941 0.86090785 -154.56659
10955190625 0.78427827 -162.47473 0.0010322938 -127.50162 0.0010615875 -129.67152 0.86057448 -154.54861
10955225000 0.78449857 -162.545 0.0010094939 -128.93117 0.0010239964 -127.82811 0.86027807 -154.58018
10955259375 0.78546327 -162.52914 0.0010289159 -128.85727 0.00099670095 -126.97027 0.86075854 -154.65787
10955293750 0.78613138 -162.56667 0.0010229567 -128.76799 0.001013736 -129.2652 0.86094952 -154.64978
10955328125 0.78507411 -162.51894 0.0010037341 -126.88444 0.0009914604 -129.15276 0.8602016 -154.66661
10955362500 0.78526086 -162.49818 0.0010211577 -128.06117 0.00098520762 -130.57796 0.86044216 -154.61272
10955396875 0.78568137 -162.57764 0.00098726421 -128.51141 0.00098917005 -129.34683 0.86053813 -154.55719
10955431250 0.78470004 -162.52667 0.00103415 -126.48262 0.00098334346 -126.1275 0.8614105 -154.53806
10955465625 0.78494155 -162.5139 0.001005033 -128.45779 0.0010431876 -128.09 0.86112523 -154.60629
10955500000 0.78376204 -162.48296 0.00099974137 -127.61559 0.0010189613 -128.44548 0.85984987 -154.5154
10955534375 0.78476232 -162.51172 0.0010037974 -127.74711 0.0010075989 -127.49081 0.86134768 -154.56895
10955568750 0.78448778 -162.57201 0.0010199682 -128.28224 0.00099913299 -128.39891 0.860663 -154.61563
10955603125 0.78540021 -162.5313 0.001019315 -128.76137 0.00095964398 -129.33923 0.86068523 -154.6382
10955637500 0.78627592 -162.46812 0.0010181658 -128.27086 0.00097236637 -127.19817 0.86042678 -154.63425
10955671875 0.78657979 -162.55913 0.00099107821 -127.70555 0.00098184601 -127.47916 0.85999346 -154.75293
10955706250 0.78589481 -162.5768 0.0010256246 -126.85385 0.00098692661 -128.40398 0.86068869 -154.66104
10955740625 0.78509867 -162.62006 0.0010112807 -125.20705 0.00099797244 -128.00719 0.86107439 -154.65268
10955775000 0.78384745 -162.59354 0.0010108649 -126.48589 0.00099361723 -129.34727 0.85969752 -154.60397
10955809375 0.78460985 -162.62122 0.00099938957 -126.02217 0.0009659261 -129.22278 0.86138606 -154.67813
10955843750 0.78495109 -162.63615 0.00096536754 -129.00342 0.00098380225 -129.45592 0.86004204 -154.69966
10955878125 0.78433096 -162.62851 0.0010245476 -126.55788 0.0009827544 -127.50313 0.86066937 -154.65376
10955912500 0.7837562 -162.61617 0.00098179735 -127.27972 0.00096960261 -130.98126 0.86025649 -154.68224
10955946875 0.78315979 -162.61726 0.0010124339 -127.01943 0.00097259629 -128.38982 0.85981202 -154.62086
10955981250 0.78387517 -162.60155 0.00098474196 -131.31966 0.00099791039 -127.31392 0.86124897 -154.63754
10956015625 0.78498542 -162.54335 0.00098349387 -126.65339 0.00098453509 -128.73499 0.86252725 -154.76384
10956050000 0.7844491 -162.54446 0.00097185955 -126.9043 0.00099029718 -128.07585 0.86179036 -154.6904
10956084375 0.78461689 -162.57646 0.00098442053 -126.96877 0.00094095588 -128.98033 0.86115563 -154.63406
10956118750 0.78508765 -162.55328 0.00097499567 -127.03706 0.00098947389 -127.19072 0.86182427 -154.65578
10956153125 0.78417861 -162.65872 0.00095970772 -128.57388 0.00097126077 -127.95668 0.86125422 -154.6839
10956187500 0.78480309 -162.66422 0.0010058139 -129.45238 0.00098665967 -128.43991 0.86072278 -154.66507
10956221875 0.78523803 -162.73239 0.00099098135 -129.34871 0.0009628986 -127.51637 0.86110365 -154.61487
10956256250 0.78515536 -162.69095 0.001006994 -126.81979 0.00098696386 -127.08925 0.86066014 -154.65799
10956290625 0.78494895 -162.60243 0.00097783771 -126.91129 0.00097400468 -128.35344 0.86001104 -154.68507
10956325000 0.7863794 -162.58981 0.00097598834 -126.10863 0.00095839798 -129.70512 0.85979581 -154.74928
10956359375 0.78542781 -162.618 0.00099099823 -126.29196 0.0010075653 -127.34525 0.86184996 -154.53065
10956393750 0.78491431 -162.52794 0.00096548366 -129.09029 0.00098562089 -126.31669 0.85979635 -154.63211
10956428125 0.78485155 -162.52058 0.00095840124 -125.65425 0.00097848463 -127.88651 0.85983068 -154.62151
