!Agilent Technologies,E8362C,MY49020356,A.09.42.23
!Agilent E8362C: A.09.42.23
!Date: Saturday, September 11, 2021 04:25:06
!Correction: S11(Full 2 Port(1,2)) 
!S21(Full 2 Port(1,2)) 
!S12(Full 2 Port(1,2)) 
!S22(Full 2 Port(1,2)) 
!S2P File: Measurements: S11, S21, S12, S22:
# Hz S  MA   R 50
10950000000 0.87355232 -148.08505 0.0013344126 -108.57333 0.0011082779 -110.53906 0.87498116 -123.4647
10950034375 0.87312031 -148.04601 0.0013313348 -108.85979 0.001129884 -111.11147 0.87398797 -123.44926
10950068750 0.87183028 -148.11038 0.001356901 -108.76878 0.001131855 -112.79015 0.87500089 -123.44356
10950103125 0.87402976 -148.10262 0.0013353769 -107.70914 0.0011166089 -110.55093 0.87544584 -123.45084
10950137500 0.87272853 -148.13188 0.0013657983 -109.91034 0.0011309803 -110.75957 0.87536049 -123.41424
10950171875 0.87282091 -148.14957 0.001355237 -108.75367 0.0011416713 -111.35545 0.87511444 -123.47813
10950206250 0.87330848 -148.19107 0.0013251709 -107.37844 0.0011240783 -112.67459 0.87528682 -123.46663
10950240625 0.87346154 -148.19208 0.0013267715 -109.10137 0.00114206 -111.90405 0.87430805 -123.47287
10950275000 0.87461752 -148.13771 0.0013559364 -109.12076 0.0011415177 -112.07735 0.87440848 -123.47895
10950309375 0.87337083 -148.13766 0.0012896555 -109.58946 0.0011537288 -112.24838 0.8747806 -123.43945
10950343750 0.87344223 -148.06799 0.0013459406 -110.01128 0.0011222064 -110.55384 0.87650567 -123.48238
10950378125 0.87295908 -148.05984 0.001327667 -108.41671 0.0010949104 -111.60583 0.87546974 -123.44975
10950412500 0.87217069 -148.09067 0.0012986122 -110.48176 0.0011401958 -110.84359 0.87608516 -123.50083
10950446875 0.87338907 -148.11032 0.0013262506 -109.0257 0.0010859887 -112.42322 0.87439644 -123.50365
10950481250 0.87309694 -148.10193 0.0013403383 -109.28221 0.0010957551 -111.24634 0.87416315 -123.45191
10950515625 0.87270713 -148.15839 0.0013729886 -109.81216 0.0011180656 -112.67905 0.8749882 -123.46586
10950550000 0.87311226 -148.16208 0.0013362039 -108.98452 0.0010961472 -111.75172 0.87465423 -123.4564
10950584375 0.8730579 -148.11458 0.0013374642 -109.06417 0.0011422961 -112.24556 0.87429291 -123.52724
10950618750 0.87279427 -148.13857 0.0013353556 -108.86584 0.001118466 -113.1796 0.8750093 -123.51875
10950653125 0.87152785 -148.08469 0.001314522 -109.11543 0.001133097 -110.45898 0.87508941 -123.53588
10950687500 0.8721087 -148.08562 0.0013575465 -109.31358 0.0011154487 -112.30681 0.87492114 -123.51175
10950721875 0.87125474 -148.16539 0.0013250492 -109.65874 0.0011076385 -112.61511 0.87488836 -123.55888
10950756250 0.87347168 -148.1302 0.001334444 -108.95066 0.0011260285 -111.87558 0.87493819 -123.43888
10950790625 0.87317258 -148.20155 0.0013285605 -109.28727 0.0011335475 -111.5985 0.87492049 -123.45089
10950825000 0.87292063 -148.1376 0.0013400282 -110.64607 0.0011394259 -110.69205 0.87332183 -123.51891
10950859375 0.87196201 -148.13748 0.0013669113 -108.54967 0.001114847 -111.15865 0.87441599 -123.52442
10950893750 0.87279791 -148.0723 0.0013314699 -108.70137 0.0010951953 -111.42924 0.87463593 -123.46355
10950928125 0.87419665 -148.10066 0.001343503 -107.20766 0.0011082337 -112.30938 0.87493092 -123.47897
10950962500 0.87217718 -148.16087 0.0013264279 -108.35476 0.0011206005 -111.64304 0.8745442 -123.43237
10950996875 0.87353766 -148.12335 0.001338996 -109.76768 0.0011217739 -110.63692 0.87494057 -123.52005
10951031250 0.87307662 -148.18097 0.0013074307 -110.39506 0.0011341037 -112.42837 0.87509316 -123.55988
10951065625 0.8735798 -148.20282 0.001347207 -108.9369 0.0011236399 -110.75983 0.87513858 -123.5177
10951100000 0.87308246 -148.14969 0.0013255016 -108.86956 0.0011148851 -111.79396 0.87525302 -123.56529
10951134375 0.87354791 -148.20279 0.0013492079 -109.60125 0.0011091881 -111.77665 0.87537575 -123.61314
10951168750 0.87272078 -148.22394 0.0013552011 -109.44528 0.001134173 -111.81978 0.87550718 -123.4972
10951203125 0.87321782 -148.2139 0.0013312403 -108.99089 0.0010818319 -110.66036 0.87511438 -123.58055
10951237500 0.87343413 -148.21507 0.0013897429 -108.54875 0.0011185657 -111.04586 0.87478501 -123.49836
10951271875 0.8719188 -148.16959 0.0013642237 -108.03898 0.0011327817 -110.28532 0.87518859 -123.5548
10951306250 0.87345207 -148.11516 0.0013386032 -108.69099 0.0011213601 -110.0811 0.87595928 -123.58889
10951340625 0.87287223 -148.1805 0.0013125299 -109.61266 0.0011260347 -111.60862 0.87488008 -123.53776
10951375000 0.87317842 -148.1839 0.0013016599 -108.68314 0.0011400593 -111.08055 0.87591773 -123.63358
10951409375 0.87347215 -148.13327 0.0013289765 -110.64331 0.0011381389 -111.90664 0.8749671 -123.55727
10951443750 0.87308609 -148.23636 0.0013603878 -109.23582 0.0011394244 -111.42886 0.87562382 -123.54436
10951478125 0.87360013 -148.23309 0.0013385178 -108.90177 0.0011493021 -111.55772 0.87518138 -123.48072
10951512500 0.87385923 -148.186 0.0012968136 -108.33665 0.0011277646 -113.85005 0.87439328 -123.56
10951546875 0.87308556 -148.29082 0.001387679 -110.16912 0.0011089727 -110.60178 0.87475073 -123.57393
10951581250 0.87324381 -148.2487 0.0013175557 -109.26144 0.0011281258 -113.13593 0.87425679 -123.6317
10951615625 0.87414336 -148.28482 0.0013348939 -110.12702 0.0011286516 -111.10049 0.87442303 -123.58639
10951650000 0.87459058 -148.25702 0.0013708309 -108.58367 0.0011178593 -110.12624 0.8746779 -123.61487
10951684375 0.87382817 -148.23721 0.0013494452 -108.29396 0.0011137173 -110.76629 0.87551033 -123.63234
10951718750 0.87344778 -148.22009 0.001318936 -109.27692 0.0011326426 -110.55315 0.87589902 -123.63742
10951753125 0.87429267 -148.30293 0.0013608112 -109.62994 0.0011111582 -112.01048 0.87612116 -123.5826
10951787500 0.8727594 -148.31342 0.001345602 -110.48396 0.0011039993 -110.72168 0.87504137 -123.5797
10951821875 0.87256217 -148.23505 0.0013105472 -109.7391 0.001118673 -111.72539 0.87532926 -123.5611
10951856250 0.87353635 -148.17587 0.0013395872 -110.07061 0.0011588992 -112.11684 0.87527126 -123.59828
10951890625 0.8732484 -148.28131 0.0013482126 -109.00654 0.0011181741 -111.04619 0.87485087 -123.61718
10951925000 0.87405127 -148.3006 0.0013406951 -110.0679 0.0011008155 -111.65257 0.87413085 -123.61298
10951959375 0.87421364 -148.32356 0.0013368969 -109.82696 0.0011085143 -110.29273 0.87460357 -123.64216
10951993750 0.87414575 -148.35986 0.0013338521 -110.31158 0.0011226473 -111.61624 0.87446278 -123.65945
10952028125 0.8727991 -148.34404 0.0013260101 -109.20506 0.0011106497 -111.60056 0.8739087 -123.59885
10952062500 0.87444824 -148.32574 0.0013430472 -109.81242 0.0011353897 -111.41001 0.87488782 -123.61125
10952096875 0.87374222 -148.36278 0.001341985 -109.05191 0.0011080911 -111.98162 0.87450212 -123.62831
10952131250 0.87369066 -148.35179 0.0013390196 -109.77294 0.001117529 -112.38647 0.87378383 -123.70286
10952165625 0.87228179 -148.35338 0.0013296957 -109.27285 0.0011100445 -111.50794 0.87418431 -123.67182
10952200000 0.87227619 -148.33978 0.0013182485 -108.89933 0.0011082386 -112.33907 0.87515968 -123.6516
10952234375 0.87231648 -148.33154 0.0013062238 -110.30192 0.0011308689 -111.92889 0.87517917 -123.69925
10952268750 0.87206852 -148.43584 0.0013023689 -109.52634 0.0011108356 -112.0609 0.87465286 -123.63589
10952303125 0.87305182 -148.32468 0.0013582406 -108.97815 0.0011137787 -112.17257 0.87530708 -123.66579
10952337500 0.87147021 -148.40248 0.0013823182 -109.79753 0.0011230314 -111.2952 0.87452888 -123.78481
10952371875 0.87297893 -148.37631 0.0013408421 -108.47682 0.0011326718 -112.06786 0.8743636 -123.70839
10952406250 0.87302017 -148.33752 0.0013370988 -109.28865 0.0010978066 -110.97041 0.87446177 -123.72955
10952440625 0.87327969 -148.37732 0.0013376215 -109.46133 0.0010980878 -109.74599 0.87502438 -123.69593
10952475000 0.87209535 -148.36357 0.0013302121 -110.25288 0.001119462 -109.9883 0.87335509 -123.74565
10952509375 0.87251878 -148.34866 0.0013170255 -109.33633 0.001130232 -111.79472 0.87448812 -123.7725
10952543750 0.87454122 -148.33131 0.0013260399 -108.65123 0.001116218 -111.30995 0.87394625 -123.73276
10952578125 0.87299287 -148.21805 0.0013303661 -107.38646 0.0010986616 -111.9251 0.87383324 -123.68452
10952612500 0.87323284 -148.31197 0.0013351401 -110.12803 0.0011519114 -111.8315 0.87468404 -123.65585
10952646875 0.87224972 -148.33629 0.0013320604 -109.6085 0.0011248852 -111.75156 0.87437755 -123.73869
10952681250 0.87357664 -148.33072 0.0013570855 -110.06242 0.0011106151 -111.23616 0.87655586 -123.67359
10952715625 0.87359715 -148.36284 0.0013406903 -107.98463 0.0011305824 -111.99413 0.87552553 -123.68712
10952750000 0.87199754 -148.34598 0.0013065322 -109.44572 0.0011246684 -110.64567 0.87516195 -123.70284
10952784375 0.87161452 -148.3761 0.0013273754 -110.48451 0.0011256436 -111.41988 0.87473881 -123.67165
10952818750 0.87183273 -148.37732 0.0013298409 -110.1986 0.0011151553 -112.44276 0.87533629 -123.74895
10952853125 0.87282491 -148.35062 0.0013424074 -110.62737 0.0011630013 -110.46583 0.87407535 -123.68732
10952887500 0.87366426 -148.45049 0.0013429688 -109.5344 0.0011252458 -111.07929 0.87618667 -123.7345
10952921875 0.87400842 -148.41074 0.0013198302 -109.3176 0.0011105038 -111.27935 0.87490773 -123.69294
10952956250 0.87409818 -148.43024 0.0013158727 -109.59008 0.0011176554 -112.26163 0.8756969 -123.72564
10952990625 0.87480056 -148.41937 0.001353764 -109.81713 0.0011100989 -111.25018 0.8747341 -123.71154
10953025000 0.87313569 -148.39207 0.0013248054 -108.54187 0.0011066486 -111.60882 0.87614 -123.74323
10953059375 0.87373257 -148.42409 0.0013204486 -109.70988 0.0011446885 -111.40125 0.87520653 -123.7415
10953093750 0.87391335 -148.39362 0.001330246 -109.51193 0.0011227138 -111.85076 0.87539291 -123.74662
10953128125 0.87362647 -148.47485 0.0013318921 -110.37591 0.0011078633 -112.21208 0.87422353 -123.71658
10953162500 0.87401807 -148.47815 0.0013052358 -110.28086 0.0011187014 -111.34849 0.87453324 -123.75479
10953196875 0.87505704 -148.41479 0.0013127062 -109.77789 0.0011382183 -111.26004 0.87380022 -123.75524
10953231250 0.87287277 -148.41499 0.0013354236 -109.82018 0.0011123611 -111.17525 0.87373775 -123.76291
10953265625 0.87308234 -148.35873 0.0013154243 -110.41969 0.001147751 -111.85986 0.8747955 -123.72504
10953300000 0.87245667 -148.35675 0.0013126063 -109.59162 0.0011188081 -110.48778 0.87447017 -123.79621
10953334375 0.87283993 -148.41537 0.0013259673 -109.75786 0.0010982002 -112.35629 0.87486494 -123.79704
10953368750 0.87300438 -148.39549 0.001327332 -110.66032 0.0011080207 -111.16723 0.87557095 -123.78261
10953403125 0.87212157 -148.45737 0.001321279 -109.55489 0.0011248718 -112.53127 0.87501305 -123.78413
10953437500 0.87188995 -148.43123 0.0012994764 -111.17786 0.0011062647 -110.94042 0.87640876 -123.82735
10953471875 0.87283915 -148.43333 0.0013652187 -109.75883 0.0011315137 -110.79912 0.87532306 -123.7931
10953506250 0.87314016 -148.45676 0.0012917863 -110.07449 0.0011161534 -111.03699 0.87426353 -123.81422
10953540625 0.87276202 -148.42606 0.0013080465 -110.1972 0.001121995 -111.47204 0.87503242 -123.75739
10953575000 0.87333238 -148.35713 0.0013381722 -110.65486 0.0011307981 -112.0024 0.87585163 -123.77818
10953609375 0.87257278 -148.52261 0.0013047217 -111.58923 0.0011193336 -110.70416 0.87593615 -123.80688
10953643750 0.87249136 -148.47565 0.0013281979 -109.69119 0.0011215459 -112.79777 0.87587953 -123.84634
10953678125 0.87218791 -148.5164 0.0013339086 -110.83078 0.00109706 -112.43176 0.87554991 -123.84837
10953712500 0.87142038 -148.4884 0.0013215552 -110.03641 0.0011671789 -112.33925 0.87583011 -123.90406
10953746875 0.87327874 -148.521 0.0013259739 -108.95222 0.0011650394 -112.49389 0.87587559 -123.81026
10953781250 0.87300736 -148.37219 0.0013070154 -110.59715 0.0011234481 -110.83856 0.87442023 -123.77356
10953815625 0.87349981 -148.42549 0.0013230515 -111.47764 0.0010821415 -112.50825 0.87524056 -123.81792
10953850000 0.87285095 -148.38962 0.0013039993 -109.49787 0.0011070062 -112.59024 0.87463945 -123.83283
10953884375 0.87401891 -148.42552 0.0013323557 -111.48604 0.0011114852 -111.92296 0.87581217 -123.71395
10953918750 0.87326896 -148.51305 0.0012859786 -110.60194 0.0011282335 -111.34647 0.87527502 -123.8485
10953953125 0.87263525 -148.50613 0.0013030734 -109.53732 0.001119149 -111.4298 0.87550557 -123.87536
10953987500 0.87353837 -148.57704 0.0013147776 -110.15513 0.0011515877 -113.43476 0.87562233 -123.89723
10954021875 0.87332588 -148.46086 0.0012974766 -110.60301 0.0011241484 -111.80972 0.87457967 -123.8662
10954056250 0.87282157 -148.51863 0.0012817784 -112.42024 0.0011289711 -111.43533 0.87395847 -123.81871
10954090625 0.87246931 -148.60368 0.0012781799 -110.28521 0.0011225229 -110.88179 0.87484199 -123.90034
10954125000 0.87285674 -148.59659 0.0013126422 -109.46454 0.0010989741 -111.68287 0.87545705 -123.83617
10954159375 0.87298024 -148.61685 0.0013071692 -110.63307 0.0011407383 -112.21294 0.87558401 -123.8006
10954193750 0.8746267 -148.55524 0.0013393684 -109.86048 0.0011158342 -113.71667 0.87410051 -123.87724
10954228125 0.87288946 -148.543 0.0013208849 -109.14343 0.0011247518 -112.8172 0.87365544 -123.85875
10954262500 0.87294495 -148.55434 0.0013058309 -109.94858 0.0011091224 -112.75987 0.87470275 -123.89426
10954296875 0.8730759 -148.59668 0.0012595692 -111.10448 0.0010988354 -111.13132 0.87537736 -123.94402
10954331250 0.87248904 -148.61273 0.001284232 -112.19453 0.001090886 -114.26076 0.87454975 -123.86622
10954365625 0.87179404 -148.53801 0.0012907366 -110.4136 0.0011402728 -112.92899 0.8757543 -123.81618
10954400000 0.87335026 -148.59528 0.0013076122 -109.88049 0.0011091289 -112.26824 0.87529755 -123.89461
10954434375 0.8723827 -148.53082 0.0013059163 -111.19539 0.001099722 -111.06705 0.87478107 -123.92149
10954468750 0.87280101 -148.58321 0.0012910762 -109.90472 0.0011430694 -112.14843 0.87460744 -123.89406
10954503125 0.87223125 -148.59514 0.0012770866 -110.84189 0.0011040864 -111.51965 0.87421083 -123.89874
10954537500 0.87405217 -148.51585 0.0013041394 -109.82975 0.0010956151 -110.96105 0.87543428 -123.93088
10954571875 0.87302738 -148.53012 0.0013042417 -109.75494 0.0011129399 -112.30497 0.87485719 -123.90984
10954606250 0.87276369 -148.55003 0.0013062817 -110.98055 0.0011322146 -110.04346 0.87518412 -123.89915
10954640625 0.873658 -148.63652 0.0013163447 -110.3111 0.0011092776 -112.32436 0.87454766 -123.94302
10954675000 0.87367761 -148.54793 0.0012704858 -110.83377 0.0011018093 -112.21791 0.87397242 -123.88049
10954709375 0.87266946 -148.46814 0.0012839218 -111.12429 0.001125492 -110.48772 0.87324756 -123.94633
10954743750 0.87341624 -148.58934 0.0013016257 -109.87702 0.0011314645 -112.04929 0.87415051 -123.89264
10954778125 0.87308699 -148.57047 0.0012928443 -109.866 0.0011236125 -111.00829 0.8746264 -123.96895
10954812500 0.87311572 -148.62886 0.0013002969 -110.96133 0.0010984739 -111.37515 0.87553197 -123.97958
10954846875 0.87279361 -148.62251 0.0012698877 -111.96441 0.0011368576 -110.88094 0.87496024 -123.98295
10954881250 0.8726089 -148.70778 0.0013271181 -110.856 0.0011132204 -110.66933 0.87384075 -123.97019
10954915625 0.87241638 -148.73309 0.0013112553 -110.18977 0.001127894 -111.34186 0.87537849 -123.9605
10954950000 0.87307709 -148.63371 0.0012729988 -110.60503 0.001142521 -111.67772 0.87537104 -123.94167
10954984375 0.87324303 -148.68231 0.0012757975 -110.33248 0.001126351 -112.04441 0.87533867 -123.94829
10955018750 0.87255996 -148.56511 0.0012746274 -109.71614 0.0010872481 -112.52718 0.87527776 -123.90453
10955053125 0.87305909 -148.59433 0.0012627838 -111.44643 0.0010835092 -110.99627 0.87547767 -123.9206
10955087500 0.87265509 -148.6902 0.0012697291 -110.73071 0.0010664623 -111.66663 0.87491572 -123.94063
10955121875 0.87298244 -148.62523 0.0012906264 -111.58288 0.0011351673 -112.88941 0.87544906 -124.00558
10955156250 0.87194633 -148.60437 0.0012659011 -109.59056 0.0010990553 -112.68705 0.87531525 -123.96123
10955190625 0.8726306 -148.63689 0.0013001455 -111.45519 0.0011058797 -112.19488 0.87595093 -123.99409
10955225000 0.87233871 -148.59552 0.0012716533 -109.43201 0.0010931701 -112.34158 0.87420261 -123.98357
10955259375 0.87359869 -148.63828 0.0012955939 -110.47431 0.0010708321 -110.55412 0.87523341 -124.08649
10955293750 0.87276441 -148.6176 0.0012824014 -109.50793 0.0011264908 -112.97304 0.87460709 -124.02337
10955328125 0.87313038 -148.66971 0.0012754742 -110.85754 0.0010862065 -111.9205 0.87558389 -124.02448
10955362500 0.87313396 -148.66232 0.0012501378 -110.30286 0.0010932439 -111.75676 0.87558782 -123.99796
10955396875 0.87164259 -148.62793 0.0012822868 -110.92198 0.0010945896 -110.58849 0.87456971 -124.06487
10955431250 0.8728801 -148.62181 0.0012855998 -110.75809 0.0011177574 -111.0986 0.87563568 -124.02255
10955465625 0.8717556 -148.68124 0.0012862326 -111.29837 0.0010919311 -111.99148 0.87640977 -123.96232
10955500000 0.87264526 -148.67471 0.0012628082 -109.87395 0.001095859 -112.4609 0.87618506 -123.97105
10955534375 0.87266582 -148.71068 0.001259981 -111.57599 0.0011306878 -110.94386 0.87547559 -124.01523
10955568750 0.87201571 -148.6626 0.001287 -110.67198 0.0011021239 -111.82003 0.87498683 -123.95712
10955603125 0.8728174 -148.66527 0.0012381971 -110.37241 0.001126804 -111.90341 0.87497878 -123.96185
10955637500 0.87321836 -148.62036 0.0012582911 -110.93015 0.0010670887 -110.04121 0.87570554 -124.07744
10955671875 0.87353206 -148.69409 0.0012602522 -110.19373 0.0010911813 -110.74774 0.87394708 -124.10551
10955706250 0.87316859 -148.68179 0.0012517335 -109.38848 0.0010821298 -112.36514 0.8745448 -124.04253
10955740625 0.87284511 -148.76003 0.0012418467 -110.20693 0.0010861702 -110.59764 0.87503743 -124.06069
10955775000 0.87108904 -148.64969 0.0012441509 -110.83673 0.0010893123 -110.28095 0.87506318 -124.11153
10955809375 0.87143594 -148.67577 0.0012417655 -109.75804 0.0010811029 -111.68483 0.87658983 -124.07549
10955843750 0.87227994 -148.70969 0.0012586012 -111.09658 0.0011139121 -110.75519 0.87657124 -124.09853
10955878125 0.87286639 -148.75912 0.0012754893 -110.58535 0.0010850531 -111.50356 0.8755374 -124.05537
10955912500 0.87149054 -148.76746 0.0012540001 -111.53001 0.0010783516 -112.03285 0.8753047 -124.06371
10955946875 0.87138915 -148.78041 0.0012580686 -109.38941 0.0010770495 -110.10702 0.87573326 -124.0163
10955981250 0.87154418 -148.65311 0.0012424357 -109.87964 0.0010868727 -109.85932 0.87545753 -124.06023
10956015625 0.87225068 -148.6295 0.0012809744 -110.28586 0.0010919706 -110.67953 0.87596905 -124.07596
10956050000 0.87232733 -148.69757 0.0012405897 -111.9607 0.0010742327 -111.98898 0.87521422 -124.10835
10956084375 0.87174124 -148.70084 0.0012552836 -111.66645 0.0010888202 -111.13451 0.87601751 -124.0839
10956118750 0.87275994 -148.72964 0.0012524781 -110.45471 0.0010623416 -112.29614 0.87612975 -124.11063
10956153125 0.87246239 -148.72183 0.0012682151 -109.09039 0.0010773971 -111.31265 0.87509543 -124.05067
10956187500 0.8731367 -148.79031 0.0012887495 -109.86716 0.0010969208 -110.87114 0.87588 -124.06278
10956221875 0.87228203 -148.77449 0.001215598 -112.01783 0.0010795194 -108.95273 0.87534839 -124.07391
10956256250 0.87280011 -148.75104 0.0012019271 -110.50703 0.0010628097 -111.55799 0.87419438 -124.06001
10956290625 0.87269449 -148.71712 0.0012282466 -111.71716 0.0010643111 -111.82738 0.87574381 -124.09942
10956325000 0.87393284 -148.68929 0.0012443615 -111.33767 0.0010605194 -111.84564 0.8760795 -124.06602
10956359375 0.87306565 -148.73695 0.0012588708 -110.93023 0.0011019533 -111.13425 0.87470102 -124.07338
10956393750 0.87301433 -148.75615 0.00122815 -111.14339 0.0010963229 -111.00891 0.87486106 -124.08878
10956428125 0.87354988 -148.75055 0.0012683549 -109.87267 0.0010972403 -110.07874 0.87530345 -124.07964
10956462500 0.8729943 -148.68205 0.001252542 -110.67475 0.0010829285 -109.68436 0.87600374 -124.10812
