!Agilent Technologies,E8362C,MY49020356,A.09.42.23
!Agilent E8362C: A.09.42.23
!Date: Saturday, September 11, 2021 04:23:24
!Correction: S11(Full 2 Port(1,2)) 
!S21(Full 2 Port(1,2)) 
!S12(Full 2 Port(1,2)) 
!S22(Full 2 Port(1,2)) 
!S2P File: Measurements: S11, S21, S12, S22:
# Hz S  MA   R 50
10950000000 0.87876987 -146.46716 0.0013475608 -115.55473 0.001187626 -113.18845 0.89932036 -130.18298
10950034375 0.87941229 -146.46457 0.0014074151 -114.50213 0.0011649628 -113.17448 0.89991492 -130.19281
10950068750 0.87951601 -146.44902 0.0013564662 -112.48629 0.0012072424 -114.73266 0.90021682 -130.19415
10950103125 0.87790078 -146.50221 0.0013770737 -114.04951 0.0011782905 -114.18072 0.89975905 -130.2283
10950137500 0.87984812 -146.48959 0.0014055518 -112.55193 0.0011607412 -113.55312 0.900096 -130.20433
10950171875 0.87892896 -146.60182 0.0013789067 -114.73041 0.0012116743 -113.22148 0.89935577 -130.21735
10950206250 0.87903202 -146.53841 0.001355048 -113.88451 0.0011916499 -113.65929 0.89889932 -130.2261
10950240625 0.88131183 -146.5253 0.001416493 -113.36658 0.0011828734 -114.5737 0.89799744 -130.22845
10950275000 0.87987441 -146.57231 0.0013485352 -114.65066 0.0011970295 -114.58012 0.90000391 -130.25592
10950309375 0.88013119 -146.48337 0.0013212004 -112.62999 0.0011556454 -115.34429 0.89939517 -130.27347
10950343750 0.87985981 -146.3931 0.0013805323 -113.83821 0.0011813762 -113.07343 0.899221 -130.23262
10950378125 0.87905371 -146.51166 0.0013865924 -115.05166 0.0011940903 -114.69633 0.90015692 -130.19933
10950412500 0.8786149 -146.46648 0.0013656946 -112.57518 0.0011891888 -113.64221 0.90057671 -130.26125
10950446875 0.87803596 -146.50812 0.0013723902 -113.36044 0.0012192247 -113.08324 0.89917213 -130.19467
10950481250 0.87880826 -146.49457 0.0013548939 -114.49489 0.0012021718 -115.60725 0.89972723 -130.23926
10950515625 0.87942857 -146.48387 0.0013416001 -113.11835 0.0012193604 -112.44346 0.89999515 -130.21567
10950550000 0.87915468 -146.46291 0.0013904007 -112.29249 0.0011730097 -115.11543 0.89935219 -130.21671
10950584375 0.87845051 -146.51302 0.0013610363 -112.92544 0.0011763412 -113.51988 0.90056628 -130.26563
10950618750 0.87868387 -146.50337 0.0013635076 -113.85728 0.0012482348 -114.5275 0.90055382 -130.27681
10950653125 0.87771195 -146.47229 0.001365744 -114.44781 0.0012017681 -114.13908 0.89953524 -130.32657
10950687500 0.8780638 -146.47401 0.0013847523 -113.54237 0.0011753711 -113.59999 0.9008069 -130.2059
10950721875 0.87912536 -146.48204 0.0013525797 -114.21622 0.0011996313 -114.36812 0.90004265 -130.28766
10950756250 0.87962329 -146.5554 0.0013874255 -113.28274 0.0012023103 -113.65555 0.89989054 -130.21899
10950790625 0.87993771 -146.50494 0.0013544413 -113.94434 0.0011756927 -114.21206 0.89854205 -130.23398
10950825000 0.87993461 -146.51825 0.0013488545 -113.22352 0.0011935998 -113.59882 0.89864224 -130.23238
10950859375 0.87814993 -146.48335 0.0013507168 -114.24857 0.001215413 -114.55999 0.89869732 -130.27328
10950893750 0.8793903 -146.5103 0.0013892844 -113.74689 0.0011748871 -114.81338 0.89854336 -130.2296
10950928125 0.88008004 -146.5347 0.001376236 -112.79768 0.0011791282 -114.64735 0.89950556 -130.20596
10950962500 0.8794322 -146.55383 0.0013801963 -113.96428 0.0011612974 -113.28761 0.89886832 -130.28766
10950996875 0.88091147 -146.54518 0.0013815064 -114.39777 0.0012180203 -115.44836 0.89928442 -130.3033
10951031250 0.88001388 -146.57523 0.0013533075 -113.09985 0.0011832173 -112.80264 0.89968723 -130.30234
10951065625 0.88062441 -146.54263 0.0013745431 -113.67028 0.0011931462 -113.89165 0.89910781 -130.32828
10951100000 0.88041741 -146.60703 0.0013723933 -112.37264 0.0012097585 -113.7565 0.8989985 -130.32349
10951134375 0.88023061 -146.5265 0.0013602827 -113.58022 0.0011847817 -113.04228 0.89887762 -130.29114
10951168750 0.87927276 -146.56769 0.0014166812 -114.35534 0.0012077567 -114.31007 0.90023291 -130.32924
10951203125 0.88001299 -146.6179 0.0013836951 -114.40662 0.0012170055 -112.97659 0.90002394 -130.28185
10951237500 0.87848228 -146.57051 0.0013850805 -113.54777 0.0011866642 -113.97373 0.89946872 -130.32582
10951271875 0.87973857 -146.65808 0.0013261193 -115.50383 0.0011706098 -113.71483 0.89926541 -130.37486
10951306250 0.87823159 -146.52736 0.001374067 -114.27258 0.0011854351 -113.6701 0.90042603 -130.33035
10951340625 0.87927645 -146.57071 0.0013678857 -113.60254 0.0011626085 -113.51527 0.89924741 -130.2491
10951375000 0.88002664 -146.57005 0.001323125 -114.3187 0.0011966291 -114.70589 0.89864939 -130.29207
10951409375 0.8794995 -146.56726 0.0013573536 -114.12227 0.0011962932 -114.71941 0.90010327 -130.32198
10951443750 0.87885255 -146.61748 0.0014049674 -113.72036 0.0012069765 -113.64564 0.89916641 -130.29428
10951478125 0.88087898 -146.63144 0.0013640957 -113.21783 0.0011761814 -114.35571 0.89958656 -130.28575
10951512500 0.88017124 -146.68217 0.0013692856 -112.06422 0.001202517 -113.38465 0.8997764 -130.26865
10951546875 0.88023287 -146.61745 0.0013395648 -114.05768 0.0011616399 -112.91816 0.8981716 -130.32848
10951581250 0.88098353 -146.63358 0.0013855321 -114.24556 0.0011713828 -113.85713 0.89794654 -130.26518
10951615625 0.88039631 -146.57784 0.0013762657 -112.96989 0.0011769444 -113.67589 0.89835531 -130.2663
10951650000 0.88052189 -146.63257 0.001344358 -116.23815 0.001206389 -114.23095 0.89893091 -130.38483
10951684375 0.88070238 -146.59125 0.0013610509 -113.05447 0.0011762062 -113.76882 0.89944816 -130.36911
10951718750 0.88029951 -146.60936 0.0013799954 -113.35566 0.0011664464 -112.93661 0.89952236 -130.28925
10951753125 0.87982047 -146.65712 0.0013659835 -115.77528 0.0012196137 -113.45132 0.90057862 -130.36697
10951787500 0.87936485 -146.67752 0.0013450475 -114.53296 0.0011597811 -114.05085 0.90046084 -130.30734
10951821875 0.87961042 -146.65967 0.001341138 -113.79865 0.0011829019 -114.00567 0.89990926 -130.28206
10951856250 0.87933916 -146.63153 0.0013685506 -114.89171 0.0011818914 -114.46005 0.8984881 -130.38928
10951890625 0.88050318 -146.61783 0.0013318401 -113.57549 0.0011827853 -114.03442 0.89889646 -130.40767
10951925000 0.87976104 -146.67416 0.0013825743 -114.20845 0.0011810909 -113.52435 0.89848816 -130.41521
10951959375 0.8802309 -146.66336 0.0013306331 -114.81741 0.0011953124 -114.2818 0.89926755 -130.43994
10951993750 0.88066894 -146.70889 0.0013481512 -115.8914 0.0012161238 -114.63067 0.89811027 -130.43228
10952028125 0.88014585 -146.72881 0.0013240156 -114.26095 0.0011889964 -114.67385 0.89819062 -130.42172
10952062500 0.8796097 -146.73106 0.0013558704 -114.2303 0.0012050718 -114.28551 0.89910781 -130.37193
10952096875 0.88083577 -146.7168 0.0013605095 -114.98386 0.0011874714 -114.9623 0.89867431 -130.40758
10952131250 0.87940919 -146.6866 0.0013391816 -112.65286 0.001192037 -114.06663 0.8987146 -130.43292
10952165625 0.87926757 -146.69682 0.0013632043 -115.22243 0.0011974939 -114.77811 0.89894557 -130.39859
10952200000 0.8780455 -146.74985 0.0013526562 -114.85131 0.00118781 -114.89221 0.90065664 -130.45239
10952234375 0.87811214 -146.73238 0.0013688705 -114.61444 0.0012211135 -112.86658 0.89992124 -130.32678
10952268750 0.87971896 -146.70877 0.0013639914 -115.65036 0.0012145268 -113.60505 0.89965725 -130.40508
10952303125 0.87869221 -146.7262 0.0013871631 -114.17931 0.0012119728 -114.31677 0.89894408 -130.44524
10952337500 0.87988865 -146.75526 0.0013282227 -114.77872 0.0011866287 -115.72321 0.89972961 -130.43651
10952371875 0.87842321 -146.78918 0.0013464784 -113.80901 0.0011946149 -113.50691 0.89942598 -130.44064
10952406250 0.8796612 -146.82388 0.0013608465 -113.86232 0.0011955999 -114.63167 0.89944303 -130.50279
10952440625 0.87926793 -146.70784 0.0013455577 -114.77208 0.0011997605 -114.26807 0.89826357 -130.4416
10952475000 0.87880802 -146.76639 0.0013440221 -113.71283 0.001181838 -112.73776 0.89739585 -130.44579
10952509375 0.87949097 -146.69588 0.0013443369 -113.5909 0.0011558275 -112.77876 0.89806497 -130.47069
10952543750 0.87987751 -146.68678 0.0013322606 -113.42463 0.0011670997 -114.41079 0.89840066 -130.4955
10952578125 0.87983495 -146.67798 0.0013508021 -113.73087 0.0011785619 -113.74113 0.89923728 -130.51245
10952612500 0.88005334 -146.69106 0.0013629821 -115.11784 0.0011557946 -113.85886 0.89926744 -130.43452
10952646875 0.87969297 -146.71606 0.0013307496 -114.12074 0.001202081 -114.29142 0.89966762 -130.3894
10952681250 0.87844861 -146.73434 0.0013425882 -116.02097 0.0011951827 -113.24409 0.89986068 -130.40799
10952715625 0.87911391 -146.75179 0.0013036465 -113.90015 0.0011755114 -112.66592 0.89918685 -130.47588
10952750000 0.87835789 -146.70265 0.001333933 -114.89828 0.0011942459 -112.59457 0.90008515 -130.40643
10952784375 0.87955493 -146.69167 0.0013224027 -114.41835 0.0011733617 -114.35567 0.89986247 -130.40919
10952818750 0.87936997 -146.77554 0.0013299022 -114.70069 0.0012090968 -114.82499 0.8991726 -130.41843
10952853125 0.87908268 -146.7043 0.0013089675 -113.04581 0.0011914488 -114.49751 0.89983582 -130.48828
10952887500 0.88001359 -146.76027 0.0013296362 -112.82011 0.0011916315 -112.40283 0.89989632 -130.4248
10952921875 0.88072872 -146.78056 0.0013744495 -114.73618 0.001197831 -115.23854 0.89975607 -130.50949
10952956250 0.88072079 -146.74185 0.0013508567 -114.86037 0.0011754903 -112.95527 0.90030676 -130.4642
10952990625 0.88109374 -146.82181 0.0013586071 -114.84391 0.0011976248 -113.7104 0.89918357 -130.55103
10953025000 0.87918293 -146.77463 0.0013234373 -114.91497 0.0011889148 -113.42573 0.89992446 -130.43358
10953059375 0.87998599 -146.86482 0.0013579933 -115.312 0.0012088297 -115.37354 0.9000361 -130.47797
10953093750 0.88004208 -146.83134 0.0013682385 -113.45908 0.0011880774 -115.79527 0.8982439 -130.55299
10953128125 0.88040531 -146.79042 0.0013502461 -116.38816 0.0012051327 -113.33827 0.89828104 -130.47899
10953162500 0.88075644 -146.82684 0.001325154 -116.17151 0.0011928114 -115.00983 0.89871085 -130.48279
10953196875 0.88096702 -146.78831 0.0013061119 -114.84621 0.0012197169 -115.99537 0.89913911 -130.50706
10953231250 0.87954313 -146.79106 0.001363614 -116.15591 0.0011800595 -112.81828 0.89872319 -130.52245
10953265625 0.87865067 -146.78162 0.001348944 -115.18111 0.0011900302 -114.19034 0.89979738 -130.45576
10953300000 0.87963873 -146.7455 0.0013345924 -115.13706 0.0011902665 -115.41021 0.90018082 -130.49661
10953334375 0.87911087 -146.77278 0.0013572002 -113.93122 0.0011920157 -114.85686 0.89968139 -130.51401
10953368750 0.8798129 -146.80861 0.0013596137 -114.45419 0.0011887788 -114.41744 0.90033454 -130.55453
10953403125 0.87876815 -146.76537 0.0013443847 -114.41147 0.0011869762 -114.87463 0.90029079 -130.53226
10953437500 0.87893766 -146.80385 0.0013046341 -113.93602 0.001193071 -116.18917 0.90036535 -130.43059
10953471875 0.87935114 -146.77318 0.0013383514 -115.90471 0.0011933632 -113.70317 0.89987797 -130.48662
10953506250 0.88078392 -146.8186 0.0013223819 -116.35307 0.0011897266 -115.7419 0.89937425 -130.48653
10953540625 0.87983692 -146.85117 0.0013501382 -114.708 0.0011941334 -114.69822 0.89996678 -130.50128
10953575000 0.87921238 -146.87073 0.0012799399 -115.68362 0.001195509 -112.81548 0.8990919 -130.48819
10953609375 0.87916571 -146.88493 0.0013616997 -115.86191 0.0011777397 -113.73029 0.90010965 -130.54372
10953643750 0.87852871 -146.94601 0.0013439077 -114.55025 0.0012016821 -113.48621 0.90020609 -130.5605
10953678125 0.87921125 -146.91519 0.0013045978 -115.57791 0.0011640618 -114.02588 0.89992011 -130.55029
10953712500 0.87836301 -146.82947 0.0013451191 -114.52489 0.0011880541 -115.77104 0.89978147 -130.52762
10953746875 0.87936348 -146.90353 0.0013055193 -114.35878 0.0011983208 -114.0774 0.898799 -130.57472
10953781250 0.88026518 -146.81345 0.001305007 -113.42958 0.001176266 -113.09117 0.89821571 -130.53487
10953815625 0.87999046 -146.78673 0.0013138326 -114.58118 0.001156847 -115.38879 0.89861155 -130.52481
10953850000 0.88052052 -146.82022 0.0013070842 -114.28767 0.0011873754 -114.95099 0.89980501 -130.54048
10953884375 0.88049352 -146.81291 0.0012794136 -113.23475 0.0011764414 -114.45956 0.89944583 -130.57272
10953918750 0.87959743 -146.8286 0.0013124909 -114.55292 0.001188644 -114.98594 0.90005624 -130.51759
10953953125 0.87932575 -146.90028 0.0013216299 -115.33221 0.0011697937 -114.91773 0.89983982 -130.55528
10953987500 0.88010514 -146.84126 0.0013314007 -115.12357 0.0011977415 -115.65711 0.89850843 -130.55464
10954021875 0.87966996 -146.77643 0.0013137213 -114.97551 0.0011672681 -114.10575 0.89903992 -130.56972
10954056250 0.88003516 -146.89792 0.0013177721 -113.01501 0.0011988892 -115.50522 0.89921296 -130.55486
10954090625 0.87994629 -146.91748 0.0013577763 -114.692 0.0011578469 -113.97853 0.89950168 -130.59512
10954125000 0.87832433 -146.9476 0.0013035849 -114.93121 0.0011714872 -113.73458 0.89859253 -130.55299
10954159375 0.88034284 -146.89319 0.0012704788 -114.46942 0.0011263386 -115.68823 0.89927983 -130.50748
10954193750 0.87949425 -146.88983 0.001315702 -113.91305 0.0011721097 -114.10146 0.89847583 -130.58992
10954228125 0.87980545 -146.85475 0.0013029064 -114.38235 0.0011928042 -112.81873 0.89855087 -130.56813
10954262500 0.88011479 -146.94762 0.0012843225 -115.54552 0.0011556554 -112.701 0.89906973 -130.58401
10954296875 0.8794719 -146.95793 0.0013071224 -113.40129 0.0011677354 -114.33753 0.89868116 -130.6895
10954331250 0.87903714 -146.97101 0.0013354886 -114.18806 0.0011951358 -114.61716 0.89982402 -130.62837
10954365625 0.87925076 -146.9435 0.0012891539 -114.96248 0.0011605574 -115.07618 0.89971024 -130.59671
10954400000 0.8793692 -146.91914 0.001308809 -114.30885 0.0012044267 -114.1966 0.89976346 -130.57175
10954434375 0.87888992 -146.94676 0.0013284531 -113.92407 0.0011575614 -113.28579 0.8992278 -130.6124
10954468750 0.880503 -146.95486 0.0013162517 -115.76237 0.0011554054 -114.58248 0.89880615 -130.68732
10954503125 0.88078201 -146.94199 0.0012901694 -114.7942 0.0011405527 -115.91662 0.89859056 -130.65108
10954537500 0.88010895 -146.86029 0.0013018283 -117.11794 0.0011676225 -115.85664 0.89939511 -130.677
10954571875 0.88001436 -146.82285 0.001302961 -114.94912 0.0011823877 -113.45774 0.89858711 -130.57471
10954606250 0.87926805 -146.94884 0.0012683402 -116.06499 0.0011842401 -115.54016 0.89942902 -130.56938
10954640625 0.87990916 -146.93115 0.0013127007 -115.60419 0.0012046227 -114.31116 0.89972299 -130.62148
10954675000 0.87984061 -146.90685 0.001270834 -113.64966 0.001167539 -114.36237 0.89855206 -130.62199
10954709375 0.8796469 -146.91368 0.0012923514 -116.1357 0.0011849859 -113.44469 0.89843374 -130.67274
10954743750 0.87971407 -146.90277 0.0012839019 -114.57211 0.0011672957 -114.1008 0.89797711 -130.62767
10954778125 0.8803432 -146.94933 0.0012956437 -115.93685 0.0012030271 -115.41741 0.89865601 -130.67186
10954812500 0.88125253 -146.99438 0.001297275 -114.56869 0.0011636865 -115.24681 0.89864892 -130.67116
10954846875 0.88011169 -146.98692 0.0013058891 -114.99498 0.001156196 -115.69188 0.89819539 -130.60504
10954881250 0.87935084 -147.03719 0.0013168888 -115.20339 0.0011650616 -113.60133 0.89955842 -130.76471
10954915625 0.87917149 -146.99779 0.0012867273 -115.96719 0.0011670913 -114.32457 0.89890391 -130.67566
10954950000 0.87898946 -147.04742 0.0012847072 -115.55853 0.0011362059 -115.40632 0.89881998 -130.64429
10954984375 0.879089 -147.03552 0.0012729468 -114.46574 0.0011409826 -114.05263 0.89921677 -130.56697
10955018750 0.87990487 -147.02359 0.0012602725 -115.63666 0.00113675 -114.47416 0.89925015 -130.61118
10955053125 0.87918681 -146.98647 0.0012575451 -114.63692 0.0011605386 -114.88283 0.89946526 -130.68173
10955087500 0.88044155 -146.99205 0.0012680637 -114.60436 0.0011695662 -114.18058 0.89955312 -130.77846
10955121875 0.87965918 -146.94998 0.0013105205 -114.76431 0.0011356696 -113.45283 0.89977306 -130.73267
10955156250 0.87824035 -146.89981 0.0012855708 -114.65956 0.0011589437 -114.62289 0.89966232 -130.71315
10955190625 0.87837946 -146.94281 0.001274741 -114.39816 0.0011343028 -113.5029 0.89857244 -130.73398
10955225000 0.87915885 -146.96671 0.0012588579 -113.80305 0.0011590961 -114.24314 0.89966655 -130.71434
10955259375 0.88017303 -147.02138 0.0012924665 -115.92123 0.001155932 -114.29916 0.89872205 -130.73874
10955293750 0.87991303 -147.06209 0.0012881788 -114.70987 0.0011448672 -113.92017 0.8996008 -130.69965
10955328125 0.8798843 -146.95189 0.0012802988 -113.91225 0.0011362925 -112.45226 0.89907193 -130.78546
10955362500 0.8799088 -146.90259 0.001295272 -114.66479 0.0011445036 -113.76068 0.89874476 -130.7388
10955396875 0.87968564 -146.93199 0.0012281208 -114.23533 0.0011617106 -115.34815 0.89845651 -130.8243
10955431250 0.87941509 -146.98854 0.0012794245 -115.48218 0.0011666537 -115.56604 0.89979637 -130.68544
10955465625 0.87947923 -146.95026 0.0012971123 -115.40564 0.00116093 -112.90826 0.89975721 -130.70897
10955500000 0.87882215 -147.06458 0.0012675249 -114.78764 0.0011677311 -113.89022 0.89843684 -130.70833
10955534375 0.87963879 -147.05687 0.0012825408 -115.32011 0.0011395898 -113.99231 0.8991738 -130.73065
10955568750 0.87911206 -146.98927 0.0012760662 -116.06759 0.0011470629 -114.46181 0.89940947 -130.76624
10955603125 0.87951177 -146.94998 0.0012840844 -114.86914 0.0011497057 -114.11024 0.89906234 -130.70483
10955637500 0.88067347 -147.01906 0.0012659156 -115.85835 0.001170087 -113.13449 0.89854884 -130.74324
10955671875 0.88091749 -147.07758 0.0012533764 -115.37453 0.0011255477 -112.95481 0.89833134 -130.86382
10955706250 0.88039982 -147.04654 0.0012641642 -114.44449 0.0011713618 -112.08045 0.89926708 -130.79144
10955740625 0.87917578 -147.10129 0.0012631207 -114.72449 0.0011545176 -113.50402 0.8998946 -130.79916
10955775000 0.8786934 -147.01445 0.0012653209 -113.53108 0.0011323387 -113.72557 0.89929593 -130.73956
10955809375 0.87893867 -147.11014 0.001286858 -114.64683 0.00113644 -112.46423 0.89891499 -130.81281
10955843750 0.87929356 -147.05342 0.0012634774 -113.71547 0.001159012 -114.09354 0.89988595 -130.74382
10955878125 0.87870544 -147.07573 0.0012532814 -113.65919 0.001153424 -114.06758 0.89886433 -130.80244
10955912500 0.87793595 -147.0692 0.001255902 -115.45818 0.0011403518 -113.08824 0.89816225 -130.77785
10955946875 0.87908459 -147.02626 0.0012611522 -113.58992 0.0011569648 -111.53252 0.89970076 -130.76384
10955981250 0.87878859 -147.08112 0.0012442151 -113.60304 0.0011303772 -113.83858 0.90075147 -130.84924
10956015625 0.87968874 -147.02438 0.0012636887 -115.34412 0.0011215054 -114.92251 0.90063 -130.80644
10956050000 0.87939656 -147.04079 0.0012504443 -115.16278 0.00114992 -111.99725 0.89979887 -130.78334
10956084375 0.88005942 -147.09338 0.0012385929 -113.84107 0.0011441127 -112.99038 0.90069854 -130.82524
10956118750 0.87995172 -147.11592 0.0012493943 -114.79174 0.0011402102 -113.42768 0.90033817 -130.80446
10956153125 0.87963039 -147.06403 0.0012383789 -113.80671 0.0011534942 -113.7734 0.90023392 -130.76305
10956187500 0.87998354 -147.18735 0.0012522242 -113.43897 0.001129094 -114.1061 0.89901787 -130.79497
10956221875 0.88054675 -147.1261 0.0012753062 -113.9744 0.0011643548 -113.97402 0.8990221 -130.76903
10956256250 0.87956941 -147.18106 0.0012654681 -113.26357 0.0011371565 -113.64501 0.89965051 -130.72031
10956290625 0.88063419 -147.0959 0.0012584643 -114.72051 0.0011524984 -113.27953 0.89933461 -130.75735
10956325000 0.87965643 -147.08379 0.0012306873 -115.07511 0.0011529239 -113.67858 0.8993628 -130.85701
10956359375 0.8799808 -147.10309 0.0012638235 -113.07819 0.0011410669 -113.72823 0.89932573 -130.7989
10956393750 0.88078582 -147.09085 0.0012402799 -114.07784 0.0011336945 -114.67554 0.89886343 -130.782
10956428125 0.87996995 -147.06953 0.0012353885 -113.32637 0.0011374067 -114.86777 0.8986637 -130.73088
10956462500 0.87955987 -147.09285 0.0012555604 -113.78854 0.001142388 -114.81284 0.89903522 -130.85616
