!Agilent Technologies,E8362C,MY49020356,A.09.42.23
!Agilent E8362C: A.09.42.23
!Date: Saturday, September 11, 2021 04:24:44
!Correction: S11(Full 2 Port(1,2)) 
!S21(Full 2 Port(1,2)) 
!S12(Full 2 Port(1,2)) 
!S22(Full 2 Port(1,2)) 
!S2P File: Measurements: S11, S21, S12, S22:
# Hz S  MA   R 50
10950000000 0.87296432 -148.08298 0.001406523 -109.31115 0.0011650466 -111.03008 0.89493757 -122.78097
10950034375 0.87151599 -148.10321 0.0014073653 -110.85417 0.0011387221 -111.17381 0.89335185 -122.76761
10950068750 0.87262875 -148.12587 0.0013795967 -111.06192 0.0011465373 -111.3321 0.89413154 -122.78349
10950103125 0.87280345 -148.0509 0.0014119151 -110.40469 0.001139706 -113.30438 0.89458275 -122.82295
10950137500 0.87261373 -148.14951 0.0013670743 -109.51326 0.0011481901 -111.46417 0.89444101 -122.80623
10950171875 0.87397605 -148.11507 0.0013600652 -110.74746 0.0011648627 -111.13334 0.89544004 -122.92835
10950206250 0.87278199 -148.15854 0.0013747693 -110.86434 0.0011311682 -110.51266 0.89392769 -122.82859
10950240625 0.87327057 -148.14044 0.0013914723 -111.81168 0.0011276588 -112.45089 0.89332294 -122.8651
10950275000 0.87397301 -148.18687 0.0013798043 -110.21207 0.0011283855 -112.03079 0.89399856 -122.87402
10950309375 0.87365764 -148.12512 0.0013886745 -111.14571 0.0011439347 -110.44662 0.89477623 -122.81461
10950343750 0.87355781 -148.08846 0.0013981544 -110.07587 0.0011532793 -110.73789 0.89557338 -122.83112
10950378125 0.87227666 -148.05344 0.0013856355 -111.04322 0.0011620959 -112.21372 0.89548904 -122.85332
10950412500 0.87166923 -148.12143 0.0013567988 -110.17916 0.0011626454 -111.29469 0.89561146 -122.82867
10950446875 0.87248653 -148.10722 0.001370682 -111.26842 0.0011484567 -109.05256 0.89486653 -122.84969
10950481250 0.87295187 -148.13908 0.0013877626 -111.88054 0.0011704875 -110.45911 0.893821 -122.88987
10950515625 0.87438661 -148.07834 0.0013586904 -111.21853 0.001174416 -111.44827 0.89351356 -122.87286
10950550000 0.87376469 -148.11818 0.0014059658 -110.74451 0.0011483445 -110.75304 0.89412636 -122.86168
10950584375 0.87277287 -148.06873 0.0014034566 -112.49196 0.0011321465 -111.99604 0.89463925 -122.85873
10950618750 0.8724674 -148.08234 0.0013709996 -111.32323 0.001137231 -111.26926 0.8941952 -122.94884
10950653125 0.87191838 -148.03481 0.0014052691 -112.22546 0.0011397999 -111.23426 0.89337957 -122.91541
10950687500 0.87152094 -148.02553 0.0013855252 -111.97351 0.00114699 -111.18359 0.8941471 -122.8786
10950721875 0.8718394 -148.02989 0.001361805 -110.34168 0.0011775778 -110.77325 0.89401215 -122.92088
10950756250 0.87342179 -148.11246 0.0013516915 -109.74231 0.0011392512 -112.7187 0.89401793 -122.87564
10950790625 0.87366492 -148.10156 0.0013492822 -111.237 0.0011490628 -111.15324 0.89370459 -122.81291
10950825000 0.87336439 -148.07692 0.0013735553 -111.25541 0.0011341324 -110.80029 0.89431989 -122.85487
10950859375 0.87150675 -148.14413 0.0013943464 -109.2463 0.0011443725 -111.18079 0.89311379 -122.93863
10950893750 0.87320149 -148.17339 0.0014029194 -111.53992 0.0011438034 -111.63984 0.89453554 -122.87025
10950928125 0.87324578 -148.09909 0.0013794741 -111.57736 0.0011210467 -111.93627 0.89274859 -122.85869
10950962500 0.87285566 -148.13719 0.0013957449 -109.81153 0.0011515043 -110.5849 0.89423066 -122.86071
10950996875 0.87196606 -148.13252 0.0013635692 -111.79321 0.0011416089 -111.81909 0.89466798 -122.91692
10951031250 0.87415624 -148.19316 0.001381491 -110.29925 0.0011561376 -112.29631 0.89410663 -122.88465
10951065625 0.87271643 -148.25131 0.0013514217 -112.01775 0.0011736328 -110.24762 0.89302319 -122.91302
10951100000 0.87376755 -148.18227 0.0013661705 -109.84804 0.0011504897 -112.26427 0.8930735 -122.94055
10951134375 0.87225872 -148.19637 0.0013589521 -111.57456 0.0011356125 -110.65166 0.89410323 -122.93928
10951168750 0.87332827 -148.14436 0.0013829482 -111.50932 0.0011563227 -111.1489 0.89368671 -122.92017
10951203125 0.87282026 -148.21811 0.0013817517 -110.28092 0.0011263938 -112.07668 0.89388359 -122.87897
10951237500 0.87293398 -148.21483 0.0013717776 -112.64868 0.0011427802 -111.74943 0.89362186 -122.9229
10951271875 0.87375754 -148.14169 0.0013753149 -110.99193 0.0011226718 -110.84414 0.89371806 -122.86488
10951306250 0.87226528 -148.11893 0.0013696714 -111.55972 0.001152698 -110.46032 0.89410394 -122.88335
10951340625 0.87353253 -148.12766 0.0013622518 -110.88983 0.0011412529 -109.77233 0.89452505 -122.87019
10951375000 0.87263596 -148.10327 0.001365385 -110.4492 0.0011736704 -112.22516 0.89358723 -122.91602
10951409375 0.8722167 -148.1713 0.0013943664 -111.65649 0.0011634636 -111.10776 0.89394408 -122.98982
10951443750 0.87213677 -148.16435 0.0013904409 -110.30489 0.001152609 -110.29085 0.89397675 -122.99976
10951478125 0.87269515 -148.17021 0.0013626412 -111.8284 0.0011193216 -111.37617 0.89291072 -122.9166
10951512500 0.87411189 -148.24011 0.0013288002 -111.07671 0.0011175362 -111.22266 0.8938067 -123.00093
10951546875 0.87343407 -148.25856 0.0013756695 -111.46211 0.0011485617 -112.36169 0.89347982 -122.87445
10951581250 0.87397778 -148.24435 0.0013527493 -111.43064 0.0011826996 -111.76128 0.89331627 -122.94645
10951615625 0.87417543 -148.25156 0.0013905498 -110.75726 0.0011363931 -111.02467 0.89217359 -122.97964
10951650000 0.87258917 -148.18105 0.0013760808 -109.79304 0.0011152517 -110.92601 0.89344805 -122.97708
10951684375 0.87326384 -148.21817 0.0013796833 -111.25105 0.0011509261 -111.99241 0.89463729 -122.95181
10951718750 0.87348735 -148.23787 0.0014077374 -110.09224 0.0011497948 -111.1434 0.89427114 -122.99342
10951753125 0.87221974 -148.2439 0.0013766442 -109.20145 0.0011525666 -111.65068 0.89438641 -122.96165
10951787500 0.87213987 -148.21007 0.0013405695 -109.8839 0.001153773 -110.72559 0.89458615 -122.91472
10951821875 0.8734625 -148.17441 0.0013996048 -111.73036 0.0011338964 -112.04778 0.89442515 -122.89084
10951856250 0.87265885 -148.23045 0.0013447194 -111.02985 0.0011522339 -111.67519 0.89351255 -123.03432
10951890625 0.87327361 -148.23192 0.0013823851 -112.23035 0.0011190204 -111.56631 0.89393514 -123.01317
10951925000 0.8730576 -148.21948 0.0013903871 -111.69634 0.0011287677 -112.01824 0.89342344 -123.00085
10951959375 0.87328959 -148.23758 0.001392138 -110.86945 0.0011419586 -112.4182 0.8931914 -123.05378
10951993750 0.87375069 -148.35228 0.001363082 -109.60764 0.0011605478 -111.40634 0.89375031 -123.06342
10952028125 0.87402433 -148.32146 0.0013961209 -111.78062 0.0011592172 -113.58144 0.89350039 -123.02625
10952062500 0.87311351 -148.3676 0.0013488249 -110.44389 0.0011746932 -112.40331 0.89386708 -123.04254
10952096875 0.87294042 -148.31467 0.0013882122 -110.71089 0.0011517566 -111.39935 0.89315379 -123.01437
10952131250 0.87325025 -148.31871 0.0014009464 -111.52877 0.0011728761 -110.4955 0.89280975 -122.9973
10952165625 0.87313724 -148.30159 0.0013568212 -111.9544 0.0011590888 -111.52993 0.8935495 -123.05299
10952200000 0.87228376 -148.31358 0.0013683245 -112.1358 0.0011444463 -110.88653 0.89362377 -123.05791
10952234375 0.87182403 -148.28564 0.0013792177 -111.13611 0.0011448757 -112.36577 0.89520788 -123.00784
10952268750 0.87284368 -148.33711 0.0013844132 -112.43384 0.0011360992 -110.47708 0.89384246 -123.0387
10952303125 0.87224329 -148.25279 0.0013850437 -110.19122 0.0011214956 -110.92313 0.89393139 -123.02196
10952337500 0.87172192 -148.32149 0.0013524587 -109.62582 0.0011382848 -112.69759 0.89412886 -123.07996
10952371875 0.87308341 -148.30394 0.0013427886 -111.26723 0.0011418811 -111.22384 0.89423448 -123.07214
10952406250 0.87394863 -148.37737 0.0013604849 -111.44334 0.0011294344 -110.98967 0.89346993 -123.12582
10952440625 0.87284791 -148.33475 0.0013514354 -110.08881 0.0011556552 -111.89125 0.89295322 -123.10265
10952475000 0.8717767 -148.30963 0.0013433105 -111.52353 0.0011410712 -111.65131 0.89333463 -123.06442
10952509375 0.87215394 -148.32372 0.0013587477 -113.59676 0.0011662415 -111.39609 0.89298797 -123.03292
10952543750 0.87345362 -148.28952 0.0013691129 -111.55196 0.0011658935 -110.15217 0.89307493 -123.07306
10952578125 0.87358642 -148.19958 0.001330168 -111.16061 0.0011663369 -111.96409 0.89332128 -123.08018
10952612500 0.87356436 -148.24683 0.0013637785 -112.6447 0.0011341987 -112.57677 0.89385128 -123.06007
10952646875 0.8723653 -148.26831 0.0013508729 -111.3947 0.0011494448 -112.36094 0.89402807 -123.08785
10952681250 0.87225306 -148.35989 0.0013635992 -111.78996 0.001147991 -110.21496 0.89435792 -123.03954
10952715625 0.87240326 -148.33694 0.0013352792 -113.38834 0.0011588751 -111.24383 0.89424127 -123.07522
10952750000 0.87324005 -148.31441 0.0013633365 -110.5201 0.0011332073 -111.01145 0.89426613 -123.07314
10952784375 0.87252873 -148.32475 0.0013592133 -110.88242 0.0011352822 -111.3297 0.89428663 -123.03019
10952818750 0.87246847 -148.28836 0.001352669 -111.36433 0.0011509871 -111.2936 0.89328653 -123.07225
10952853125 0.87232953 -148.33766 0.0013955078 -112.09644 0.0011511619 -112.05766 0.89413631 -123.06532
10952887500 0.87327605 -148.33823 0.0013537313 -110.70004 0.0011372927 -112.34218 0.89455312 -123.03603
10952921875 0.87357223 -148.38213 0.0013286909 -112.49426 0.001149543 -110.77611 0.89417714 -123.09031
10952956250 0.87348557 -148.41313 0.0013525054 -111.28746 0.0011442514 -112.39059 0.89428914 -123.05165
10952990625 0.8736493 -148.41092 0.0013583602 -112.2232 0.0011208017 -112.55145 0.89411312 -123.09325
10953025000 0.87287414 -148.43207 0.0013269826 -111.74708 0.0011666524 -111.87235 0.89403331 -123.11475
10953059375 0.87240082 -148.46408 0.0013640627 -112.93488 0.00114879 -114.15392 0.89315259 -123.15909
10953093750 0.87290382 -148.47607 0.0013635724 -110.25954 0.001165829 -111.60168 0.89295447 -123.14954
10953128125 0.87428302 -148.42087 0.0013762868 -114.46954 0.0011382032 -111.37139 0.89358652 -123.04131
10953162500 0.87279409 -148.41037 0.0013417659 -110.54306 0.0011826925 -111.65243 0.89360064 -123.13958
10953196875 0.87301391 -148.34706 0.0013288357 -112.67203 0.0011704878 -111.36729 0.89462459 -123.12879
10953231250 0.87366229 -148.36647 0.0013811179 -111.3376 0.0011361571 -111.15842 0.89305121 -123.10613
10953265625 0.87234741 -148.33087 0.0013482182 -112.24432 0.0011507903 -110.89314 0.89312428 -123.12027
10953300000 0.87152755 -148.36256 0.0013508234 -111.19496 0.0011312733 -111.97482 0.89390087 -123.13657
10953334375 0.87222028 -148.3667 0.0013555837 -111.70312 0.0011657369 -113.00935 0.89329302 -123.18312
10953368750 0.87228054 -148.35121 0.0013403711 -112.88113 0.0011455925 -112.30483 0.89466661 -123.13574
10953403125 0.87255406 -148.37564 0.0013523467 -112.72511 0.0011338824 -111.65791 0.89611709 -123.17398
10953437500 0.87239689 -148.44731 0.0013839816 -111.04007 0.0011297616 -111.79221 0.89471036 -123.12513
10953471875 0.87285465 -148.36592 0.0013447141 -112.93623 0.0011382452 -111.2129 0.89485192 -123.17244
10953506250 0.87292564 -148.43623 0.0013644075 -111.58874 0.0011304085 -111.39797 0.89316416 -123.18032
10953540625 0.87318057 -148.42113 0.0013125072 -112.76733 0.0011047584 -110.2375 0.89309454 -123.19285
10953575000 0.87145406 -148.40077 0.001316816 -110.86159 0.0011347256 -111.44667 0.89509076 -123.11826
10953609375 0.87287349 -148.47704 0.0013479481 -113.40318 0.0011333552 -111.65382 0.89460397 -123.06194
10953643750 0.87269717 -148.5634 0.0013581463 -112.77286 0.0011261352 -111.25388 0.89444512 -123.1375
10953678125 0.87208533 -148.5267 0.0013364706 -111.95509 0.0011232329 -111.05762 0.89495498 -123.17768
10953712500 0.8724649 -148.51683 0.0013528431 -113.19798 0.0011649469 -111.30913 0.89357585 -123.18625
10953746875 0.87276882 -148.46988 0.0013407613 -112.69716 0.0011662648 -110.62177 0.89449203 -123.22388
10953781250 0.87309134 -148.43898 0.0013165449 -112.54659 0.0011727602 -112.13441 0.89410245 -123.19189
10953815625 0.87355578 -148.42339 0.0012977649 -112.46426 0.001087525 -112.96375 0.89405274 -123.16745
10953850000 0.8733058 -148.31487 0.0013375395 -113.71606 0.0011140079 -112.09211 0.89352965 -123.17391
10953884375 0.87451535 -148.42126 0.0013953887 -112.05017 0.0011295228 -109.9796 0.89469218 -123.17172
10953918750 0.87202084 -148.34381 0.0013676282 -113.6552 0.0011509197 -111.45287 0.89398491 -123.1791
10953953125 0.87239569 -148.43401 0.0013177207 -110.16452 0.0011350159 -110.8326 0.894683 -123.21787
10953987500 0.87478471 -148.45004 0.0013515375 -113.16283 0.0011009382 -112.29079 0.89297491 -123.2198
10954021875 0.87367034 -148.40773 0.0013584956 -112.30286 0.0011303495 -110.68948 0.892937 -123.25031
10954056250 0.87292898 -148.44756 0.001357178 -111.82222 0.0011366836 -112.93755 0.89314604 -123.2144
10954090625 0.87219363 -148.48273 0.0013737553 -111.01678 0.001122167 -112.0189 0.89285547 -123.1895
10954125000 0.87201762 -148.5506 0.0013662586 -111.92136 0.0011477297 -112.10818 0.89393282 -123.26324
10954159375 0.8741048 -148.47462 0.0013226279 -112.28172 0.0011163394 -111.57727 0.89367342 -123.22302
10954193750 0.8731795 -148.49219 0.0013248445 -113.53366 0.0011246271 -111.03535 0.89196026 -123.24841
10954228125 0.87219656 -148.54607 0.0013061306 -112.86662 0.0011431503 -112.9982 0.8921957 -123.19697
10954262500 0.87348157 -148.47565 0.0013358283 -111.45903 0.001147682 -112.63838 0.89348137 -123.21872
10954296875 0.87341273 -148.53561 0.0013172005 -113.26328 0.0011339674 -111.77264 0.89396966 -123.26522
10954331250 0.87297767 -148.51801 0.0013311622 -113.66483 0.0011539331 -111.77696 0.89425892 -123.21309
10954365625 0.87255055 -148.57628 0.0013678955 -113.56785 0.0011147473 -111.22707 0.89419705 -123.20959
10954400000 0.87212461 -148.4912 0.0013145967 -111.80904 0.0010989161 -112.92226 0.89459819 -123.21352
10954434375 0.87232488 -148.56134 0.0013287527 -112.88109 0.0011403253 -112.5532 0.89389777 -123.21461
10954468750 0.87200981 -148.54778 0.0013085043 -112.38289 0.0011269681 -111.06512 0.89307839 -123.27515
10954503125 0.8742485 -148.47687 0.0013107086 -111.72981 0.0011330656 -109.74698 0.89333266 -123.23925
10954537500 0.87380701 -148.46553 0.001281935 -114.88658 0.0011336929 -111.85225 0.89412063 -123.21404
10954571875 0.8718766 -148.52046 0.0013231176 -113.10445 0.001148881 -111.81637 0.89359325 -123.28237
10954606250 0.87182218 -148.4895 0.0013331284 -113.43507 0.001097593 -113.24327 0.89409292 -123.23745
10954640625 0.87194884 -148.54578 0.0013084626 -111.99199 0.001117726 -111.05353 0.89402699 -123.27682
10954675000 0.87253749 -148.60791 0.0013202253 -113.06448 0.0011156403 -111.24435 0.89305925 -123.26951
10954709375 0.87207472 -148.53838 0.0012779576 -110.86721 0.0011410437 -111.81291 0.89397806 -123.29106
10954743750 0.87251377 -148.46344 0.0012776634 -113.63765 0.0011288387 -110.52232 0.89279741 -123.29144
10954778125 0.87304723 -148.55507 0.0013249534 -113.74029 0.0011053435 -112.67313 0.89259988 -123.30093
10954812500 0.87291354 -148.57195 0.0013410734 -112.7001 0.0011358066 -111.36745 0.89284915 -123.3165
10954846875 0.87275982 -148.62695 0.0013072947 -110.66342 0.0011354783 -112.75867 0.89373803 -123.35715
10954881250 0.87178421 -148.58223 0.0013307555 -112.12605 0.0011115118 -112.11478 0.89462084 -123.2923
10954915625 0.87280738 -148.58058 0.0013183752 -112.71986 0.0011333937 -110.97705 0.89449316 -123.32678
10954950000 0.87273771 -148.58986 0.0013160069 -111.18481 0.0011212339 -110.29267 0.89338106 -123.24187
10954984375 0.87279534 -148.65834 0.0012882306 -112.30853 0.0011039044 -109.85971 0.89291453 -123.17081
10955018750 0.8724553 -148.62177 0.0013386267 -112.92978 0.0011300567 -111.85217 0.89397907 -123.25805
10955053125 0.87301207 -148.63406 0.0013191797 -111.92722 0.001130106 -111.39432 0.89319366 -123.29206
10955087500 0.87113512 -148.56483 0.0012905615 -111.65369 0.0011182647 -112.04791 0.89343655 -123.36654
10955121875 0.87092596 -148.59248 0.0013026082 -112.49149 0.0011050773 -110.65571 0.89348859 -123.33721
10955156250 0.87198502 -148.63225 0.0013123887 -113.45181 0.001117422 -111.48356 0.89353222 -123.37675
10955190625 0.87103081 -148.59343 0.0013217448 -112.47767 0.0011214702 -109.79112 0.89385098 -123.33042
10955225000 0.87066269 -148.58568 0.0012883049 -111.46241 0.0011137662 -110.74157 0.8934648 -123.39185
10955259375 0.87360781 -148.61899 0.0013235863 -111.12807 0.0011092956 -110.7521 0.89319044 -123.38872
10955293750 0.87407315 -148.60846 0.0012726171 -113.41912 0.0010834573 -110.20644 0.8944546 -123.33601
10955328125 0.87226409 -148.60172 0.0013100017 -111.28678 0.0011047405 -110.69164 0.89306915 -123.31657
10955362500 0.87362468 -148.62613 0.0013472257 -112.58408 0.0011258688 -112.16465 0.89323026 -123.38274
10955396875 0.87288392 -148.63559 0.0012760266 -111.504 0.001071855 -113.3722 0.89355785 -123.43156
10955431250 0.87214577 -148.57173 0.001302059 -112.78471 0.0010732322 -110.25135 0.89331752 -123.33675
10955465625 0.87171227 -148.61009 0.0012835618 -111.99444 0.0010873253 -108.72928 0.89451391 -123.34769
10955500000 0.87195647 -148.63809 0.0012786789 -112.9173 0.0010944252 -112.15411 0.89330667 -123.40546
10955534375 0.87177575 -148.59895 0.0012853404 -112.6058 0.0011344136 -110.79002 0.89353514 -123.3016
10955568750 0.87195665 -148.61411 0.0013067668 -112.34391 0.001095627 -111.76415 0.89199823 -123.39062
10955603125 0.87220955 -148.64624 0.0013019267 -111.1521 0.0010780017 -111.81821 0.89257151 -123.35565
10955637500 0.87273318 -148.65971 0.0013039632 -112.47253 0.0011085412 -111.80286 0.89305061 -123.3724
10955671875 0.87459201 -148.6431 0.0013029644 -112.88402 0.0010979547 -110.26025 0.8923676 -123.44315
10955706250 0.87329251 -148.6413 0.0012816397 -111.55139 0.0010849979 -111.20196 0.89259535 -123.42595
10955740625 0.8727023 -148.69212 0.0012893425 -112.45883 0.0010879707 -110.15775 0.8936736 -123.39059
10955775000 0.87114352 -148.6069 0.0013063784 -112.33754 0.0011064613 -110.95291 0.89369339 -123.4221
10955809375 0.8717019 -148.59024 0.0012961597 -111.47223 0.0011059766 -111.5602 0.89290804 -123.36934
10955843750 0.87205696 -148.74976 0.0012885088 -112.61932 0.0011027146 -111.49686 0.8938238 -123.39625
10955878125 0.87265581 -148.68459 0.0012942315 -112.029 0.0011002757 -111.59538 0.89293438 -123.40247
10955912500 0.87114066 -148.79274 0.0012666229 -111.8783 0.0010984682 -110.66368 0.89178973 -123.45796
10955946875 0.87058461 -148.70566 0.001276179 -112.01841 0.0011105934 -110.2124 0.89310962 -123.43053
10955981250 0.87105656 -148.67975 0.0012515617 -113.41073 0.0010821533 -110.83106 0.893888 -123.46072
10956015625 0.87026221 -148.64636 0.0012643395 -111.50549 0.0010917018 -110.79002 0.8943575 -123.42633
10956050000 0.87168479 -148.61909 0.0012325473 -110.30367 0.0010866823 -109.16682 0.89394629 -123.36595
10956084375 0.87259066 -148.68649 0.0012981689 -110.35796 0.0010956792 -110.03792 0.89372295 -123.4489
10956118750 0.87246978 -148.66347 0.0012702955 -110.03487 0.0011138408 -111.75178 0.89443755 -123.39819
10956153125 0.87222677 -148.71669 0.0013040107 -111.38715 0.0011039593 -110.13377 0.89446616 -123.39438
10956187500 0.87169874 -148.70514 0.0012517095 -113.10807 0.0010719495 -111.197 0.89493555 -123.35749
10956221875 0.87232572 -148.64569 0.0012342206 -111.88576 0.0010843455 -111.72438 0.89311212 -123.42906
10956256250 0.87273782 -148.75612 0.0012187114 -111.72134 0.001093816 -111.7594 0.89280617 -123.4127
10956290625 0.87305766 -148.70009 0.0012751992 -112.27574 0.0010991317 -110.30057 0.89361101 -123.4445
10956325000 0.87250525 -148.67671 0.0012894839 -110.55077 0.0011099621 -110.78304 0.8937875 -123.51006
10956359375 0.87388194 -148.63785 0.0012460812 -111.60792 0.0011180562 -111.42662 0.89272577 -123.37514
10956393750 0.872455 -148.66455 0.0012617933 -111.75873 0.0010827633 -109.96878 0.89292687 -123.45025
10956428125 0.87282032 -148.69312 0.0012947002 -112.79986 0.0011104655 -109.76614 0.89207393 -123.43694
10956462500 0.87204105 -148.74863 0.0012545015 -111.21378 0.0010808884 -109.8231 0.89331657 -123.46037
