!Agilent Technologies,E8362C,MY49020356,A.09.42.23
!Agilent E8362C: A.09.42.23
!Date: Saturday, September 11, 2021 04:26:30
!Correction: S11(Full 2 Port(1,2)) 
!S21(Full 2 Port(1,2)) 
!S12(Full 2 Port(1,2)) 
!S22(Full 2 Port(1,2)) 
!S2P File: Measurements: S11, S21, S12, S22:
# Hz S  MA   R 50
10950000000 0.88475591 -147.12411 0.0013902928 -111.78967 0.0011518798 -113.40621 0.87983185 -124.64201
10950034375 0.88466376 -147.07069 0.0013779455 -109.13881 0.0011527666 -113.13107 0.87949204 -124.64814
10950068750 0.88471591 -147.1125 0.0013924175 -111.35279 0.0011345044 -112.9344 0.88039887 -124.67856
10950103125 0.88426745 -147.18085 0.0013363888 -111.59519 0.0011676756 -112.99453 0.88170123 -124.64417
10950137500 0.88575661 -147.18944 0.0013728924 -109.66869 0.0011659329 -112.48724 0.88038576 -124.72713
10950171875 0.88435584 -147.21175 0.0013676616 -109.88341 0.001190555 -112.92368 0.8811633 -124.66852
10950206250 0.88505858 -147.22899 0.0013571365 -111.14571 0.0011497261 -112.74893 0.88120532 -124.68721
10950240625 0.8855741 -147.1559 0.0013353415 -111.75594 0.0011336853 -114.64963 0.87972164 -124.67926
10950275000 0.88408095 -147.172 0.001368192 -110.92297 0.0011615551 -112.64876 0.88053101 -124.67802
10950309375 0.88469422 -147.15646 0.0013669095 -112.1356 0.0011474574 -114.12096 0.88097817 -124.74181
10950343750 0.8840099 -147.04535 0.0013850891 -110.23379 0.0011620552 -114.42833 0.88131839 -124.59471
10950378125 0.88359541 -147.07025 0.00135749 -111.19949 0.0011467775 -113.69904 0.88117146 -124.60448
10950412500 0.88425857 -147.13313 0.0013553675 -109.66557 0.0011643457 -113.15252 0.88157094 -124.63102
10950446875 0.88358182 -147.11748 0.001396672 -111.63707 0.0011595568 -113.7058 0.8805989 -124.66269
10950481250 0.88454026 -147.08842 0.0013888426 -109.80635 0.0011805779 -114.95734 0.88117814 -124.67648
10950515625 0.8851254 -147.19296 0.0013730788 -110.46377 0.001125975 -115.38194 0.88019162 -124.6425
10950550000 0.88357425 -147.10559 0.0013306179 -110.4877 0.001148715 -114.28983 0.87967592 -124.70885
10950584375 0.88307589 -147.12982 0.0013612391 -110.81946 0.0011773926 -114.84581 0.88074666 -124.69341
10950618750 0.88334268 -147.09605 0.001369214 -108.96738 0.001169152 -113.57735 0.88010085 -124.68516
10950653125 0.88317925 -147.07961 0.001326276 -111.11319 0.0011590098 -112.61269 0.88111448 -124.72622
10950687500 0.8833608 -147.11214 0.0013440994 -111.19088 0.0011410592 -113.74496 0.88148487 -124.67085
10950721875 0.88335115 -147.2175 0.0013850511 -110.76474 0.0011292945 -113.26149 0.88124186 -124.74928
10950756250 0.88316125 -147.14317 0.0013344524 -112.63214 0.0011765802 -113.87188 0.88088661 -124.65412
10950790625 0.88425577 -147.1687 0.0013832445 -110.17979 0.0011713732 -112.99652 0.88041747 -124.61263
10950825000 0.88401973 -147.11217 0.0013939246 -111.31863 0.0011694971 -113.25627 0.87963861 -124.65762
10950859375 0.88418251 -147.06667 0.0013677935 -110.15484 0.0011431285 -112.79856 0.88025838 -124.73598
10950893750 0.88483524 -147.14288 0.0013554221 -111.49121 0.0011521607 -112.94731 0.88064319 -124.68993
10950928125 0.88454473 -147.09926 0.0013669641 -111.69165 0.0011531705 -114.21227 0.88027984 -124.70755
10950962500 0.88529497 -147.12656 0.0013514463 -111.48152 0.0011625293 -115.09409 0.88033181 -124.67002
10950996875 0.88414532 -147.2634 0.0013199529 -112.90285 0.0011171382 -114.07079 0.88020492 -124.68325
10951031250 0.8847453 -147.1987 0.0013733582 -112.89223 0.0011715867 -113.38428 0.88068116 -124.69551
10951065625 0.8848325 -147.18497 0.0013428099 -111.44298 0.0011595037 -112.08228 0.88038981 -124.7451
10951100000 0.88496518 -147.19472 0.0013544137 -111.17819 0.0011744298 -114.99364 0.88051963 -124.73743
10951134375 0.88440019 -147.22221 0.0013667924 -110.42204 0.001147671 -113.80689 0.88082427 -124.83638
10951168750 0.88447231 -147.19696 0.0013612289 -111.19535 0.0011447438 -113.25021 0.88113022 -124.72625
10951203125 0.88431579 -147.24724 0.0013601886 -109.50782 0.0011418869 -112.00388 0.88107473 -124.72283
10951237500 0.88422328 -147.29247 0.001335745 -112.16022 0.0011441825 -114.47653 0.88060373 -124.75309
10951271875 0.88480836 -147.24219 0.0013487979 -111.98326 0.0011408884 -112.09372 0.88147449 -124.73164
10951306250 0.88455993 -147.16026 0.0013456957 -111.65385 0.0011338106 -113.06149 0.88165992 -124.7234
10951340625 0.88439834 -147.13023 0.0013445747 -112.22924 0.0011440958 -112.82492 0.88135493 -124.76325
10951375000 0.88513654 -147.16385 0.0013446343 -113.37005 0.0011579205 -113.12226 0.88052529 -124.79088
10951409375 0.88479155 -147.24615 0.001360835 -110.67111 0.0011139984 -114.89446 0.87941647 -124.73342
10951443750 0.88397902 -147.2058 0.0013484558 -111.55771 0.0011360106 -111.11336 0.8816604 -124.82124
10951478125 0.88416845 -147.24443 0.0013523023 -111.99027 0.0011483936 -114.4371 0.87974268 -124.77399
10951512500 0.88450915 -147.29919 0.0013710808 -111.53376 0.001142824 -113.97182 0.88017821 -124.77771
10951546875 0.88436049 -147.27222 0.0013500592 -111.09177 0.0011907455 -112.31371 0.88001341 -124.75039
10951581250 0.88399208 -147.21339 0.0013370775 -112.55313 0.0011226999 -112.43639 0.87933975 -124.74275
10951615625 0.88528711 -147.22369 0.0013208869 -111.22597 0.0011658522 -113.36439 0.88076335 -124.83676
10951650000 0.88510907 -147.15514 0.0013308754 -111.11495 0.0011447771 -112.86018 0.87969297 -124.78909
10951684375 0.88456368 -147.1906 0.0013609813 -112.18179 0.00115431 -112.63852 0.8807258 -124.79605
10951718750 0.88628083 -147.22604 0.0013425278 -111.87115 0.0011347021 -113.2155 0.88072419 -124.76615
10951753125 0.88426006 -147.2494 0.0013712459 -111.15689 0.0011464375 -113.90097 0.88058776 -124.72136
10951787500 0.88298184 -147.25572 0.0013286188 -110.64211 0.0011340042 -112.96988 0.88141805 -124.75719
10951821875 0.88302481 -147.20706 0.0013225079 -111.1 0.0011393171 -112.73752 0.88188261 -124.7441
10951856250 0.88388735 -147.2144 0.0013247775 -112.07541 0.0011560719 -112.61169 0.88088292 -124.77842
10951890625 0.88456666 -147.2403 0.0013466737 -111.09508 0.0011186337 -114.94442 0.88025486 -124.84208
10951925000 0.88486308 -147.28218 0.0013289438 -112.14717 0.0011699433 -113.25545 0.88016707 -124.80918
10951959375 0.88545012 -147.34761 0.0013589283 -112.064 0.0011287705 -115.14374 0.88032073 -124.84971
10951993750 0.88430017 -147.32269 0.0013512722 -112.14338 0.0011460457 -111.24864 0.87934273 -124.8771
10952028125 0.88549954 -147.28119 0.001315617 -109.8164 0.0011677493 -113.45138 0.87984824 -124.82473
10952062500 0.88472188 -147.37561 0.0013254703 -110.54108 0.0011452696 -112.7971 0.88004261 -124.84995
10952096875 0.88481331 -147.30728 0.0013307215 -110.9287 0.0011330192 -113.82511 0.87931156 -124.88762
10952131250 0.88460284 -147.38589 0.0013207104 -112.25655 0.0011361928 -112.63001 0.87907332 -124.81142
10952165625 0.88298237 -147.36752 0.0013530002 -111.12264 0.0011591925 -114.96877 0.88078773 -124.93143
10952200000 0.8838498 -147.42574 0.001348059 -112.57217 0.0011288637 -113.24718 0.88026178 -124.83025
10952234375 0.8832674 -147.3676 0.0013476479 -111.62572 0.0011371749 -113.37067 0.87928092 -124.85366
10952268750 0.88294339 -147.3244 0.0013264646 -112.05103 0.0011265319 -112.60592 0.87945884 -124.86489
10952303125 0.88356543 -147.32104 0.0013290475 -112.42828 0.0011349305 -113.0293 0.88073426 -124.92268
10952337500 0.8839097 -147.38168 0.0013000773 -111.42519 0.001140518 -113.76753 0.87963527 -124.92517
10952371875 0.88350636 -147.33315 0.001354363 -111.06854 0.0011533562 -113.36118 0.88057387 -124.90554
10952406250 0.88408118 -147.41035 0.0013519952 -111.68877 0.0011374637 -112.93301 0.8803677 -124.88335
10952440625 0.88350719 -147.4581 0.0013428272 -111.62579 0.0011595049 -112.44381 0.87996143 -124.88519
10952475000 0.88364697 -147.35312 0.0013579755 -111.56771 0.0011488153 -115.65694 0.87915283 -124.90232
10952509375 0.8836177 -147.35248 0.0013420297 -112.54711 0.0011613418 -112.94995 0.8790006 -124.88883
10952543750 0.88452268 -147.39114 0.0013485868 -112.50214 0.0011524766 -113.22123 0.8798486 -124.87654
10952578125 0.88416684 -147.26247 0.0013476848 -111.95056 0.0011148831 -113.52922 0.87949008 -124.82757
10952612500 0.88367599 -147.29434 0.0013184006 -110.41948 0.0011568588 -114.20315 0.88030189 -124.86949
10952646875 0.8833158 -147.31171 0.001345557 -112.24244 0.0011528998 -112.97634 0.88083422 -124.91843
10952681250 0.88361907 -147.39407 0.0013159297 -111.53583 0.0011480579 -114.24648 0.88095659 -124.86948
10952715625 0.88357544 -147.42172 0.001311886 -110.67596 0.0011520156 -112.30616 0.88036269 -124.92304
10952750000 0.88411802 -147.35962 0.0013435108 -111.56817 0.0011466281 -113.17858 0.8800326 -124.86124
10952784375 0.8830331 -147.33177 0.001342312 -110.91118 0.0011202107 -113.39191 0.88012993 -124.8466
10952818750 0.88247788 -147.3721 0.0012730625 -110.97375 0.001141373 -114.54404 0.8803829 -124.90756
10952853125 0.88327581 -147.37613 0.0013412163 -111.87663 0.0011251186 -114.11262 0.8801831 -124.88323
10952887500 0.88427395 -147.32918 0.0013102073 -112.59222 0.0011660747 -114.28133 0.88033259 -124.86082
10952921875 0.88541716 -147.44321 0.0013463888 -110.5267 0.0011221151 -114.23334 0.88051409 -124.85616
10952956250 0.88471001 -147.39951 0.0013332696 -111.67809 0.0011491228 -112.62709 0.88127816 -124.83897
10952990625 0.88533515 -147.41328 0.0013191464 -111.09084 0.0011443184 -113.90717 0.88151377 -124.93364
10953025000 0.88355511 -147.46089 0.0013311193 -112.37645 0.0011513331 -113.40618 0.88066924 -124.95715
10953059375 0.8832885 -147.41127 0.0012955893 -111.97144 0.0011379963 -113.8836 0.88001102 -124.97614
10953093750 0.88427997 -147.46892 0.0013286766 -111.76611 0.0011598805 -114.40251 0.87995553 -124.94256
10953128125 0.88465136 -147.38492 0.001276072 -112.55404 0.0011556725 -113.58434 0.87991154 -124.89987
10953162500 0.88426995 -147.44595 0.0013466493 -111.45103 0.0011635184 -113.48402 0.87986624 -124.92831
10953196875 0.88431174 -147.45863 0.0013258512 -110.67532 0.0011214112 -114.40674 0.87918973 -124.9465
10953231250 0.88506335 -147.41689 0.0013326092 -110.98369 0.0011492157 -113.38773 0.87963778 -124.96851
10953265625 0.88443583 -147.37471 0.0013370035 -113.33864 0.0011298329 -114.08979 0.87997866 -124.98726
10953300000 0.88307095 -147.37492 0.0013250564 -111.82569 0.0011263333 -112.98879 0.88107288 -124.97472
10953334375 0.88455772 -147.38698 0.0013383944 -111.84607 0.001122003 -113.1143 0.88044286 -124.94479
10953368750 0.88428587 -147.46315 0.0013225541 -112.02059 0.0011507563 -112.71818 0.88056946 -124.9336
10953403125 0.88408381 -147.45378 0.0013029062 -111.97393 0.0011277758 -112.8338 0.88075542 -124.95805
10953437500 0.88290763 -147.39906 0.001320762 -114.03249 0.0011287096 -113.22047 0.88029325 -124.96194
10953471875 0.88329005 -147.44817 0.0013133155 -112.48287 0.0011216981 -112.64706 0.88047475 -124.90889
10953506250 0.88480669 -147.44823 0.0013251423 -111.44314 0.0011485757 -113.71877 0.8809908 -125.00671
10953540625 0.88519764 -147.46451 0.0013506192 -111.89391 0.001136044 -112.33807 0.88046497 -125.00373
10953575000 0.88401425 -147.46858 0.0012949121 -111.70058 0.0011236412 -113.01282 0.88099605 -124.98976
10953609375 0.88384104 -147.57433 0.0013123248 -112.50883 0.0011310693 -113.44808 0.88091314 -124.94759
10953643750 0.88294131 -147.54475 0.001320075 -112.964 0.0011162747 -113.64187 0.88036853 -124.97069
10953678125 0.88363421 -147.55666 0.001307074 -113.49047 0.0011247748 -114.93166 0.88045073 -124.99018
10953712500 0.88261282 -147.52554 0.001326715 -111.48829 0.0011439748 -114.27637 0.88004452 -125.03352
10953746875 0.88370597 -147.5256 0.0012788293 -111.60694 0.001130681 -113.83087 0.88009697 -124.96616
10953781250 0.88479131 -147.45261 0.0013401804 -110.2477 0.0011180346 -113.11002 0.88057452 -124.97794
10953815625 0.88541526 -147.44994 0.0013147247 -111.09692 0.0011312984 -113.32149 0.8802138 -124.90573
10953850000 0.88356632 -147.39778 0.0013331056 -111.23202 0.0011447456 -113.6477 0.88081747 -124.98453
10953884375 0.88491088 -147.41435 0.0012979545 -111.30165 0.0011278515 -113.48196 0.8802225 -125.00739
10953918750 0.88449466 -147.48541 0.0013332074 -114.07172 0.0011449712 -112.41319 0.88099837 -125.00886
10953953125 0.88297606 -147.46257 0.0012974265 -111.8866 0.0011205169 -113.58138 0.88067126 -125.02511
10953987500 0.88510573 -147.44669 0.0013091513 -112.0154 0.0011601916 -113.90341 0.87996042 -125.03577
10954021875 0.88482922 -147.43764 0.0013111468 -111.51608 0.0011084824 -113.63598 0.87980902 -124.97079
10954056250 0.88457119 -147.47855 0.0012938238 -110.59714 0.0011193738 -112.28957 0.87927967 -125.01007
10954090625 0.88423675 -147.53818 0.0013020751 -111.53763 0.0011336185 -114.04226 0.87974268 -125.05823
10954125000 0.8835541 -147.58174 0.001281289 -111.63942 0.0011350677 -112.46797 0.88101244 -125.0062
10954159375 0.88386053 -147.63072 0.0012850735 -111.64442 0.0011231075 -112.35521 0.87943327 -125.02113
10954193750 0.88356543 -147.58206 0.0013153309 -110.2004 0.0011115719 -112.87832 0.87942261 -124.98698
10954228125 0.88428986 -147.49356 0.0013170958 -111.48568 0.0011321532 -113.20952 0.87947357 -125.08823
10954262500 0.88449937 -147.577 0.001309634 -113.76239 0.0011326006 -113.52278 0.87957299 -125.06521
10954296875 0.88500947 -147.53281 0.0012824774 -111.94318 0.0011007676 -113.24897 0.87940437 -125.03978
10954331250 0.88414663 -147.53395 0.0012814329 -112.4416 0.0011268805 -113.1469 0.88081545 -125.01145
10954365625 0.88353109 -147.55608 0.0012949443 -112.39963 0.0011193027 -113.21468 0.88066828 -124.95512
10954400000 0.88407373 -147.58264 0.001282197 -112.51789 0.0011407849 -113.62821 0.881015 -125.06378
10954434375 0.88424605 -147.65152 0.0012824131 -112.26888 0.0011271391 -113.68783 0.88059026 -125.02492
10954468750 0.88489854 -147.60999 0.0013007192 -112.49592 0.0011574368 -112.65134 0.88033462 -125.10786
10954503125 0.88452542 -147.56201 0.0012868391 -113.08549 0.0011163735 -113.67015 0.88028151 -125.01099
10954537500 0.88360101 -147.51993 0.0012740851 -113.25544 0.0011339724 -113.85197 0.87979668 -125.06886
10954571875 0.88417774 -147.47159 0.0012707703 -111.62067 0.0011625709 -112.88219 0.8796854 -125.11163
10954606250 0.88450176 -147.51791 0.0013067659 -112.05363 0.0011482734 -113.00956 0.87988722 -125.03339
10954640625 0.88406408 -147.5457 0.0013199199 -110.9165 0.0011043464 -113.33788 0.88066369 -125.02106
10954675000 0.88433617 -147.59708 0.0013017425 -111.1404 0.0011226404 -112.5078 0.87926102 -125.03209
10954709375 0.88407367 -147.5153 0.0013125578 -110.66027 0.0011138446 -112.33438 0.87911725 -125.09435
10954743750 0.88471949 -147.61766 0.0012576397 -112.09369 0.0011109088 -112.47987 0.87985969 -125.01638
10954778125 0.88450229 -147.60486 0.0013145728 -112.25391 0.001113868 -112.3378 0.87899822 -125.09507
10954812500 0.88535762 -147.5806 0.0012829577 -112.09528 0.0011415005 -113.18483 0.88045251 -125.14729
10954846875 0.88377774 -147.5966 0.001267296 -112.77016 0.0010966616 -114.11079 0.87869316 -125.10783
10954881250 0.88448942 -147.69875 0.0012825979 -113.13765 0.0011012099 -112.8002 0.88002092 -125.19529
10954915625 0.88404 -147.64836 0.0012955007 -112.67613 0.0010964291 -112.29154 0.88044977 -125.12234
10954950000 0.88337225 -147.64645 0.001309181 -112.95449 0.0010922023 -114.48853 0.8804059 -125.08489
10954984375 0.88315004 -147.64372 0.0012704091 -111.17573 0.0011089176 -113.65478 0.87956339 -125.05759
10955018750 0.88346022 -147.62297 0.0012616349 -112.46397 0.0010747823 -112.35026 0.88041174 -124.98681
10955053125 0.88363665 -147.57463 0.001300695 -113.26063 0.0011077398 -112.31842 0.88031292 -125.09742
10955087500 0.88266098 -147.6086 0.001244428 -111.19801 0.0010962411 -110.2514 0.8802582 -125.0916
10955121875 0.88389909 -147.5955 0.0012837067 -112.5173 0.0011220076 -112.60564 0.87962151 -125.12082
10955156250 0.88285679 -147.59734 0.001268862 -111.66908 0.0010954093 -112.40946 0.88060749 -125.12493
10955190625 0.88330275 -147.60172 0.0012651164 -110.54024 0.0010657953 -111.98656 0.88070393 -125.16266
10955225000 0.88299006 -147.57333 0.0012802732 -112.67643 0.0011138227 -112.76967 0.87849939 -125.19753
10955259375 0.88409728 -147.61942 0.0012840597 -110.30786 0.0011200394 -112.35587 0.88098615 -125.20252
10955293750 0.8862009 -147.65146 0.0013048368 -112.07664 0.0011175667 -113.63772 0.88018203 -125.17455
10955328125 0.88526386 -147.55444 0.0012934866 -111.61069 0.0010804111 -113.57374 0.87932825 -125.16402
10955362500 0.88489372 -147.60794 0.0012417311 -111.38643 0.0010941402 -112.08707 0.87954253 -125.1975
10955396875 0.8838405 -147.64157 0.0012272471 -112.57658 0.0010948885 -112.75243 0.87925065 -125.16171
10955431250 0.88449961 -147.62347 0.0012915789 -110.75049 0.001069753 -113.2762 0.87975097 -125.17412
10955465625 0.88391578 -147.56331 0.0012619849 -113.59927 0.0010938101 -112.70229 0.88008589 -125.15281
10955500000 0.88305616 -147.625 0.0012457573 -110.68654 0.0011218309 -111.61639 0.8796103 -125.1496
10955534375 0.8832742 -147.67041 0.0012761106 -110.26925 0.0010947782 -112.02264 0.88078469 -125.14439
10955568750 0.88500392 -147.63728 0.0012370718 -111.6846 0.0011300582 -111.6619 0.87969679 -125.15703
10955603125 0.88411367 -147.66805 0.0012523526 -110.72596 0.0011157959 -113.0892 0.87977117 -125.12139
10955637500 0.88424528 -147.73917 0.0012388102 -112.2064 0.0011156664 -111.67492 0.88015443 -125.18858
10955671875 0.88474023 -147.70221 0.0012295019 -110.89155 0.0010962147 -112.54149 0.87957329 -125.26104
10955706250 0.88481623 -147.7048 0.0012540489 -110.90545 0.0011193164 -110.91974 0.88054031 -125.23808
10955740625 0.88390607 -147.74248 0.001285015 -109.85138 0.0010960065 -111.36723 0.88121611 -125.17225
10955775000 0.88240135 -147.66594 0.0012533444 -110.94164 0.0010913829 -111.7534 0.88006866 -125.24058
10955809375 0.88291097 -147.72191 0.0012721146 -111.8979 0.0010841382 -112.00119 0.88009834 -125.25149
10955843750 0.88337588 -147.79893 0.0012625578 -111.39299 0.001081362 -110.95543 0.88054597 -125.23441
10955878125 0.88317692 -147.76242 0.0012495752 -110.75399 0.001103644 -114.06443 0.87976652 -125.2058
10955912500 0.88150853 -147.70119 0.0012261856 -110.29357 0.0011073588 -112.01604 0.87919539 -125.19487
10955946875 0.88216704 -147.71454 0.0012288233 -110.72391 0.0011258577 -111.05829 0.88071656 -125.25539
10955981250 0.88306916 -147.68771 0.0012373755 -112.5407 0.0010905825 -113.20824 0.88024253 -125.20427
10956015625 0.88288599 -147.59917 0.0012470896 -111.63391 0.001106912 -110.24548 0.88071579 -125.21582
10956050000 0.88391685 -147.66959 0.0012340999 -109.28257 0.0010950086 -111.821 0.88066727 -125.23728
10956084375 0.88341987 -147.66013 0.0012473421 -111.43658 0.0011003213 -113.18719 0.88030797 -125.26631
10956118750 0.88284642 -147.70619 0.0012688539 -110.27023 0.0011109565 -111.02769 0.88020349 -125.22383
10956153125 0.88333976 -147.76872 0.001236707 -108.64391 0.0011077739 -111.8694 0.88063377 -125.2145
10956187500 0.88220584 -147.74017 0.0012222745 -111.00622 0.0011106728 -111.3829 0.87992054 -125.2672
10956221875 0.88421237 -147.75835 0.0012631497 -108.63605 0.0011090203 -112.6597 0.87987149 -125.23422
10956256250 0.88472873 -147.79527 0.001246208 -110.11983 0.0010983729 -112.48047 0.88030761 -125.14826
10956290625 0.88312405 -147.77132 0.0012839516 -111.42296 0.00109635 -112.19742 0.87974042 -125.24958
10956325000 0.88441128 -147.70947 0.0012675141 -109.38998 0.0010898064 -111.04956 0.8808164 -125.23612
10956359375 0.88445991 -147.66957 0.0012619972 -110.09431 0.0010800688 -110.45876 0.87943357 -125.19562
10956393750 0.88459462 -147.6851 0.0012448748 -110.56938 0.00110892 -111.26912 0.88052666 -125.17692
10956428125 0.8824417 -147.71968 0.0012582659 -109.95577 0.001075146 -109.74628 0.88019407 -125.28366
10956462500 0.88385463 -147.67102 0.0012679062 -109.42993 0.0010748543 -110.59055 0.88143569 -125.2843
