!Agilent Technologies,E8362C,MY49020356,A.09.42.23
!Agilent E8362C: A.09.42.23
!Date: Saturday, September 11, 2021 04:10:02
!Correction: S11(Full 2 Port(1,2)) 
!S21(Full 2 Port(1,2)) 
!S12(Full 2 Port(1,2)) 
!S22(Full 2 Port(1,2)) 
!S2P File: Measurements: S11, S21, S12, S22:
# Hz S  MA   R 50
10950000000 0.72659951 -157.26086 0.00086898322 -117.99803 0.00083893916 -121.12615 0.74436438 -157.01169
10950034375 0.72705901 -157.27193 0.00084120705 -116.57169 0.00086733908 -119.22244 0.74400598 -156.9642
10950068750 0.7269209 -157.28711 0.00083937647 -117.51626 0.0008461831 -123.06228 0.7441653 -156.95059
10950103125 0.72659224 -157.31392 0.00084422436 -116.15083 0.00085236633 -119.73804 0.7453205 -156.88217
10950137500 0.72720742 -157.31215 0.00084688741 -116.74121 0.00084279175 -121.80354 0.74381572 -157.01527
10950171875 0.72650117 -157.25497 0.00083227968 -116.81799 0.00085978111 -122.01274 0.7447632 -156.91156
10950206250 0.72702175 -157.34186 0.00085762073 -116.11805 0.00084956217 -121.57727 0.74412042 -157.00148
10950240625 0.72688037 -157.37743 0.00087619713 -117.52489 0.00086379627 -120.12927 0.74379623 -156.95879
10950275000 0.72602963 -157.30333 0.00080207788 -115.76589 0.00082049746 -120.77735 0.74393773 -157.00043
10950309375 0.72722358 -157.23085 0.00088715256 -116.74874 0.0008685441 -121.43748 0.74398923 -157.06671
10950343750 0.72792912 -157.12117 0.00085987576 -117.25583 0.00086460932 -120.55649 0.74415022 -156.9471
10950378125 0.72669768 -157.29601 0.00087298732 -115.98321 0.00086584367 -120.09384 0.74409819 -157.01169
10950412500 0.7267487 -157.23187 0.00083570933 -117.12828 0.00080912671 -122.5517 0.74550086 -157.02094
10950446875 0.72678566 -157.27928 0.0008631394 -116.49105 0.00086004415 -120.4907 0.74493736 -156.90056
10950481250 0.72545594 -157.29402 0.00084992289 -117.49376 0.00084764295 -121.70563 0.74478865 -156.98344
10950515625 0.72757465 -157.32843 0.00086296385 -116.92722 0.000850029 -120.72897 0.74423027 -156.97656
10950550000 0.72703654 -157.30489 0.00087928853 -114.84085 0.00086006714 -120.57643 0.74449289 -156.99194
10950584375 0.72645992 -157.27214 0.00085815293 -116.71429 0.00084863778 -120.91227 0.74413294 -156.99268
10950618750 0.72618282 -157.24055 0.00084888894 -116.38088 0.00084687164 -119.72952 0.74399763 -156.98328
10950653125 0.72707766 -157.27486 0.00084822427 -115.66766 0.00083346281 -122.048 0.74457365 -157.06535
10950687500 0.72540605 -157.16969 0.00085343613 -115.84277 0.00086845778 -119.95104 0.74409586 -156.97025
10950721875 0.72677755 -157.23102 0.00081945548 -115.72678 0.00083511259 -119.4098 0.74420381 -157.02965
10950756250 0.72610086 -157.2616 0.00088716007 -117.98608 0.00086233794 -120.31056 0.74443221 -156.87906
10950790625 0.72714323 -157.28082 0.00085916911 -115.23482 0.0008715188 -121.60047 0.74357378 -156.93008
10950825000 0.72676122 -157.27779 0.00085977145 -119.42373 0.00085361226 -119.9297 0.74457282 -156.97075
10950859375 0.7271533 -157.32036 0.00086352823 -116.80136 0.00085599808 -120.33725 0.74411511 -156.97398
10950893750 0.72657245 -157.29271 0.00085226254 -117.89911 0.00086272211 -122.69924 0.74357742 -156.92175
10950928125 0.72736388 -157.32079 0.00088483759 -117.72222 0.00084338017 -122.64172 0.74359012 -156.91966
10950962500 0.72679919 -157.27663 0.00087764504 -115.26716 0.000866407 -120.31197 0.74408501 -156.93753
10950996875 0.72777402 -157.33495 0.00082224864 -115.84042 0.00084768643 -122.99582 0.74414426 -157.00253
10951031250 0.72711349 -157.37044 0.00086783007 -116.03516 0.00082307198 -122.22932 0.7439118 -157.07436
10951065625 0.72745758 -157.35005 0.00088594836 -114.14727 0.00081246078 -120.46483 0.74390393 -156.9903
10951100000 0.72645682 -157.31104 0.00086502964 -115.30007 0.00083961413 -121.64977 0.74345058 -157.13148
10951134375 0.72701597 -157.37003 0.00087904249 -112.78859 0.00083821622 -121.25907 0.74423933 -157.06311
10951168750 0.72695482 -157.34198 0.00088849425 -116.89787 0.00088945584 -121.36159 0.74426919 -157.03439
10951203125 0.72639477 -157.34598 0.00087400194 -114.66985 0.00083082839 -120.68331 0.74381834 -157.0573
10951237500 0.72630471 -157.32921 0.00086671027 -117.49815 0.00087780721 -120.5768 0.74424624 -157.02612
10951271875 0.72697306 -157.31509 0.0008515293 -115.89004 0.0008565879 -122.00094 0.74402332 -157.07141
10951306250 0.72739947 -157.28831 0.00086577947 -116.25041 0.00083980372 -120.42569 0.7442379 -157.04616
10951340625 0.72677928 -157.39777 0.00085396948 -116.74557 0.00085597206 -123.62077 0.74422687 -157.00584
10951375000 0.72637355 -157.29448 0.00087583205 -116.23386 0.00086077931 -121.71056 0.74392146 -157.10307
10951409375 0.72634578 -157.32115 0.00084059301 -114.1244 0.00084843911 -121.92114 0.74309462 -157.07423
10951443750 0.72740799 -157.33203 0.0008578538 -116.60879 0.00088328385 -117.98438 0.74452382 -157.02582
10951478125 0.72680604 -157.38998 0.00089176249 -117.4361 0.00085810933 -120.17828 0.74392051 -157.07756
10951512500 0.72732216 -157.42714 0.00084070128 -115.76206 0.00086226582 -120.60289 0.74396932 -157.05641
10951546875 0.72812814 -157.40036 0.00086798897 -116.84863 0.00085055409 -122.68688 0.74251223 -157.09209
10951581250 0.7272293 -157.36111 0.00089264463 -115.80936 0.00085442292 -120.84838 0.74398679 -157.05644
10951615625 0.72627085 -157.34431 0.00087185955 -118.10138 0.00085326144 -122.09115 0.74282378 -157.07803
10951650000 0.72742641 -157.41844 0.00088482181 -115.91364 0.00086410635 -119.49593 0.74398255 -157.06496
10951684375 0.7276805 -157.35573 0.00087244535 -118.9475 0.00086971087 -121.79356 0.7444278 -157.116
10951718750 0.72801882 -157.42194 0.00085256656 -115.25378 0.00084478885 -119.90531 0.74469185 -157.12773
10951753125 0.72592789 -157.37624 0.00085573265 -116.8195 0.00087296142 -121.44817 0.74497086 -157.10147
10951787500 0.72601062 -157.36684 0.00085600227 -117.45863 0.00084397418 -121.98442 0.74454945 -157.08656
10951821875 0.72620791 -157.35275 0.00084483525 -116.74508 0.00081713527 -120.76569 0.7450152 -157.07065
10951856250 0.72685522 -157.36305 0.00087662484 -118.01649 0.00086192042 -122.55788 0.74384797 -156.99641
10951890625 0.72598207 -157.35669 0.00086433988 -118.34447 0.00084382191 -121.1571 0.74437344 -157.15387
10951925000 0.72756743 -157.46918 0.0008478848 -117.43465 0.00085265154 -121.13394 0.74342847 -157.09749
10951959375 0.72695231 -157.49095 0.00087180157 -116.99926 0.0008545203 -121.38903 0.74328411 -157.16176
10951993750 0.72619063 -157.47972 0.00084449549 -116.95345 0.00085123506 -119.90433 0.74375725 -157.181
10952028125 0.72657073 -157.45943 0.00088281202 -115.66116 0.00086768682 -120.44048 0.74314231 -157.17952
10952062500 0.72730994 -157.5304 0.00086607906 -118.43339 0.00087957992 -119.88161 0.74265909 -157.08255
10952096875 0.72629166 -157.54234 0.0008441793 -116.30698 0.00085751299 -122.94019 0.74287182 -157.1799
10952131250 0.72633094 -157.5136 0.00087751629 -116.51383 0.00085336925 -118.88719 0.74244457 -157.18166
10952165625 0.72577411 -157.49605 0.00086488208 -115.16534 0.00085649424 -122.24606 0.74379957 -157.16945
10952200000 0.72550386 -157.47478 0.00087690062 -118.36414 0.00084141723 -122.4442 0.74424112 -157.14864
10952234375 0.72572178 -157.55098 0.00085806218 -117.70911 0.00088195695 -121.61678 0.74421203 -157.22495
10952268750 0.72623217 -157.52377 0.00086138037 -116.50683 0.00086359057 -123.30322 0.74342203 -157.10527
10952303125 0.72593015 -157.51041 0.00084485183 -115.27989 0.00087531394 -120.57665 0.7431649 -157.22383
10952337500 0.7256192 -157.41753 0.0008869117 -114.94129 0.00086745899 -121.54036 0.74347508 -157.17677
10952371875 0.72632653 -157.49104 0.0008420971 -115.08082 0.00085685542 -119.60574 0.74388951 -157.24878
10952406250 0.72666854 -157.50203 0.00088029745 -114.81028 0.00087846891 -121.62623 0.74353999 -157.27542
10952440625 0.7264874 -157.45877 0.00088435708 -116.39958 0.00088398304 -120.16517 0.74313909 -157.17381
10952475000 0.72556758 -157.55896 0.00087145454 -114.92005 0.00084956625 -120.66364 0.74292868 -157.22765
10952509375 0.72562981 -157.49886 0.00085769547 -117.53403 0.0008563961 -120.79875 0.74281406 -157.31726
10952543750 0.72667658 -157.48355 0.00086857035 -116.84982 0.00092263694 -121.12228 0.7429657 -157.22826
10952578125 0.72697443 -157.43732 0.0008771994 -116.43847 0.00087851379 -120.3012 0.74368328 -157.13719
10952612500 0.72648728 -157.42583 0.00090520812 -116.84884 0.00086650078 -123.85329 0.74316883 -157.16908
10952646875 0.72674125 -157.49463 0.00086868892 -119.35967 0.00085483497 -120.14666 0.74374139 -157.15904
10952681250 0.72606254 -157.48091 0.00084317086 -117.17371 0.0008786004 -120.88148 0.74397326 -157.21597
10952715625 0.72699165 -157.52823 0.00088506786 -118.14754 0.00085486547 -121.4132 0.74360603 -157.16678
10952750000 0.72537953 -157.5647 0.00086760899 -117.42303 0.00084700272 -121.34888 0.74372125 -157.1423
10952784375 0.72701108 -157.55289 0.00087445229 -119.13483 0.000838637 -121.05715 0.74383289 -157.20258
10952818750 0.72564584 -157.4973 0.00084123114 -116.34453 0.00090198411 -121.24701 0.74375969 -157.21233
10952853125 0.72649306 -157.50972 0.00087671651 -116.27808 0.0009163685 -120.75385 0.74389648 -157.26718
10952887500 0.72593528 -157.59717 0.00088528957 -116.23607 0.00085963897 -120.11173 0.74381459 -157.23898
10952921875 0.72701228 -157.61458 0.00088053459 -117.27417 0.00086427724 -120.47828 0.74359977 -157.31703
10952956250 0.72668934 -157.61508 0.00087907549 -117.67446 0.00084592606 -122.96328 0.74402618 -157.31682
10952990625 0.72676855 -157.54433 0.00085382059 -116.82543 0.00087159121 -120.17361 0.74449909 -157.32086
10953025000 0.72689641 -157.56448 0.00091556238 -115.84296 0.0008451264 -122.98473 0.74319506 -157.27396
10953059375 0.72706139 -157.56731 0.00087606721 -116.17948 0.00085706264 -122.01938 0.74346107 -157.26508
10953093750 0.72745925 -157.59352 0.00085810892 -114.37838 0.00088277145 -121.51621 0.74259657 -157.33929
10953128125 0.72629893 -157.59933 0.00087243336 -115.24741 0.00085064163 -122.44022 0.74429405 -157.2708
10953162500 0.72694635 -157.62503 0.00085782353 -116.77264 0.00086402555 -124.0888 0.74323845 -157.24443
10953196875 0.72665375 -157.54199 0.00087116234 -119.53983 0.00082164345 -121.8857 0.74320072 -157.31798
10953231250 0.72667462 -157.61624 0.00084315107 -116.25185 0.00086819206 -121.87951 0.74252439 -157.30975
10953265625 0.72565883 -157.56003 0.00084151013 -116.67677 0.00085943931 -121.28896 0.74247497 -157.32777
10953300000 0.72601318 -157.51126 0.00088908657 -117.35776 0.0008486617 -121.9294 0.74367839 -157.24963
10953334375 0.7265414 -157.51466 0.00089856237 -116.40826 0.00087260141 -119.92945 0.74329376 -157.34377
10953368750 0.72643209 -157.60277 0.00086720759 -118.01159 0.00084312755 -120.86832 0.74296361 -157.2816
10953403125 0.72611529 -157.58589 0.00086772989 -117.89294 0.00088252785 -122.51995 0.743765 -157.35347
10953437500 0.72503632 -157.5907 0.00087161653 -118.00568 0.00087175815 -121.05953 0.74396133 -157.35085
10953471875 0.72752148 -157.59174 0.00085370877 -116.95905 0.00084512349 -122.02451 0.74353915 -157.28427
10953506250 0.72695744 -157.58664 0.00086371321 -118.62613 0.0008654978 -121.0336 0.7435863 -157.37233
10953540625 0.72605246 -157.57829 0.0008583662 -116.98125 0.00082311587 -124.20071 0.74310154 -157.41907
10953575000 0.72683477 -157.67651 0.000885677 -117.08916 0.00089232123 -121.50723 0.74342066 -157.37782
10953609375 0.72655356 -157.67702 0.00087559625 -119.83543 0.00087836658 -121.1517 0.74443692 -157.40454
10953643750 0.72610945 -157.6981 0.00084492011 -114.74495 0.00087276864 -121.53458 0.74355894 -157.42641
10953678125 0.72655511 -157.71399 0.00090821419 -117.14632 0.00087597995 -121.54267 0.74432898 -157.45195
10953712500 0.7257728 -157.67218 0.00084293564 -115.81551 0.0008511655 -118.81669 0.7437613 -157.41205
10953746875 0.72640783 -157.68652 0.00088824762 -118.19503 0.00087356247 -122.51753 0.74288946 -157.37915
10953781250 0.72677088 -157.70749 0.00086052867 -116.13178 0.00082923629 -122.94489 0.74265385 -157.26622
10953815625 0.72676736 -157.60645 0.00088281691 -118.03371 0.00083837577 -121.45786 0.74325609 -157.32481
10953850000 0.72748369 -157.58432 0.00086376444 -118.92933 0.00086713675 -121.52448 0.74395162 -157.34598
10953884375 0.72582132 -157.59254 0.0008448062 -115.3378 0.00084599969 -122.77299 0.74391544 -157.36215
10953918750 0.72657996 -157.72287 0.00086526928 -116.72372 0.00087532459 -123.66458 0.74436009 -157.35492
10953953125 0.72613847 -157.74539 0.00090624997 -115.85059 0.00089061924 -122.44565 0.7443347 -157.39482
10953987500 0.72705853 -157.6416 0.0008832016 -119.5284 0.00089221704 -122.46125 0.74335045 -157.40543
10954021875 0.72628289 -157.62932 0.00088644057 -116.88248 0.00085147028 -122.61369 0.74240685 -157.43379
10954056250 0.72662765 -157.64861 0.00087423844 -116.80147 0.00087418285 -121.04488 0.74249506 -157.35254
10954090625 0.72561783 -157.79863 0.00086513621 -114.96047 0.00088197098 -120.83793 0.74358201 -157.37201
10954125000 0.7264629 -157.76955 0.00083660142 -116.13135 0.00087736384 -121.61466 0.74333847 -157.35126
10954159375 0.72589022 -157.70079 0.00087523053 -118.15807 0.00086642033 -121.53666 0.74243551 -157.43141
10954193750 0.72669476 -157.70744 0.00087779423 -117.07869 0.00086244941 -122.81333 0.74299204 -157.35548
10954228125 0.72667879 -157.69768 0.00085909176 -117.66617 0.00085774245 -120.42448 0.74267232 -157.44421
10954262500 0.72614157 -157.71265 0.00086202897 -117.1479 0.00088794983 -120.72066 0.74330616 -157.44287
10954296875 0.72588825 -157.73726 0.00089806091 -119.52342 0.00087321736 -121.63832 0.74341154 -157.41446
10954331250 0.72643101 -157.74728 0.00085824024 -118.91574 0.0008537845 -120.52716 0.74441594 -157.49811
10954365625 0.72618216 -157.67093 0.00088612246 -118.64259 0.00086981931 -122.50066 0.74302125 -157.41611
10954400000 0.72590041 -157.72292 0.00086692761 -118.17436 0.00087277958 -123.86091 0.74345076 -157.46111
10954434375 0.72601825 -157.69292 0.00088973204 -116.42096 0.000852381 -121.66844 0.74270403 -157.50095
10954468750 0.72619474 -157.72855 0.00085610722 -117.28545 0.00086515938 -120.50964 0.74198449 -157.52728
10954503125 0.72599179 -157.67767 0.00086935866 -118.06139 0.00089395075 -122.91921 0.74323171 -157.43987
10954537500 0.72696131 -157.63075 0.00090705825 -117.57529 0.00084709597 -123.72842 0.7424354 -157.48828
10954571875 0.72626597 -157.70996 0.00086564972 -119.19955 0.00086806464 -120.65971 0.74235225 -157.36862
10954606250 0.72531724 -157.77112 0.00089926936 -117.64365 0.00088250567 -122.22763 0.74315119 -157.46584
10954640625 0.72636306 -157.76801 0.00084652501 -117.4237 0.00084249116 -120.81644 0.74328405 -157.47374
10954675000 0.7271629 -157.77347 0.00086939975 -118.81261 0.00087278761 -122.64337 0.74298936 -157.41052
10954709375 0.72616911 -157.70999 0.00083865278 -119.04887 0.00087599538 -123.13491 0.74237561 -157.44322
10954743750 0.72615123 -157.70442 0.00082958041 -118.18998 0.00087345159 -122.18448 0.74260432 -157.47993
10954778125 0.72632813 -157.73273 0.00086379919 -116.68485 0.00087643304 -122.21607 0.74302328 -157.49359
10954812500 0.72596389 -157.74672 0.00086875836 -119.04509 0.00085904251 -125.28416 0.74304324 -157.51839
10954846875 0.72560513 -157.78824 0.00088026898 -117.88655 0.00083985267 -120.89219 0.74314004 -157.55075
10954881250 0.7258144 -157.81046 0.00085518789 -118.00865 0.00083536142 -121.90656 0.74287206 -157.55946
10954915625 0.72480834 -157.77173 0.0008585194 -119.0351 0.00088839856 -121.10402 0.74366826 -157.552
10954950000 0.72526884 -157.84148 0.00086701335 -119.43909 0.00087676221 -120.74971 0.7430681 -157.50455
10954984375 0.72511035 -157.81369 0.00088241859 -117.70374 0.00086132128 -123.54163 0.7430883 -157.44029
10955018750 0.72602618 -157.79538 0.00084655912 -118.84128 0.00083379034 -123.8624 0.7434234 -157.45804
10955053125 0.72609335 -157.83244 0.00088672334 -118.24191 0.00085316814 -122.4949 0.74347085 -157.56424
10955087500 0.72656786 -157.73547 0.00084298034 -119.4411 0.00089471031 -124.20684 0.74364823 -157.57312
10955121875 0.72562528 -157.73407 0.00084747461 -118.19977 0.00084866263 -120.11685 0.74328965 -157.55827
10955156250 0.72563672 -157.77368 0.00080942427 -117.49771 0.00085852918 -121.95667 0.7425037 -157.49184
10955190625 0.72534132 -157.69997 0.00090465369 -114.90538 0.00083615747 -121.62926 0.74305594 -157.55963
10955225000 0.72499317 -157.87907 0.00086972956 -120.40169 0.00087306736 -123.106 0.74256861 -157.5818
10955259375 0.72663552 -157.7805 0.00087488291 -117.37843 0.00089378498 -121.36509 0.74321979 -157.66592
10955293750 0.72681701 -157.83224 0.00085791189 -119.20293 0.00086467789 -121.61678 0.74263799 -157.55212
10955328125 0.72542566 -157.7795 0.00088443456 -116.19524 0.00084431435 -121.44086 0.74235821 -157.55862
10955362500 0.72663802 -157.778 0.00085906457 -118.08389 0.00084792502 -122.38866 0.74284941 -157.6265
10955396875 0.72631216 -157.89339 0.00083660544 -119.28892 0.00087251555 -121.38745 0.74288607 -157.62776
10955431250 0.72554111 -157.83286 0.00083058176 -117.95749 0.00087332889 -123.71249 0.74228239 -157.63934
10955465625 0.72558999 -157.76823 0.00084863143 -116.69878 0.00082651287 -122.9919 0.74289042 -157.58232
10955500000 0.72555637 -157.73288 0.00083237916 -117.7483 0.00087239413 -122.25696 0.74322361 -157.54762
10955534375 0.72492284 -157.77142 0.00087445683 -118.61749 0.00086957269 -123.02106 0.74307013 -157.56219
10955568750 0.72580624 -157.85376 0.00084893871 -117.9873 0.0008899222 -121.93166 0.74325448 -157.59592
10955603125 0.72553575 -157.82561 0.00085953088 -119.7564 0.00085031643 -122.41827 0.74384522 -157.599
10955637500 0.72671264 -157.80304 0.00086742727 -120.19192 0.00086068647 -119.66492 0.74334288 -157.60825
10955671875 0.72720033 -157.8387 0.00087940966 -117.54297 0.00083113846 -122.13155 0.74188435 -157.61302
10955706250 0.72651792 -157.84943 0.00081806362 -120.65879 0.0008655861 -122.41003 0.74343145 -157.65704
10955740625 0.72588181 -157.88406 0.00083950837 -117.44592 0.00085877313 -120.99226 0.74313557 -157.64676
10955775000 0.72491431 -157.8208 0.00087535393 -117.79603 0.00086581439 -123.53738 0.74286747 -157.65105
10955809375 0.72446001 -157.87796 0.00085015531 -119.14847 0.00083980028 -121.21815 0.7430653 -157.64445
10955843750 0.72518784 -157.91969 0.00081828958 -119.05592 0.00085428747 -121.22897 0.74325025 -157.61967
10955878125 0.72573566 -157.98581 0.00085144077 -118.72514 0.00086689339 -123.45566 0.74288523 -157.6777
10955912500 0.72478873 -157.91086 0.00084242673 -118.23811 0.00085796212 -122.22908 0.74209511 -157.56802
10955946875 0.72617304 -157.88326 0.00085150974 -120.14233 0.00089614472 -123.54201 0.74296385 -157.63228
10955981250 0.72478461 -157.8837 0.00085052755 -118.64229 0.00087545166 -120.81744 0.74261445 -157.68472
10956015625 0.72547203 -157.89412 0.00083813613 -117.71267 0.00087276829 -123.09467 0.743393 -157.67654
10956050000 0.7259773 -157.83871 0.00086455868 -118.33252 0.00083750248 -122.29959 0.74312073 -157.67108
10956084375 0.72560096 -157.85565 0.0008529381 -117.8672 0.00086254656 -121.11561 0.74304712 -157.67857
10956118750 0.7249909 -157.87791 0.00088514865 -117.85516 0.00089635211 -120.90207 0.74359608 -157.56715
10956153125 0.72509187 -157.92755 0.00088082056 -118.84772 0.00086460548 -123.69289 0.743774 -157.67146
10956187500 0.72542083 -157.92123 0.00084556598 -118.49318 0.00084791268 -124.14907 0.74368382 -157.63589
10956221875 0.7248497 -157.89536 0.00082706875 -118.83333 0.00084829074 -120.22036 0.74260843 -157.63829
10956256250 0.72489214 -157.96808 0.00087489351 -116.90765 0.00082650379 -121.24113 0.74247414 -157.67657
10956290625 0.72610706 -157.88518 0.00086061039 -118.50216 0.00084260514 -122.52078 0.74137259 -157.74725
10956325000 0.72604203 -157.96428 0.00085013558 -118.82867 0.0008598736 -122.52883 0.74348629 -157.65654
