!Agilent Technologies,E8362C,MY49020356,A.09.42.23
!Agilent E8362C: A.09.42.23
!Date: Saturday, September 11, 2021 04:05:47
!Correction: S11(Full 2 Port(1,2)) 
!S21(Full 2 Port(1,2)) 
!S12(Full 2 Port(1,2)) 
!S22(Full 2 Port(1,2)) 
!S2P File: Measurements: S11, S21, S12, S22:
# Hz S  MA   R 50
10950000000 0.83801264 -143.57251 0.0010387398 -117.93063 0.0010320459 -122.33076 0.77409679 -156.21793
10950034375 0.83709651 -143.49812 0.0010521469 -117.9828 0.0010503476 -123.54299 0.77348715 -156.16165
10950068750 0.83687484 -143.61041 0.0010723242 -118.67075 0.0010352938 -123.75287 0.7741943 -156.19887
10950103125 0.83693767 -143.57553 0.00106708 -118.96921 0.0010400661 -124.67847 0.77386916 -156.19615
10950137500 0.83764118 -143.64183 0.0010533984 -119.47472 0.00104673 -124.14127 0.77394783 -156.2657
10950171875 0.83830857 -143.66907 0.0010360671 -118.4793 0.0010301851 -125.28821 0.77378744 -156.30193
10950206250 0.83785105 -143.62943 0.0010407948 -118.4137 0.0010167621 -120.92944 0.7746222 -156.24973
10950240625 0.83922487 -143.66199 0.0010228176 -120.91935 0.0010274369 -122.17465 0.77306306 -156.28909
10950275000 0.838238 -143.61777 0.0010662676 -117.8375 0.0010152353 -121.5396 0.77323049 -156.27605
10950309375 0.83817303 -143.52623 0.0010407156 -117.18344 0.0010373021 -123.66619 0.77382767 -156.16524
10950343750 0.83822852 -143.55193 0.0010759205 -118.87427 0.0010356497 -124.035 0.77396399 -156.22549
10950378125 0.83691138 -143.5489 0.0010460387 -118.97628 0.0010039113 -123.2066 0.77445352 -156.22182
10950412500 0.83696294 -143.56834 0.0010637377 -119.39754 0.0010138291 -123.45058 0.77413142 -156.23251
10950446875 0.83738363 -143.62611 0.0010253337 -119.17226 0.0010548254 -122.56723 0.77403557 -156.22362
10950481250 0.83830583 -143.55219 0.0010323761 -119.81963 0.0010217248 -124.40713 0.77318907 -156.22223
10950515625 0.83729374 -143.61874 0.0010744552 -117.39593 0.0010065755 -123.70958 0.77407241 -156.24184
10950550000 0.83770895 -143.50175 0.0010288978 -118.26376 0.0010495267 -122.3027 0.77367681 -156.21759
10950584375 0.83778173 -143.58012 0.0010384956 -118.85121 0.0010280623 -123.57084 0.77333307 -156.29892
10950618750 0.83736926 -143.60577 0.0010542419 -120.07727 0.0010352344 -125.02583 0.77427888 -156.28166
10950653125 0.8366642 -143.5759 0.00104821 -118.03703 0.0010419134 -123.69588 0.77432764 -156.21889
10950687500 0.83731431 -143.58992 0.0010685369 -118.6002 0.0010380292 -122.39342 0.77404851 -156.32176
10950721875 0.8368749 -143.57529 0.001071456 -119.78181 0.0010146457 -123.89298 0.77273548 -156.33932
10950756250 0.8379578 -143.6516 0.0010713305 -117.62868 0.0010654725 -121.93729 0.77355558 -156.21315
10950790625 0.83777922 -143.62881 0.00102811 -118.88141 0.0010414773 -124.05174 0.77354741 -156.25172
10950825000 0.83842343 -143.68066 0.0010520894 -118.87267 0.0010675181 -123.96394 0.7727868 -156.263
10950859375 0.83695048 -143.61656 0.0010618273 -117.96316 0.0010181338 -123.2262 0.77268016 -156.30672
10950893750 0.83817446 -143.55638 0.001062064 -119.47732 0.0010300931 -124.26588 0.77254933 -156.35948
10950928125 0.83882761 -143.56425 0.0010205316 -118.26891 0.0010285141 -122.89526 0.7726205 -156.20096
10950962500 0.83725673 -143.68245 0.0010749092 -120.09949 0.0010729412 -125.37404 0.77415359 -156.26486
10950996875 0.83750188 -143.64706 0.0010786775 -119.00225 0.0010541403 -123.84846 0.77373081 -156.24309
10951031250 0.83770746 -143.56882 0.0010605236 -120.02403 0.0010149409 -124.71557 0.77321315 -156.33138
10951065625 0.83737808 -143.63039 0.0010357795 -118.71874 0.0010329961 -122.48223 0.77360338 -156.33684
10951100000 0.83746386 -143.6945 0.0010438556 -117.56348 0.0010742543 -124.04289 0.77276748 -156.30408
10951134375 0.83746248 -143.71922 0.0010641274 -118.83839 0.0010539303 -122.03229 0.77347749 -156.34119
10951168750 0.83829635 -143.71324 0.0009939716 -119.40863 0.00099264854 -122.95645 0.77419585 -156.38144
10951203125 0.83740556 -143.71324 0.0010398439 -118.8287 0.0010501451 -123.52373 0.77330083 -156.36618
10951237500 0.83663887 -143.70103 0.0010402851 -118.97604 0.0010594149 -124.49242 0.77365953 -156.38022
10951271875 0.83796537 -143.72623 0.0010269331 -121.23974 0.0010493994 -124.27612 0.77375764 -156.30423
10951306250 0.83680779 -143.67087 0.0010395504 -118.38303 0.0010519113 -124.41986 0.77289677 -156.35057
10951340625 0.83717257 -143.62071 0.0010810598 -119.47807 0.0010281516 -126.49622 0.773229 -156.33362
10951375000 0.83740938 -143.59663 0.0010423461 -118.65266 0.001022347 -123.42943 0.77258766 -156.28929
10951409375 0.83745241 -143.65395 0.0010397194 -118.07546 0.0010396576 -124.00885 0.77241749 -156.39737
10951443750 0.83859783 -143.63213 0.0010525384 -118.774 0.0010421656 -124.69875 0.7740292 -156.30557
10951478125 0.83846617 -143.72708 0.0010550295 -120.01347 0.001027638 -125.09859 0.77278298 -156.32054
10951512500 0.83851421 -143.69597 0.0010744991 -117.66897 0.0010349721 -123.23303 0.77411681 -156.38469
10951546875 0.83852863 -143.69318 0.0010836147 -120.29683 0.0010226056 -123.69061 0.77295381 -156.31743
10951581250 0.83828402 -143.66885 0.0010207805 -119.63416 0.0010331005 -124.68083 0.7729302 -156.3511
10951615625 0.8386119 -143.7234 0.0010329314 -120.06023 0.0010587965 -122.73043 0.77253938 -156.36273
10951650000 0.83863842 -143.73116 0.0011045447 -117.67844 0.0010383298 -124.79588 0.77289778 -156.35182
10951684375 0.83858591 -143.77768 0.0010552178 -117.56898 0.0010209407 -123.37883 0.77408689 -156.36372
10951718750 0.83940375 -143.69044 0.0010567559 -117.45261 0.0010519595 -123.29822 0.7752012 -156.39838
10951753125 0.83757025 -143.69321 0.0010619685 -118.07187 0.0010642998 -124.49508 0.77482271 -156.34862
10951787500 0.83735085 -143.75536 0.0010765042 -119.52356 0.0010186919 -122.59862 0.77444202 -156.32996
10951821875 0.83731782 -143.64165 0.0010539625 -119.40562 0.0010358004 -122.56523 0.77432239 -156.40569
10951856250 0.83776784 -143.70711 0.0010616413 -117.45261 0.0010429134 -123.28403 0.77321005 -156.37048
10951890625 0.8381868 -143.78201 0.0010466895 -120.20422 0.0010590809 -123.82494 0.77333474 -156.42693
10951925000 0.83763051 -143.76567 0.0010390284 -118.26384 0.0010450608 -126.03477 0.77257824 -156.42725
10951959375 0.83910567 -143.81793 0.0010083765 -118.88889 0.001035093 -124.07696 0.77265948 -156.38759
10951993750 0.83930755 -143.80171 0.001037154 -119.34734 0.0010097596 -122.46995 0.77308702 -156.43016
10952028125 0.83918297 -143.78697 0.0010566019 -116.95941 0.0010418623 -125.15061 0.77277875 -156.34972
10952062500 0.8388828 -143.78329 0.0010398078 -119.54543 0.0010268252 -125.49841 0.77237421 -156.45497
10952096875 0.83766431 -143.85899 0.0010438869 -121.22856 0.0010660554 -124.69281 0.77285355 -156.39929
10952131250 0.83895123 -143.81795 0.0010521138 -118.86174 0.0010310515 -122.25701 0.77228296 -156.48836
10952165625 0.83876854 -143.80544 0.0010439658 -119.445 0.0010319189 -124.59795 0.77260208 -156.48814
10952200000 0.83805549 -143.78349 0.001019355 -119.41309 0.001049558 -123.60251 0.77319372 -156.38187
10952234375 0.83727032 -143.83244 0.0010616177 -121.41927 0.0010343755 -123.1908 0.77365702 -156.43376
10952268750 0.83733606 -143.82051 0.0010499642 -118.61722 0.0010262833 -125.93351 0.77286029 -156.54559
10952303125 0.83670539 -143.79683 0.0010255027 -119.43313 0.0010178254 -125.5642 0.77325517 -156.45502
10952337500 0.83785337 -143.8271 0.0010336625 -118.28791 0.0010587405 -125.37328 0.77314943 -156.54234
10952371875 0.83670253 -143.82663 0.0010589625 -118.271 0.001001972 -122.53329 0.77238202 -156.45406
10952406250 0.8379584 -143.95229 0.0010240402 -120.75121 0.0010238542 -125.18882 0.77251035 -156.53401
10952440625 0.83719838 -143.78474 0.0010671044 -120.80643 0.0010594301 -123.3149 0.77245265 -156.49504
10952475000 0.83687091 -143.8559 0.0010949464 -121.1102 0.0010431772 -123.75694 0.77202451 -156.40739
10952509375 0.83747584 -143.77632 0.0010489654 -118.8103 0.0010188553 -124.66969 0.77211154 -156.53185
10952543750 0.83762258 -143.81805 0.0010435805 -119.68101 0.0010175918 -123.26889 0.77293098 -156.41679
10952578125 0.83844227 -143.84033 0.001053184 -122.62956 0.00106254 -123.96893 0.77229613 -156.44846
10952612500 0.83827674 -143.75958 0.0010617295 -116.51165 0.0010643852 -123.22216 0.77251923 -156.47408
10952646875 0.83800614 -143.8011 0.0010359436 -119.38067 0.0010358486 -124.28072 0.7733354 -156.49144
10952681250 0.8376435 -143.83192 0.00104595 -120.7059 0.00103761 -123.66733 0.7730127 -156.47664
10952715625 0.83666742 -143.82607 0.001076484 -118.41492 0.0010214476 -122.93912 0.77365565 -156.47191
10952750000 0.83752269 -143.79738 0.0010784792 -119.32217 0.0010448497 -122.32952 0.77258772 -156.49443
10952784375 0.83723289 -143.87218 0.001048823 -121.0122 0.0010606606 -126.21329 0.77290887 -156.52538
10952818750 0.83851761 -143.8369 0.001030417 -118.89644 0.0010586658 -124.72323 0.77333164 -156.44882
10952853125 0.8378197 -143.80907 0.0010704692 -119.45949 0.0010686925 -123.42248 0.77314889 -156.57025
10952887500 0.8382746 -143.81203 0.0010514464 -119.11808 0.0010543326 -124.64494 0.77289009 -156.52802
10952921875 0.83787924 -143.87715 0.0010451863 -119.07779 0.0010643698 -125.45615 0.77371693 -156.55006
10952956250 0.83909947 -143.93494 0.0010450446 -121.11061 0.0010618842 -125.38617 0.77307642 -156.53888
10952990625 0.83866626 -143.88808 0.0010396622 -118.09122 0.001044558 -123.93582 0.77419138 -156.49014
10953025000 0.83797282 -143.87955 0.0010552244 -119.00456 0.0010554866 -124.5576 0.77402699 -156.6132
10953059375 0.83674359 -143.89357 0.0010600155 -120.52492 0.0010066091 -124.20731 0.77325481 -156.54436
10953093750 0.83774853 -143.93036 0.0010691447 -119.28913 0.0010180919 -124.20967 0.77253008 -156.55742
10953128125 0.8389374 -143.89566 0.0010392313 -118.84866 0.00099918316 -123.9165 0.77242869 -156.45863
10953162500 0.83810794 -143.94786 0.0010464933 -119.27306 0.001036697 -124.11662 0.77235979 -156.46553
10953196875 0.83864051 -143.93951 0.0010486674 -119.12441 0.0010295196 -124.37082 0.77242035 -156.4893
10953231250 0.83755898 -143.93736 0.0010385084 -120.41199 0.0010237423 -124.293 0.77314091 -156.58186
10953265625 0.83630574 -143.8356 0.001038445 -120.43013 0.0010223381 -124.36734 0.77382326 -156.56792
10953300000 0.83740568 -143.88858 0.0010504684 -118.35374 0.0010507575 -125.49765 0.77326602 -156.60619
10953334375 0.83727938 -143.8905 0.0010458934 -117.60807 0.001040672 -125.22071 0.77351022 -156.65192
10953368750 0.83790898 -143.92386 0.0010433814 -119.96286 0.0010281436 -124.18908 0.77370644 -156.62872
10953403125 0.83791816 -143.90247 0.0010238567 -120.1905 0.0010518522 -122.82726 0.77298915 -156.62482
10953437500 0.83788776 -143.85402 0.0010507833 -117.71528 0.001032484 -125.32227 0.77414262 -156.65636
10953471875 0.83775717 -143.86218 0.001057866 -119.78576 0.0010236496 -125.58441 0.77275568 -156.63341
10953506250 0.83840942 -143.95734 0.001035544 -119.81761 0.0010297763 -125.38017 0.77365285 -156.54495
10953540625 0.83844793 -143.93857 0.0010444733 -120.6611 0.00103735 -124.98341 0.773197 -156.65952
10953575000 0.83728486 -143.94382 0.001068219 -120.69589 0.0010515419 -126.09282 0.77265233 -156.6483
10953609375 0.83804739 -144.00626 0.0010484728 -120.27301 0.0010377999 -124.91511 0.77419221 -156.61629
10953643750 0.83656019 -144.0493 0.0010530646 -118.8112 0.0010297798 -126.23041 0.77306765 -156.69112
10953678125 0.83750165 -144.01726 0.001064549 -122.41274 0.0010225113 -125.67623 0.7729879 -156.6355
10953712500 0.83717138 -143.95895 0.0010601946 -117.68478 0.0010403026 -127.35772 0.77346772 -156.7005
10953746875 0.83854628 -143.96252 0.0010240304 -119.59969 0.0010274494 -125.25426 0.77285862 -156.56923
10953781250 0.83735466 -143.93671 0.0010280159 -119.6101 0.0010363763 -125.44154 0.77250534 -156.56927
10953815625 0.83834112 -143.9787 0.0010674524 -121.80667 0.0010391038 -126.62911 0.7728802 -156.56206
10953850000 0.8389414 -143.94534 0.00098974386 -117.85176 0.0010357025 -124.49509 0.77183837 -156.6792
10953884375 0.83825034 -143.9019 0.0010454138 -120.68138 0.0010308874 -127.12123 0.77306098 -156.69461
10953918750 0.83734554 -143.94278 0.0010350231 -120.46358 0.001063537 -126.12621 0.77448022 -156.6248
10953953125 0.83727479 -143.95697 0.0010275901 -120.92316 0.0010268337 -125.07556 0.7740218 -156.65337
10953987500 0.83882546 -143.94472 0.0010134063 -119.48661 0.0010103974 -125.45282 0.7728253 -156.67752
10954021875 0.83904266 -143.86339 0.0010150785 -120.39958 0.0010459152 -124.54349 0.77248377 -156.72517
10954056250 0.83805239 -143.90569 0.0010247834 -119.96282 0.0010241932 -126.08921 0.77272046 -156.64241
10954090625 0.83689851 -143.98103 0.0010339281 -120.70268 0.0010284506 -123.98508 0.77275622 -156.70471
10954125000 0.83836788 -143.98871 0.00099898828 -121.81567 0.0010300706 -124.94924 0.77324235 -156.70334
10954159375 0.83860886 -144.01024 0.0010423481 -118.56695 0.0010358394 -125.25157 0.77284539 -156.69633
10954193750 0.83828592 -144.10481 0.0010614173 -120.61964 0.0010543425 -126.95049 0.77235138 -156.64937
10954228125 0.83790338 -144.03601 0.0010642034 -122.01758 0.0010258668 -124.87357 0.77278614 -156.6371
10954262500 0.83814174 -144.00584 0.0010290788 -118.32758 0.0010197285 -125.63584 0.77136278 -156.6931
10954296875 0.83885449 -144.01926 0.0010591758 -119.79243 0.0010253773 -125.48277 0.77293867 -156.75166
10954331250 0.83796728 -144.05238 0.0010114043 -118.59982 0.0010286184 -124.92431 0.77238864 -156.7077
10954365625 0.83729208 -144.04422 0.0010278755 -121.57322 0.0010147411 -124.40538 0.77373093 -156.64905
10954400000 0.83756155 -144.0385 0.0010508824 -121.43291 0.0010242688 -126.37382 0.77389568 -156.76013
10954434375 0.83742094 -144.02437 0.0010444216 -120.30463 0.0010194629 -127.61082 0.77242541 -156.65944
10954468750 0.83855373 -144.08035 0.0010286469 -121.68655 0.0010152432 -124.28432 0.77102023 -156.75449
10954503125 0.83751285 -143.99437 0.0010846975 -119.48105 0.0010469505 -125.43726 0.77282089 -156.73732
10954537500 0.83768404 -143.98454 0.0010530208 -120.88326 0.0010473873 -126.57108 0.77351737 -156.63359
10954571875 0.83861268 -144.0183 0.0010483888 -121.14616 0.0010216899 -123.12292 0.77278203 -156.72856
10954606250 0.83760476 -144.0473 0.0010414708 -120.65397 0.0010346709 -124.20776 0.7733162 -156.69389
10954640625 0.83726972 -144.12442 0.0010125439 -119.8642 0.00099590397 -125.50548 0.77392673 -156.70549
10954675000 0.83809245 -143.99516 0.001032847 -119.61008 0.00099566253 -127.40836 0.77264553 -156.8074
10954709375 0.8382017 -144.0399 0.0010258382 -119.77076 0.0010198834 -124.79157 0.7725563 -156.71689
10954743750 0.83818501 -144.03603 0.0010380341 -122.67025 0.0010403404 -124.9264 0.77234584 -156.66628
10954778125 0.83805031 -144.0372 0.0010461677 -121.32609 0.0010191259 -126.87837 0.77164257 -156.7805
10954812500 0.83853298 -144.06886 0.0010151733 -121.70798 0.001046291 -126.03036 0.77234125 -156.7634
10954846875 0.83883673 -144.10269 0.0010338152 -121.71895 0.0010225418 -126.02808 0.7721833 -156.7518
10954881250 0.83861858 -144.13499 0.0010041685 -121.71166 0.0010052928 -124.00189 0.77258408 -156.86984
10954915625 0.83783937 -144.15187 0.001009292 -121.22739 0.00099993881 -123.93945 0.77250332 -156.74811
10954950000 0.8375138 -144.10945 0.001030997 -121.90941 0.0010041259 -126.40335 0.77185476 -156.78951
10954984375 0.83759642 -144.09915 0.0010198327 -119.64325 0.001018926 -124.89647 0.7730099 -156.71831
10955018750 0.83735186 -144.13843 0.0010285985 -120.45906 0.0010013086 -124.88333 0.77364266 -156.66039
10955053125 0.83787227 -144.07576 0.0010616197 -120.43113 0.00098868366 -126.49546 0.77335924 -156.81419
10955087500 0.83721852 -144.11653 0.0010118353 -121.22897 0.0010304707 -126.61145 0.77328026 -156.81372
10955121875 0.83748227 -144.12405 0.0010166375 -122.0087 0.00098060968 -126.54219 0.7726711 -156.7939
10955156250 0.83694255 -144.06259 0.0010395515 -120.49246 0.0010241619 -125.64633 0.77271885 -156.80019
10955190625 0.83612347 -144.05293 0.0010077051 -120.08733 0.0010288669 -126.48079 0.77240384 -156.82669
10955225000 0.83681649 -144.12944 0.00098772906 -119.51416 0.0010245334 -126.10021 0.77218097 -156.90643
10955259375 0.83882517 -144.12177 0.0010068648 -121.85841 0.0010240627 -127.37464 0.77287799 -156.90651
10955293750 0.83787167 -144.13817 0.0010102146 -120.7131 0.0010278242 -127.12431 0.77226746 -156.89221
10955328125 0.83836973 -144.06076 0.0010332924 -119.9748 0.0010020783 -126.31319 0.77160561 -156.85938
10955362500 0.83830476 -144.142 0.0010375305 -119.65816 0.0010163598 -126.93774 0.77289921 -156.86717
10955396875 0.83737618 -144.07414 0.0010102062 -120.05647 0.001016757 -127.87643 0.77259052 -156.84946
10955431250 0.83745193 -144.12621 0.0010232533 -122.07413 0.0010185553 -126.23521 0.77242512 -156.8773
10955465625 0.83824724 -144.14378 0.0010069762 -123.23497 0.0010210482 -125.44984 0.77220935 -156.85793
10955500000 0.83630508 -144.10902 0.00099767046 -120.55753 0.0010132168 -126.78721 0.77242869 -156.78073
10955534375 0.8383255 -144.14911 0.0010056059 -120.8654 0.00099584355 -124.81089 0.77268434 -156.8436
10955568750 0.83661252 -144.14331 0.0009850082 -121.76909 0.001022027 -128.74681 0.77249098 -156.88454
10955603125 0.83751184 -144.15637 0.0010009918 -121.72788 0.00098530785 -124.83049 0.77294606 -156.81509
10955637500 0.83788139 -144.18503 0.0010154275 -122.65554 0.0010229974 -124.85159 0.77256972 -156.88377
10955671875 0.83904696 -144.14069 0.00099441689 -121.97609 0.0010045647 -126.5805 0.77180809 -156.9166
10955706250 0.83837372 -144.15346 0.00097563368 -122.54204 0.00099146366 -126.04987 0.77246445 -156.89886
10955740625 0.83749056 -144.09235 0.001008336 -122.55923 0.0010154007 -123.26568 0.77323008 -156.86763
10955775000 0.8358252 -144.14397 0.0009912214 -121.86202 0.00097421755 -126.08143 0.77314103 -156.96454
10955809375 0.83701038 -144.18324 0.00097108551 -121.96464 0.00099941145 -124.39175 0.7714892 -156.95219
10955843750 0.83723032 -144.16763 0.00096298353 -119.71162 0.0010020901 -126.18057 0.77273571 -156.91531
10955878125 0.83781606 -144.2256 0.0010167527 -119.5499 0.00098680262 -126.02669 0.77137876 -156.92624
10955912500 0.83617365 -144.22813 0.0010099467 -119.537 0.0010061179 -126.66509 0.77191365 -156.89175
10955946875 0.83583504 -144.18367 0.0010028717 -123.38659 0.00099982938 -124.54752 0.77165407 -156.87318
10955981250 0.83619744 -144.15131 0.00097744144 -119.73084 0.00098497304 -126.53655 0.77237785 -156.89856
10956015625 0.83674455 -144.16376 0.00098437339 -120.12527 0.00100839 -125.96037 0.77252579 -156.86911
10956050000 0.83738893 -144.12279 0.00096340035 -121.92963 0.00097591575 -123.3875 0.77334493 -156.88336
10956084375 0.83784705 -144.11617 0.0010073012 -119.54883 0.0010169049 -124.65182 0.77280211 -156.91492
10956118750 0.83700836 -144.19313 0.00097389368 -121.58186 0.0009855805 -123.06292 0.77333969 -156.91354
10956153125 0.83668637 -144.20467 0.00099841319 -121.7315 0.00098915305 -126.37318 0.77266687 -156.91043
10956187500 0.83648074 -144.21059 0.00099113828 -119.06436 0.00096258463 -124.82689 0.7728247 -156.86168
10956221875 0.83795154 -144.24458 0.0009822608 -120.98132 0.00099532539 -125.04003 0.7717306 -156.95959
10956256250 0.83812433 -144.21921 0.00097311049 -120.2002 0.0010017548 -126.31339 0.7710954 -156.95877
10956290625 0.83786803 -144.25075 0.00095388503 -118.48 0.00096848799 -124.82608 0.77245998 -156.95279
10956325000 0.83773696 -144.19951 0.0009909987 -122.46648 0.00098763534 -124.37358 0.77240282 -157.04449
10956359375 0.83891749 -144.17215 0.00099133083 -122.11798 0.0010026387 -123.55088 0.77274466 -156.83818
10956393750 0.83875775 -144.15054 0.00097394694 -120.93782 0.00098869938 -126.91747 0.77205813 -156.88837
10956428125 0.83774358 -144.16855 0.0009418024 -120.58602 0.00097899709 -126.41895 0.77208275 -156.92532
