!Agilent Technologies,E8362C,MY49020356,A.09.42.23
!Agilent E8362C: A.09.42.23
!Date: Saturday, September 11, 2021 04:06:47
!Correction: S11(Full 2 Port(1,2)) 
!S21(Full 2 Port(1,2)) 
!S12(Full 2 Port(1,2)) 
!S22(Full 2 Port(1,2)) 
!S2P File: Measurements: S11, S21, S12, S22:
# Hz S  MA   R 50
10950000000 0.62859565 178.91536 0.00095534394 -126.87754 0.00072040578 -113.31755 0.78183568 -157.47371
10950034375 0.62781107 179.03012 0.00093200488 -128.13972 0.00076033158 -113.08853 0.78207475 -157.45784
10950068750 0.62863004 179.00349 0.00094559253 -123.7796 0.00075244147 -115.4005 0.78267133 -157.44154
10950103125 0.62798673 178.97369 0.00092063146 -125.3772 0.00075594458 -113.93959 0.78130901 -157.47153
10950137500 0.62732059 178.92856 0.00090517756 -127.47584 0.00074028363 -116.83102 0.78213 -157.49936
10950171875 0.62820715 178.87276 0.00092561246 -128.08875 0.00075968698 -112.24944 0.78213799 -157.4971
10950206250 0.62832737 178.91435 0.00094442256 -127.16979 0.00074879971 -114.76839 0.78170747 -157.57352
10950240625 0.62877798 178.89995 0.00094496005 -127.95875 0.00077578035 -113.01219 0.78148705 -157.50896
10950275000 0.62765247 178.94614 0.0008859213 -129.30824 0.00074577722 -113.29804 0.78119934 -157.59875
10950309375 0.62831742 178.99437 0.00094998546 -127.78089 0.0007299555 -114.72314 0.78215051 -157.52368
10950343750 0.62801546 179.0732 0.00099272828 -126.34837 0.00077798549 -112.17995 0.78240132 -157.49478
10950378125 0.62834436 179.01506 0.00094495347 -127.58877 0.00073453994 -114.39117 0.78178632 -157.56798
10950412500 0.62701035 178.953 0.00092080503 -127.58826 0.0007459076 -114.34402 0.78259474 -157.55403
10950446875 0.62826359 178.90057 0.00095682335 -126.40667 0.00075553096 -113.25383 0.78215849 -157.49182
10950481250 0.62791759 178.99591 0.00097567349 -126.77647 0.0007543898 -114.67034 0.78154814 -157.49971
10950515625 0.62878108 178.90912 0.00094524113 -128.00125 0.00073913718 -112.62112 0.78168339 -157.54376
10950550000 0.62816572 178.89655 0.00097535917 -126.40396 0.0007806684 -113.46854 0.78066719 -157.56691
10950584375 0.62763417 178.99461 0.00091585354 -129.21652 0.00076898525 -115.20049 0.78161967 -157.57196
10950618750 0.62823403 179.00974 0.00094482425 -127.38575 0.00074276596 -114.19011 0.78216827 -157.57082
10950653125 0.62716502 178.96608 0.00092846487 -126.06294 0.0007247983 -116.32542 0.78180707 -157.55621
10950687500 0.62733006 178.95009 0.00090686296 -126.29459 0.0007512322 -115.29663 0.78201383 -157.58202
10950721875 0.62794268 178.99156 0.00094685057 -124.19229 0.00072251086 -113.18145 0.78215969 -157.5728
10950756250 0.62861729 179.05695 0.00092220731 -127.90231 0.00073647843 -114.67354 0.78090787 -157.52718
10950790625 0.6283083 178.92036 0.0009514197 -126.73644 0.00071630109 -115.95384 0.78108865 -157.51381
10950825000 0.62798399 178.95522 0.0009664988 -126.26357 0.00073660456 -114.70784 0.78070086 -157.57465
10950859375 0.62810183 178.93237 0.00095741142 -125.69487 0.00074765383 -113.5383 0.78119481 -157.51797
10950893750 0.62833852 178.93159 0.00093316997 -126.35922 0.0007492858 -117.7282 0.78053653 -157.54733
10950928125 0.62852377 178.9425 0.00096541375 -126.56647 0.00074719352 -114.73881 0.78054065 -157.4825
10950962500 0.62769639 178.86736 0.00092117483 -127.20999 0.00073958666 -115.90954 0.78072995 -157.52179
10950996875 0.62778962 178.93237 0.00092783815 -128.11037 0.00071081147 -113.28624 0.78166813 -157.50534
10951031250 0.62879258 178.89064 0.00095390488 -127.69646 0.00074369344 -113.8618 0.78106195 -157.62224
10951065625 0.62868154 178.91998 0.000925356 -125.40611 0.00072381378 -114.22812 0.78098738 -157.61197
10951100000 0.62866521 178.94495 0.00093196658 -125.09624 0.00071624614 -112.98137 0.7805813 -157.6086
10951134375 0.62786275 178.86075 0.00092676136 -126.30859 0.00071350177 -116.6984 0.78107977 -157.55412
10951168750 0.62795669 178.93906 0.00095831323 -126.56232 0.00073451654 -114.7141 0.78220481 -157.57777
10951203125 0.62870771 178.8847 0.00092116924 -126.28464 0.00074279093 -115.39937 0.78113937 -157.61848
10951237500 0.62753612 178.95834 0.00092178141 -127.18782 0.00075390446 -115.11787 0.78135908 -157.5787
10951271875 0.62775743 178.84222 0.00091538776 -126.10218 0.0007559596 -115.52316 0.78222662 -157.68481
10951306250 0.62820649 178.89604 0.00091511226 -127.76522 0.00075430243 -114.33031 0.78224063 -157.61259
10951340625 0.62889677 178.86774 0.00094056054 -127.6936 0.0007573301 -111.74658 0.78224361 -157.52264
10951375000 0.62897044 178.84795 0.000912669 -125.44562 0.0007419255 -114.37818 0.78114617 -157.61151
10951409375 0.62864244 178.89668 0.00091607624 -125.73374 0.0007251483 -114.66806 0.7814883 -157.55479
10951443750 0.62820572 178.93326 0.00092535664 -128.47662 0.00074166496 -117.92676 0.78105271 -157.58771
10951478125 0.62823081 178.86119 0.00096292509 -126.40003 0.00077130797 -115.87855 0.78203559 -157.63319
10951512500 0.62849629 178.88699 0.00096052524 -125.75738 0.00072564045 -113.8271 0.78167921 -157.56725
10951546875 0.62856454 178.77768 0.00092401466 -127.54369 0.00074511062 -115.64285 0.78076249 -157.60094
10951581250 0.62803233 178.85149 0.0009450838 -128.43269 0.00077923667 -118.2599 0.78093421 -157.53639
10951615625 0.62851268 178.89748 0.00090661075 -127.40517 0.0007246047 -115.75033 0.77995181 -157.63657
10951650000 0.62827933 178.81259 0.00094521209 -126.55643 0.00074235711 -115.01629 0.78048253 -157.61278
10951684375 0.62862623 178.87582 0.00092824403 -125.80848 0.0007766753 -117.59866 0.78148109 -157.65999
10951718750 0.62871796 178.76772 0.00090426084 -125.88854 0.00074668438 -113.26855 0.78261667 -157.65546
10951753125 0.6281476 178.75792 0.00094553706 -125.38579 0.00074100192 -114.60355 0.78138894 -157.64505
10951787500 0.62849152 178.80882 0.00097377686 -127.92825 0.00073609466 -116.9342 0.7821641 -157.61377
10951821875 0.6279065 178.76788 0.00095328555 -126.25111 0.00073519675 -116.20417 0.78206033 -157.5694
10951856250 0.62823921 178.89838 0.00092022982 -126.394 0.00075643079 -116.68536 0.78160894 -157.67633
10951890625 0.62841755 178.85048 0.00093096792 -124.82359 0.00074777543 -113.8007 0.7814011 -157.77022
10951925000 0.62770176 178.80292 0.00093429303 -127.87856 0.00077988947 -116.19202 0.7803337 -157.69212
10951959375 0.62847382 178.77173 0.00094161695 -128.76733 0.00073527364 -115.27514 0.78141207 -157.69261
10951993750 0.62821227 178.81345 0.00094936043 -128.91342 0.00073249824 -113.28123 0.77996999 -157.79138
10952028125 0.62832087 178.7446 0.00094479357 -126.63205 0.00077076821 -113.90337 0.78036159 -157.74043
10952062500 0.62778157 178.7789 0.00094160822 -127.73861 0.00073800801 -114.07922 0.78003246 -157.65877
10952096875 0.6283704 178.74847 0.00094542874 -127.52956 0.00078372477 -116.47404 0.78023088 -157.69232
10952131250 0.62777877 178.78255 0.00093280099 -127.43008 0.00074170908 -114.87537 0.78127795 -157.68803
10952165625 0.62789893 178.76312 0.00093313667 -129.52219 0.000719501 -114.63554 0.78074676 -157.66957
10952200000 0.62762791 178.69595 0.00090665481 -127.0897 0.00072592089 -114.72858 0.7823112 -157.74702
10952234375 0.62763774 178.64102 0.00093203818 -127.99252 0.00074289506 -116.13356 0.78132677 -157.75371
10952268750 0.62718368 178.71947 0.00097359897 -128.62979 0.00074526254 -113.53994 0.78168994 -157.73218
10952303125 0.62793189 178.64191 0.00096341514 -128.84128 0.0007558444 -114.77885 0.78187644 -157.78629
10952337500 0.62793326 178.73985 0.00095722289 -128.39069 0.00077599811 -116.11575 0.78210264 -157.78014
10952371875 0.62796414 178.79524 0.00094904425 -126.01646 0.00074139569 -116.16731 0.78180897 -157.73842
10952406250 0.62738991 178.71671 0.00094946724 -126.55375 0.00073041074 -114.40193 0.78077859 -157.78381
10952440625 0.62713164 178.71951 0.000939294 -128.35852 0.0007371729 -116.55431 0.78026068 -157.8017
10952475000 0.62653184 178.66945 0.00093769759 -126.61002 0.00075254758 -114.36333 0.7796033 -157.76457
10952509375 0.62794924 178.66666 0.00096047274 -126.45248 0.00077525253 -113.85748 0.78038526 -157.79761
10952543750 0.6273936 178.77274 0.00094233686 -125.5239 0.00075711508 -114.88598 0.78059816 -157.70166
10952578125 0.62808949 178.806 0.00094280584 -126.72621 0.00073859596 -111.60706 0.78094995 -157.78297
10952612500 0.62740189 178.72372 0.00096004398 -127.21101 0.00078051153 -113.61743 0.7809484 -157.73438
10952646875 0.62808782 178.70424 0.0009518005 -127.17692 0.00073952641 -114.91447 0.78108305 -157.75006
10952681250 0.62743163 178.66664 0.00093185675 -127.77847 0.00071489124 -114.1312 0.78093541 -157.70184
10952715625 0.62684447 178.73917 0.0009345134 -126.3957 0.00076939829 -115.5053 0.78155029 -157.74449
10952750000 0.62723666 178.65709 0.00093789067 -126.43809 0.00073000236 -113.92059 0.78108215 -157.78166
10952784375 0.62724656 178.72025 0.00092630938 -126.52978 0.00075241254 -118.95326 0.78045702 -157.77077
10952818750 0.6272493 178.72771 0.00094485033 -128.00763 0.00073376554 -114.30988 0.78118503 -157.75076
10952853125 0.62743104 178.63902 0.0009225519 -128.07553 0.00073762168 -114.30679 0.78090334 -157.77924
10952887500 0.62782538 178.65128 0.00093528605 -127.66152 0.00071707671 -116.30948 0.7814526 -157.81525
10952921875 0.62755311 178.61346 0.00092160684 -126.85552 0.00079334935 -117.4875 0.78161955 -157.77859
10952956250 0.62767768 178.60414 0.00094718888 -129.20488 0.00072716421 -115.99149 0.78186572 -157.84802
10952990625 0.62830502 178.6142 0.00093609473 -126.49596 0.00073570805 -115.53159 0.78159451 -157.87631
10953025000 0.62723595 178.63893 0.00091109221 -127.11285 0.00073368166 -116.81879 0.78091669 -157.85095
10953059375 0.62767678 178.62535 0.00092973496 -127.39693 0.00073095324 -116.50925 0.78055251 -157.83737
10953093750 0.62770027 178.59915 0.00097896007 -126.05244 0.00074174057 -116.53156 0.78033376 -157.85123
10953128125 0.62800455 178.57799 0.00096196355 -128.46509 0.00074676005 -114.31799 0.78080106 -157.78471
10953162500 0.62866813 178.605 0.00094582309 -127.35413 0.00073052169 -112.35734 0.78075236 -157.77332
10953196875 0.62698102 178.61137 0.0009640397 -126.12525 0.00075869635 -115.76308 0.7802124 -157.90195
10953231250 0.62731057 178.55411 0.00096962863 -128.04793 0.00076117844 -113.21135 0.78095889 -157.84512
10953265625 0.62777364 178.60179 0.00091441284 -128.81979 0.00071497814 -115.07343 0.78138244 -157.92799
10953300000 0.62878847 178.6795 0.00096529326 -127.62599 0.00071166729 -114.61572 0.78077817 -157.83456
10953334375 0.62773687 178.56412 0.00094403548 -128.08066 0.00074656791 -115.85056 0.78122824 -157.93341
10953368750 0.62826824 178.58467 0.00094428973 -128.95442 0.00072703738 -118.0442 0.78143573 -157.82143
10953403125 0.627536 178.64639 0.00094288558 -128.88138 0.00073415722 -115.66073 0.78210425 -157.81473
10953437500 0.62665004 178.64856 0.00094436231 -127.55888 0.00071971619 -115.77561 0.78220385 -157.88049
10953471875 0.62810653 178.62444 0.00093583524 -125.77545 0.00078364712 -115.313 0.78161049 -157.90141
10953506250 0.62730622 178.62573 0.00092448597 -127.7978 0.00073361973 -117.46033 0.78034461 -157.88472
10953540625 0.62848902 178.59689 0.00096934836 -129.45038 0.00074957102 -116.27375 0.7813763 -157.89154
10953575000 0.62725824 178.55464 0.00094914512 -125.67374 0.00074294128 -116.94543 0.78230029 -157.90099
10953609375 0.62724727 178.61223 0.0009498194 -126.32965 0.00072574406 -114.79951 0.78225106 -157.95222
10953643750 0.62676543 178.46306 0.00095810479 -130.00934 0.00075448997 -115.96264 0.78088653 -157.87956
10953678125 0.62666589 178.52924 0.00095284748 -126.01918 0.00079201203 -112.7488 0.78085524 -157.9559
10953712500 0.62687737 178.48717 0.00098706572 -128.04596 0.00073885371 -116.99724 0.78229362 -157.95879
10953746875 0.62713647 178.57043 0.00094533991 -129.19641 0.00072301354 -115.00849 0.78148782 -157.87483
10953781250 0.62819535 178.59161 0.00094645633 -127.34541 0.00073556055 -114.66146 0.78192753 -157.8318
10953815625 0.62859905 178.64639 0.00091622298 -127.58776 0.0007493617 -114.12484 0.7807982 -157.86597
10953850000 0.62769532 178.5594 0.0009896619 -128.42685 0.00073898479 -114.67146 0.78123015 -157.91461
10953884375 0.62787187 178.59094 0.00093560282 -126.75101 0.0007332465 -115.07814 0.78110224 -157.91629
10953918750 0.62728381 178.5692 0.00097377179 -126.26972 0.00076955411 -114.99467 0.78165549 -157.96155
10953953125 0.62719011 178.48846 0.00094805798 -126.60846 0.00074116688 -114.56731 0.7818473 -157.9586
10953987500 0.62751853 178.57423 0.00092379411 -128.53746 0.00075837329 -114.07713 0.78080398 -157.97101
10954021875 0.62833858 178.58609 0.00092441897 -128.99426 0.00075157027 -114.18412 0.78046554 -157.97188
10954056250 0.62830424 178.50603 0.00096233661 -127.78458 0.00072538474 -113.5994 0.78125846 -157.95882
10954090625 0.62788665 178.51932 0.00095113035 -128.1474 0.00075007166 -114.49714 0.78045821 -157.94154
10954125000 0.62791914 178.4614 0.00096349377 -127.79348 0.00073906023 -117.0942 0.78233349 -157.92125
10954159375 0.62719929 178.46774 0.00093542656 -127.55144 0.00075447932 -116.82099 0.78076863 -157.91794
10954193750 0.62889189 178.45581 0.0009290427 -128.07382 0.00075912679 -113.45336 0.78109652 -157.92305
10954228125 0.62804866 178.48196 0.00091257464 -126.08157 0.00078566512 -116.37957 0.78063107 -157.98447
10954262500 0.62719065 178.47873 0.00094177993 -127.3871 0.00075873523 -115.69025 0.78005952 -157.97398
10954296875 0.62764597 178.50679 0.00098544802 -128.61963 0.00077262387 -114.41203 0.77994615 -157.96582
10954331250 0.62736338 178.43987 0.0009130211 -128.98199 0.0007578294 -112.81548 0.78172618 -157.98773
10954365625 0.6272344 178.47661 0.00092997763 -126.69367 0.00075672742 -115.60306 0.78074664 -157.96664
10954400000 0.62795365 178.47517 0.00094528927 -129.81755 0.00072977901 -115.73537 0.78117973 -157.96638
10954434375 0.62733585 178.50446 0.00091845647 -126.27152 0.00078099407 -114.26784 0.78063291 -157.95668
10954468750 0.62743366 178.41882 0.00091790699 -126.54081 0.00077138003 -116.24233 0.78027344 -158.05544
10954503125 0.62832671 178.47304 0.00094087049 -126.08093 0.00069292553 -115.1953 0.78079408 -157.9807
10954537500 0.62723339 178.57133 0.00094773469 -127.40654 0.00075128244 -117.7071 0.78099978 -157.9483
10954571875 0.62831753 178.52214 0.00094550406 -126.24359 0.00076933601 -115.62675 0.78075582 -158.03781
10954606250 0.6270321 178.54739 0.00092834228 -126.99233 0.00074572139 -115.82265 0.78140289 -157.9727
10954640625 0.62740153 178.45421 0.00094382104 -128.37151 0.00074851571 -115.68152 0.78109008 -157.97368
10954675000 0.62691838 178.45697 0.00091166468 -129.92905 0.00073527056 -116.65668 0.77901989 -157.92426
10954709375 0.62763506 178.54298 0.00096236967 -125.91508 0.00072691613 -115.79374 0.78068668 -158.05333
10954743750 0.62862211 178.49271 0.00094694522 -127.74577 0.00072920491 -116.6368 0.77969658 -158.00659
10954778125 0.62794894 178.44591 0.00094490568 -127.46404 0.00072356057 -117.7647 0.77882779 -157.9884
10954812500 0.62814784 178.41673 0.00094155915 -128.76971 0.00074153143 -112.86193 0.78139198 -158.07138
10954846875 0.62811184 178.38083 0.00096065376 -126.47027 0.00073138549 -117.16768 0.78081524 -158.09268
10954881250 0.62806737 178.35834 0.00094255275 -129.60086 0.00076477695 -115.73106 0.78058404 -158.06837
10954915625 0.62728816 178.44308 0.00095226051 -126.87429 0.00076284207 -116.51501 0.78147936 -158.01637
10954950000 0.62791473 178.4014 0.00090604776 -128.21033 0.00074916694 -116.83159 0.78109854 -158.03491
10954984375 0.62677592 178.38931 0.00094321161 -128.1234 0.00076365244 -115.85776 0.78099275 -157.93013
10955018750 0.62718308 178.45131 0.00095631555 -126.29297 0.00073385669 -117.30059 0.78163427 -157.94556
10955053125 0.62747407 178.4373 0.00094548624 -126.92645 0.00074094627 -115.8763 0.78168577 -158.00476
10955087500 0.62805468 178.41817 0.00096168474 -127.0026 0.00073176081 -116.14081 0.78082067 -158.08107
10955121875 0.62662572 178.44412 0.00093793293 -128.90965 0.00075973553 -114.95166 0.7805829 -158.06528
10955156250 0.62597948 178.45511 0.00092008023 -127.77219 0.0007545586 -118.14185 0.78058112 -158.09245
10955190625 0.62657613 178.41296 0.00093596999 -129.0694 0.00074303389 -115.84909 0.78087419 -158.11388
10955225000 0.62685025 178.45915 0.00094726641 -128.53423 0.0007515499 -116.90685 0.78031123 -158.07684
10955259375 0.62756008 178.4315 0.00094378117 -128.31424 0.00075192406 -116.38675 0.78038406 -158.06978
10955293750 0.62821215 178.37933 0.00093231082 -127.96874 0.00074795628 -114.03153 0.78088582 -158.10748
10955328125 0.62769973 178.43829 0.00098258525 -127.95264 0.00071980571 -116.23116 0.77991378 -158.15697
10955362500 0.62723345 178.48648 0.00095123937 -127.1415 0.00072845601 -117.06541 0.77950495 -158.1163
10955396875 0.62751454 178.47844 0.00091598387 -127.58706 0.0007393274 -116.84448 0.78007996 -158.17253
10955431250 0.62720883 178.39078 0.00094052544 -128.45355 0.00071908074 -115.6745 0.78043991 -158.05437
10955465625 0.62644833 178.52762 0.00094571529 -127.79005 0.00071487995 -116.51225 0.78075755 -158.07056
10955500000 0.62759644 178.40707 0.0009148019 -130.45381 0.00071044569 -115.85527 0.77991074 -158.07405
10955534375 0.62676942 178.42412 0.00090468262 -128.46381 0.00070789451 -116.49508 0.78058463 -158.14496
10955568750 0.62589461 178.40891 0.00097453094 -127.4829 0.00069894618 -116.07382 0.78148007 -158.09218
10955603125 0.62709504 178.4619 0.00091913325 -127.0276 0.00075881713 -115.3328 0.78059077 -158.04601
10955637500 0.62839741 178.37202 0.00095273455 -129.31413 0.00077003654 -121.90842 0.78012961 -158.16766
10955671875 0.62737834 178.39156 0.0009466568 -128.92773 0.00071814563 -117.0021 0.77934825 -158.16628
10955706250 0.62744933 178.42207 0.00093154033 -129.66338 0.00071831048 -118.53406 0.78016478 -158.16911
10955740625 0.62687242 178.37444 0.00093677151 -130.14598 0.00073666871 -114.17755 0.78054255 -158.14711
10955775000 0.62727791 178.40875 0.00093659555 -128.48051 0.00071766431 -117.8101 0.78037041 -158.11395
10955809375 0.62641871 178.42334 0.00094590167 -128.83853 0.00075035845 -118.3278 0.78099632 -158.16481
10955843750 0.62724751 178.36259 0.00090445601 -128.4688 0.00070724968 -116.48795 0.78025043 -158.13864
10955878125 0.62719399 178.35655 0.00094615412 -127.21632 0.00075405138 -115.78762 0.78055185 -158.13113
10955912500 0.62647837 178.28677 0.00091639184 -128.42346 0.00071400084 -116.7962 0.77955699 -158.1508
10955946875 0.62603098 178.38866 0.00091807207 -129.37267 0.00074189517 -115.33347 0.78004587 -158.13235
10955981250 0.62669241 178.40999 0.00092297111 -128.83609 0.00074294134 -111.22923 0.78187633 -158.1033
10956015625 0.62623739 178.45686 0.00091760367 -130.17079 0.00069896627 -116.36271 0.78044856 -158.18127
10956050000 0.62769455 178.44049 0.0009241575 -127.80334 0.00069509225 -116.39964 0.78059423 -158.17465
10956084375 0.62770152 178.38818 0.0009247298 -127.30276 0.00073502376 -118.07522 0.78102481 -158.19977
10956118750 0.62780201 178.39558 0.00092276582 -126.75035 0.00070854882 -117.36987 0.78109521 -158.22052
10956153125 0.62690312 178.39552 0.00092791364 -127.78098 0.00071217085 -117.75395 0.78095442 -158.18147
10956187500 0.62657934 178.32668 0.00088896463 -126.11894 0.00069795846 -116.6311 0.78065056 -158.13016
10956221875 0.62733102 178.40521 0.00091227109 -128.39943 0.00073217438 -116.77982 0.78029001 -158.13377
10956256250 0.62667143 178.37752 0.00094225543 -129.3546 0.00070492737 -115.17449 0.77975535 -158.24005
10956290625 0.62795949 178.37416 0.00094552437 -129.67131 0.00075484934 -114.31452 0.78033715 -158.21962
10956325000 0.6268369 178.3913 0.00089871226 -129.70393 0.00070961675 -116.34052 0.78075284 -158.18198
10956359375 0.62756586 178.42461 0.00096778141 -130.69762 0.0007055914 -115.51584 0.7801128 -158.12733
10956393750 0.62716508 178.39305 0.00092367944 -127.00421 0.0007113358 -118.9212 0.78048676 -158.15121
