!Agilent Technologies,E8362C,MY49020356,A.09.42.23
!Agilent E8362C: A.09.42.23
!Date: Saturday, September 11, 2021 04:07:55
!Correction: S11(Full 2 Port(1,2)) 
!S21(Full 2 Port(1,2)) 
!S12(Full 2 Port(1,2)) 
!S22(Full 2 Port(1,2)) 
!S2P File: Measurements: S11, S21, S12, S22:
# Hz S  MA   R 50
10950000000 0.69950068 -175.64685 0.00083631271 -109.39854 0.00048148117 -113.25097 0.73520964 -150.29031
10950034375 0.69854307 -175.65732 0.0008583832 -109.12357 0.00050382904 -115.2469 0.73454124 -150.31245
10950068750 0.6987657 -175.73167 0.00091897027 -110.60551 0.00048855337 -115.63427 0.73453844 -150.20435
10950103125 0.69887972 -175.64821 0.00087752118 -107.59643 0.00050645065 -112.80183 0.73575675 -150.34172
10950137500 0.69829172 -175.72266 0.00086604955 -110.30354 0.00049198925 -111.74795 0.73485559 -150.27327
10950171875 0.69928187 -175.79854 0.00090112863 -108.33257 0.00048876979 -114.98397 0.73524445 -150.33037
10950206250 0.69809216 -175.79836 0.00088316068 -110.47424 0.00045291212 -115.52716 0.73396426 -150.37752
10950240625 0.6990326 -175.75659 0.00086929696 -108.41595 0.00051624607 -114.98157 0.73494148 -150.4184
10950275000 0.70007968 -175.72798 0.00088126643 -111.86909 0.00049954926 -110.98169 0.73448336 -150.38644
10950309375 0.69954115 -175.70049 0.00085833069 -108.94022 0.0004530045 -114.7989 0.73456663 -150.32732
10950343750 0.69846898 -175.66321 0.00083954755 -109.10587 0.00050589076 -111.05753 0.73472863 -150.35985
10950378125 0.6986748 -175.65726 0.00087088079 -108.50134 0.00046179589 -114.57624 0.73565257 -150.36702
10950412500 0.69760156 -175.63019 0.00085829862 -109.12693 0.00049059326 -113.79333 0.73567587 -150.3694
10950446875 0.69794905 -175.73341 0.00086286245 -110.32222 0.00046779166 -111.73713 0.73546743 -150.33025
10950481250 0.69876128 -175.72011 0.00091234094 -109.53231 0.00054041913 -111.63891 0.73462445 -150.33507
10950515625 0.69954348 -175.75659 0.00089346472 -108.95496 0.00049922388 -114.53409 0.73421633 -150.39268
10950550000 0.69857764 -175.70044 0.00086321234 -110.08618 0.00051136204 -108.61526 0.73447227 -150.34276
10950584375 0.69796491 -175.68715 0.0008760498 -108.15837 0.00049388869 -113.66881 0.73450923 -150.40382
10950618750 0.69830525 -175.76144 0.00089322607 -111.08161 0.00048392446 -112.12156 0.73434138 -150.39835
10950653125 0.69803053 -175.68237 0.00089626899 -109.09718 0.0004593964 -113.92917 0.73394102 -150.45847
10950687500 0.69680023 -175.69862 0.0008473738 -109.73216 0.00047941037 -112.47841 0.73486412 -150.48856
10950721875 0.6977433 -175.67818 0.00083779497 -110.55968 0.00049852952 -112.88404 0.73504853 -150.36415
10950756250 0.69812775 -175.68794 0.0008787947 -110.16304 0.00049001974 -112.36884 0.73452193 -150.35007
10950790625 0.69757825 -175.73924 0.00089120434 -108.91224 0.00051414728 -110.91601 0.73423368 -150.38893
10950825000 0.69880134 -175.74724 0.00091098697 -110.23631 0.00047641021 -114.64149 0.73383695 -150.44315
10950859375 0.69784242 -175.771 0.00086023571 -110.83372 0.00047458467 -108.67184 0.73371828 -150.37369
10950893750 0.6985833 -175.67154 0.00087340042 -107.67229 0.00048186231 -112.48253 0.73445064 -150.42844
10950928125 0.69845551 -175.74171 0.00085442857 -109.46268 0.00050513301 -111.66202 0.73345459 -150.3342
10950962500 0.6983552 -175.70538 0.00091508374 -109.50328 0.00048148018 -112.34753 0.73430574 -150.38148
10950996875 0.69778121 -175.65958 0.00088564097 -109.2521 0.00047807538 -112.44839 0.73466963 -150.40034
10951031250 0.69759893 -175.6741 0.00083059445 -110.2393 0.00050153723 -114.08286 0.73425186 -150.35474
10951065625 0.6984309 -175.79161 0.00089111057 -109.6384 0.00048088038 -108.84842 0.7343899 -150.51254
10951100000 0.69918299 -175.73421 0.00084907102 -107.45378 0.00047934087 -111.31088 0.73428249 -150.39914
10951134375 0.69933122 -175.77556 0.00087012502 -108.48293 0.00051192212 -111.63387 0.73415333 -150.45978
10951168750 0.69847703 -175.70351 0.00084215822 -108.60502 0.00048640691 -113.28918 0.73364401 -150.43463
10951203125 0.69890785 -175.7951 0.00088024489 -108.66008 0.00046224555 -112.96873 0.7347784 -150.4158
10951237500 0.69747466 -175.7995 0.0008830243 -109.25195 0.00047173459 -113.42019 0.73433316 -150.45241
10951271875 0.69864047 -175.84364 0.00089162641 -111.11379 0.00047876735 -116.66969 0.73406786 -150.45641
10951306250 0.69785964 -175.78653 0.00087426894 -109.4556 0.00048925419 -111.14526 0.7346406 -150.40787
10951340625 0.69897932 -175.75487 0.00086773495 -109.76389 0.00046930014 -110.96645 0.73496389 -150.36716
10951375000 0.6992318 -175.71472 0.00083974208 -110.74982 0.0005020622 -109.2918 0.73427302 -150.45274
10951409375 0.6993264 -175.70221 0.00085332652 -109.48639 0.00048507392 -110.39428 0.73430544 -150.40483
10951443750 0.69914114 -175.76991 0.00088893325 -108.71246 0.00048246994 -112.10615 0.73428804 -150.40663
10951478125 0.69809783 -175.84969 0.00084103295 -107.7778 0.00050541799 -108.89892 0.73350084 -150.48442
10951512500 0.69914687 -175.75302 0.00090891292 -110.23341 0.00047496849 -111.98456 0.73392689 -150.40395
10951546875 0.69857603 -175.87099 0.00082207029 -108.30412 0.00049299648 -108.54551 0.73309886 -150.47337
10951581250 0.69968593 -175.82413 0.00086385536 -110.97316 0.00048026277 -112.89877 0.73324913 -150.45126
10951615625 0.69838482 -175.78958 0.00087900931 -110.49687 0.00048344056 -112.02975 0.73417222 -150.44464
10951650000 0.69918191 -175.89838 0.00084189052 -110.94881 0.00048829988 -112.88152 0.7342459 -150.44772
10951684375 0.69812816 -175.86847 0.00087250816 -106.33774 0.00049830164 -112.4171 0.73351407 -150.49217
10951718750 0.69987458 -175.80229 0.00087602949 -108.60368 0.00050427514 -111.52003 0.73522145 -150.51376
10951753125 0.69869369 -175.92926 0.00085036195 -111.49977 0.00048460459 -108.36578 0.7354067 -150.53049
10951787500 0.69708794 -175.93382 0.00085551426 -110.94238 0.00049585284 -109.82751 0.73535359 -150.47794
10951821875 0.69796699 -175.86971 0.00085660495 -110.73689 0.00048617428 -113.78991 0.73470896 -150.4749
10951856250 0.69801414 -175.86453 0.00086591119 -108.75416 0.0004584883 -113.8998 0.73432785 -150.49878
10951890625 0.69850183 -175.77162 0.00088331325 -110.73312 0.00052273524 -112.13319 0.73409939 -150.56546
10951925000 0.69893044 -175.8186 0.00086742517 -109.34666 0.00050387159 -112.29579 0.73412484 -150.55663
10951959375 0.6992678 -175.90015 0.0008925845 -110.57289 0.00050802116 -112.07025 0.73347181 -150.55858
10951993750 0.69956082 -175.96127 0.00086534076 -108.31162 0.00048198842 -111.91609 0.73351264 -150.61195
10952028125 0.69874549 -175.91881 0.00088043459 -110.41971 0.00048026079 -111.95759 0.73280525 -150.56458
10952062500 0.69935 -175.93697 0.00091334555 -107.87228 0.00050258992 -112.57722 0.7337274 -150.49358
10952096875 0.69913089 -175.87309 0.0008702327 -111.81854 0.00049731618 -110.64354 0.73274344 -150.58456
10952131250 0.69815195 -175.89525 0.00088318886 -110.84061 0.00049758324 -111.29308 0.73325789 -150.48698
10952165625 0.69828248 -175.91776 0.00090572797 -109.94801 0.00049427687 -107.91972 0.73332697 -150.54842
10952200000 0.69755572 -175.9325 0.00087481103 -109.78195 0.00049286184 -111.93147 0.73363495 -150.65822
10952234375 0.69759482 -175.97267 0.00085895916 -109.74458 0.00049377728 -113.247 0.73352969 -150.52853
10952268750 0.6985507 -175.85257 0.00089809683 -107.96204 0.00048273127 -115.27443 0.73397219 -150.57149
10952303125 0.6980834 -175.87119 0.00088684569 -109.28916 0.00049708359 -109.59158 0.73337054 -150.61311
10952337500 0.69846827 -175.87917 0.00089345616 -109.52773 0.00048666581 -108.07079 0.7338683 -150.60143
10952371875 0.69829202 -175.9785 0.00088398624 -111.30426 0.00049867976 -109.45871 0.73453885 -150.58031
10952406250 0.69775724 -175.93698 0.00085323182 -109.91202 0.00049802038 -111.2589 0.73360783 -150.69092
10952440625 0.69727451 -175.93828 0.00085802487 -111.14762 0.00049539941 -110.58033 0.73341739 -150.61478
10952475000 0.69839597 -175.96753 0.00089090259 -109.00288 0.00050379755 -112.19824 0.73274851 -150.56743
10952509375 0.69845361 -175.91699 0.00088271609 -109.68468 0.00048510343 -110.10889 0.7338019 -150.52863
10952543750 0.69834375 -175.9225 0.00086535909 -109.98533 0.00046825979 -114.06078 0.73300934 -150.60185
10952578125 0.69902861 -175.85973 0.00085695559 -110.59383 0.00048975676 -112.1638 0.73377949 -150.56113
10952612500 0.69900918 -175.84233 0.00083948695 -109.1549 0.0004581158 -113.18161 0.73378795 -150.58525
10952646875 0.69844878 -175.82031 0.00087150396 -111.61345 0.00048735557 -106.14029 0.73378789 -150.52214
10952681250 0.69813251 -175.90331 0.00091291097 -110.03978 0.00048691433 -110.25334 0.73403728 -150.63181
10952715625 0.6968646 -175.90866 0.00093186845 -109.91721 0.00049773837 -110.85213 0.73343736 -150.57793
10952750000 0.69862407 -175.91534 0.00089320511 -109.91439 0.00049289217 -112.11916 0.73376602 -150.55617
10952784375 0.69770527 -175.96382 0.00086319848 -110.13057 0.00048658758 -106.88065 0.73253876 -150.59027
10952818750 0.69737232 -175.97501 0.00091615925 -110.48533 0.00050686765 -113.98571 0.73420966 -150.60966
10952853125 0.6985544 -176.04697 0.0008258546 -110.29935 0.00050229725 -107.57698 0.73432547 -150.58076
10952887500 0.69829607 -175.99519 0.00089728431 -110.01332 0.00050805393 -111.62597 0.73339701 -150.63661
10952921875 0.69824529 -175.9274 0.00088044594 -111.17889 0.00046227165 -115.48201 0.7342608 -150.65186
10952956250 0.69900787 -175.99443 0.00084620033 -112.63277 0.00047391935 -110.72426 0.73354077 -150.59857
10952990625 0.69860673 -175.97617 0.00087404164 -108.32249 0.00049751508 -107.51759 0.73384136 -150.63863
10953025000 0.699516 -175.96739 0.00086946436 -108.28077 0.00044744689 -109.04441 0.73396778 -150.68542
10953059375 0.69787502 -176.00597 0.00087812234 -111.07653 0.00050849089 -107.32012 0.73310649 -150.61441
10953093750 0.69827765 -176.0432 0.00084328663 -111.34092 0.00048076326 -109.17918 0.7331872 -150.69859
10953128125 0.69879556 -176.04663 0.00088778982 -110.71721 0.00048406588 -114.93771 0.73260969 -150.62695
10953162500 0.69817138 -176.01431 0.00088461395 -109.70898 0.00050529983 -111.09734 0.73270977 -150.60338
10953196875 0.69774407 -176.00792 0.00087023492 -115.18487 0.00048481498 -111.18984 0.73332465 -150.68251
10953231250 0.69757617 -175.98463 0.00087897235 -110.39044 0.00049124309 -109.61456 0.73256242 -150.69032
10953265625 0.69812584 -175.93756 0.00087733177 -113.27215 0.00051944068 -107.69098 0.73407066 -150.70096
10953300000 0.69855475 -175.95854 0.00085523957 -111.15401 0.00050175941 -109.75993 0.7336331 -150.632
10953334375 0.69863647 -175.97188 0.0008705543 -112.25864 0.00051196699 -110.9249 0.73393017 -150.65634
10953368750 0.6982429 -176.03874 0.00089710666 -111.06779 0.00047710692 -110.03062 0.73377961 -150.74139
10953403125 0.69754261 -175.99423 0.00089438725 -111.12856 0.00049109716 -107.25286 0.73314911 -150.70146
10953437500 0.69840974 -175.97545 0.00089450896 -109.08935 0.00049993856 -111.03635 0.73349077 -150.7027
10953471875 0.69826567 -175.9886 0.00087175338 -110.20575 0.00050155877 -108.70248 0.73333132 -150.7195
10953506250 0.69845986 -176.05238 0.0009030677 -112.61049 0.00048510084 -112.36885 0.7330367 -150.71988
10953540625 0.69818968 -176.03976 0.0008722358 -110.92278 0.00050568604 -112.18896 0.7332859 -150.70811
10953575000 0.69800931 -176.09764 0.00089446409 -112.30637 0.00048625973 -104.15814 0.73434782 -150.69968
10953609375 0.69732612 -176.119 0.00089525076 -110.93338 0.00050009036 -109.30753 0.73383057 -150.74492
10953643750 0.69681877 -176.08276 0.00084956409 -109.57063 0.00048262082 -110.09743 0.73490137 -150.80412
10953678125 0.69765371 -176.09741 0.00086319685 -110.92286 0.00048868288 -110.3077 0.7344979 -150.78703
10953712500 0.69824332 -176.06459 0.00090146938 -112.0886 0.00049020379 -109.49992 0.73393255 -150.75041
10953746875 0.69893855 -176.09639 0.0008897722 -111.98378 0.00048684902 -111.85667 0.73327726 -150.70453
10953781250 0.69867992 -176.04799 0.000835074 -113.2429 0.00048797191 -110.04765 0.73294544 -150.69543
10953815625 0.69878668 -175.98293 0.00088487472 -110.13201 0.00050556823 -109.03106 0.73305374 -150.73743
10953850000 0.69831449 -176.05429 0.00083408284 -112.20145 0.00046694654 -112.17982 0.73289996 -150.74854
10953884375 0.69840765 -176.01427 0.00087884138 -111.66644 0.00048965501 -107.50632 0.73342645 -150.7603
10953918750 0.69808823 -176.06561 0.00088532001 -111.8559 0.00051779469 -106.79992 0.73396498 -150.78326
10953953125 0.69762629 -176.10901 0.00086548936 -110.6463 0.00051430945 -110.34195 0.7347334 -150.79117
10953987500 0.69834918 -175.99448 0.00086104829 -112.44826 0.00047573354 -108.76089 0.73267883 -150.79622
10954021875 0.69825679 -176.04042 0.00086028205 -110.23687 0.0005025983 -107.3465 0.73312044 -150.78467
10954056250 0.69844687 -176.04727 0.00084257376 -113.30534 0.00048146473 -109.40301 0.73252058 -150.73839
10954090625 0.69774908 -176.08981 0.00083030754 -111.19004 0.00050756789 -110.86449 0.73272824 -150.77618
10954125000 0.69780642 -176.10559 0.00086350425 -113.49187 0.00050502497 -110.24644 0.73295963 -150.72772
10954159375 0.69804293 -176.14549 0.00085279887 -111.6664 0.00051459018 -111.67081 0.73343211 -150.77505
10954193750 0.69812852 -176.11496 0.00086891506 -110.38658 0.00051219779 -111.56328 0.73277169 -150.78516
10954228125 0.69909167 -176.12895 0.00084807491 -110.75453 0.00049840857 -106.11634 0.73275197 -150.80115
10954262500 0.69878191 -176.11006 0.00088172371 -110.87431 0.00046431163 -110.81071 0.732153 -150.76959
10954296875 0.69842982 -176.13289 0.00082851632 -110.47957 0.00046691415 -110.35645 0.73280293 -150.83165
10954331250 0.69789809 -176.17696 0.00086933695 -112.09261 0.00049845985 -109.84505 0.73288029 -150.81169
10954365625 0.69734156 -176.07938 0.00086121052 -112.94169 0.00048408494 -109.09745 0.73372602 -150.7887
10954400000 0.69798154 -176.11432 0.00086000073 -113.33509 0.00049313181 -109.64791 0.73336983 -150.7655
10954434375 0.69808573 -176.16823 0.00081928482 -111.85063 0.0004939728 -111.07661 0.73289591 -150.81354
10954468750 0.69816673 -176.16212 0.00085409783 -112.03197 0.00049018825 -112.55594 0.73262036 -150.85907
10954503125 0.69880652 -176.15794 0.00084284763 -110.19659 0.00048839836 -109.53245 0.73187059 -150.82173
10954537500 0.69828284 -176.17442 0.00087742059 -112.5489 0.00048207652 -109.59952 0.7332384 -150.83284
10954571875 0.69841337 -176.11107 0.00086883362 -111.34373 0.00047857524 -110.9924 0.73385996 -150.79193
10954606250 0.69767183 -176.12262 0.00084361271 -112.88435 0.00051081553 -109.79865 0.73278689 -150.78796
10954640625 0.69861794 -176.13713 0.00085220934 -111.68961 0.00047315375 -111.56808 0.73343408 -150.82742
10954675000 0.69865125 -176.18593 0.00084657146 -113.72088 0.00049635262 -107.34724 0.73263735 -150.82878
10954709375 0.69825709 -176.17325 0.00082545448 -111.3627 0.00050839945 -106.53922 0.73215532 -150.78676
10954743750 0.69840252 -176.16962 0.00086752098 -111.0444 0.00051127753 -108.46666 0.73262638 -150.74994
10954778125 0.69914055 -176.15956 0.00085126603 -115.50217 0.00047189335 -110.10479 0.73214239 -150.93102
10954812500 0.69882822 -176.28207 0.00083236967 -112.84267 0.00052108208 -109.64272 0.73249161 -150.94672
10954846875 0.69859844 -176.23071 0.00086103054 -112.35854 0.00049310806 -109.68251 0.73211402 -150.88472
10954881250 0.69783002 -176.18195 0.00083166693 -112.4041 0.00048404597 -106.78158 0.73237234 -150.87782
10954915625 0.69763851 -176.24599 0.00087634521 -113.26806 0.00046887572 -105.65121 0.73211682 -150.89676
10954950000 0.697981 -176.25803 0.00085126481 -112.84657 0.00048000016 -109.16081 0.73282385 -150.88728
10954984375 0.69716567 -176.1427 0.00085662265 -111.18776 0.00050100387 -108.86567 0.73358589 -150.80435
10955018750 0.69740635 -176.16656 0.00083238562 -113.69619 0.00049957959 -109.94454 0.73367971 -150.9053
10955053125 0.69669157 -176.2095 0.0008751782 -112.0332 0.00046169999 -106.9242 0.73334098 -150.90894
10955087500 0.6981858 -176.09866 0.00086481159 -111.09641 0.00049003982 -109.80083 0.73332483 -150.97054
10955121875 0.69754201 -176.18195 0.00083467498 -112.89088 0.0005026763 -108.64099 0.73364472 -150.94444
10955156250 0.69675112 -176.19916 0.00084578106 -110.83855 0.00048589316 -106.75425 0.73307532 -150.93373
10955190625 0.69825119 -176.14064 0.0008811286 -115.15415 0.00045127116 -108.51196 0.73336428 -150.93573
10955225000 0.69744521 -176.26823 0.00086217746 -110.03889 0.00052600401 -104.35821 0.73273498 -150.94595
10955259375 0.69797188 -176.20842 0.00086962373 -111.06227 0.00049926888 -111.58428 0.73298252 -150.97415
10955293750 0.69817513 -176.20052 0.00085163116 -113.45501 0.00047830158 -110.63738 0.73256367 -150.96289
10955328125 0.69783223 -176.2093 0.00083416735 -112.9807 0.00047051877 -109.8342 0.73290056 -150.95918
10955362500 0.69850266 -176.15202 0.00083279639 -114.21108 0.0004527322 -112.17646 0.7326203 -150.93752
10955396875 0.69796562 -176.16296 0.00085131853 -112.21986 0.00050292927 -114.04079 0.73275304 -151.00317
10955431250 0.69773465 -176.27055 0.0008253472 -112.83523 0.00051837903 -114.34461 0.73226714 -150.92662
10955465625 0.69816428 -176.21147 0.00082307128 -111.20028 0.00048340822 -110.64384 0.73365402 -150.93431
10955500000 0.69728094 -176.24411 0.00084609067 -113.75365 0.0004762774 -109.37719 0.73261654 -150.93967
10955534375 0.69900054 -176.24393 0.00081514643 -113.63476 0.00048227434 -107.07166 0.7327137 -150.9061
10955568750 0.69755864 -176.30075 0.00083611743 -114.06188 0.00048691223 -106.40283 0.73258132 -150.96526
10955603125 0.697999 -176.26572 0.00084311637 -114.02051 0.00050131197 -108.56805 0.73191595 -150.899
10955637500 0.69814157 -176.20567 0.00084989786 -113.44727 0.00049898395 -108.21915 0.73247135 -150.95059
10955671875 0.69898379 -176.22632 0.00085265288 -111.6181 0.00049362076 -113.60752 0.73187584 -150.98358
10955706250 0.69754374 -176.25783 0.00084713224 -110.8989 0.00048856967 -108.65961 0.73218018 -150.98352
10955740625 0.6977663 -176.30276 0.00081578078 -110.69105 0.00051841786 -106.96174 0.73221773 -151.01526
10955775000 0.69650447 -176.21399 0.00081109797 -115.00255 0.00048304041 -110.04747 0.73213261 -151.03618
10955809375 0.69719541 -176.18706 0.00084264175 -111.88364 0.00050247635 -110.90196 0.73398834 -150.98061
10955843750 0.69776171 -176.31123 0.00082974118 -112.82734 0.00049336581 -107.95205 0.73328918 -151.01413
10955878125 0.69722492 -176.34247 0.00084727333 -114.05663 0.00048919453 -107.03014 0.73178184 -151.02116
10955912500 0.69631684 -176.23755 0.0008335227 -111.6005 0.00048824717 -110.59003 0.73198456 -151.05075
10955946875 0.69728822 -176.26375 0.00083923177 -112.07452 0.00048275283 -109.06181 0.73368114 -150.97255
10955981250 0.69716787 -176.26804 0.00083674962 -115.00858 0.00048412025 -112.05641 0.73256856 -151.02902
10956015625 0.6978001 -176.18152 0.00082293624 -113.85861 0.0004902744 -109.09819 0.73359519 -151.04663
10956050000 0.69782484 -176.29477 0.00081811415 -112.55649 0.00051289483 -108.52403 0.73262084 -151.03221
10956084375 0.69747442 -176.26627 0.0008165391 -109.97843 0.00048188714 -108.16582 0.73275816 -151.08493
10956118750 0.69759113 -176.2419 0.00082710123 -112.00218 0.00048718316 -111.97707 0.73281437 -151.08411
10956153125 0.69750422 -176.29965 0.00081080047 -110.96886 0.00048049592 -114.21105 0.73323971 -151.03232
10956187500 0.6972608 -176.31625 0.00080556446 -113.12142 0.00048480107 -108.95663 0.73191977 -151.04254
10956221875 0.69753319 -176.31705 0.00081974681 -112.63258 0.00047088714 -106.91218 0.73281068 -151.04773
10956256250 0.69766396 -176.2431 0.00078331126 -114.61111 0.00045399962 -107.26285 0.73256564 -151.11632
10956290625 0.69818747 -176.40047 0.00080538169 -114.35416 0.0005002488 -110.45641 0.73201841 -151.01169
10956325000 0.69782531 -176.2187 0.00083897146 -111.76315 0.00047293818 -108.98898 0.73214662 -151.06076
