!Agilent Technologies,E8362C,MY49020356,A.09.42.23
!Agilent E8362C: A.09.42.23
!Date: Saturday, September 11, 2021 04:22:58
!Correction: S11(Full 2 Port(1,2)) 
!S21(Full 2 Port(1,2)) 
!S12(Full 2 Port(1,2)) 
!S22(Full 2 Port(1,2)) 
!S2P File: Measurements: S11, S21, S12, S22:
# Hz S  MA   R 50
10950000000 0.85760671 -143.5094 0.0013401659 -110.57553 0.0011454155 -113.7382 0.89863157 -129.80882
10950034375 0.85813689 -143.43199 0.001359601 -110.03111 0.0011726934 -114.24933 0.89738429 -129.79514
10950068750 0.85664594 -143.4715 0.0013580293 -110.09071 0.0011267358 -115.39958 0.89745098 -129.84822
10950103125 0.85802776 -143.47276 0.0013321484 -110.67887 0.001149276 -114.91489 0.89829618 -129.8712
10950137500 0.85779095 -143.60266 0.0013480301 -110.31206 0.0011485358 -114.74591 0.89809382 -129.86766
10950171875 0.85767066 -143.54643 0.0013621764 -112.1287 0.0011619159 -113.83423 0.89797908 -129.89233
10950206250 0.85885644 -143.54504 0.0013612587 -111.17572 0.0011298597 -114.24551 0.89756685 -129.96384
10950240625 0.85828519 -143.55334 0.0013107451 -111.01191 0.0011839258 -115.67963 0.89684635 -129.88609
10950275000 0.8583948 -143.56546 0.0013297127 -109.73801 0.0011506267 -114.3056 0.89714444 -129.90233
10950309375 0.85893941 -143.50188 0.0013377566 -110.2095 0.0011293037 -114.10165 0.89872789 -129.89163
10950343750 0.85825729 -143.43555 0.0013220944 -112.31528 0.0011334718 -115.22069 0.89872044 -129.89706
10950378125 0.85575986 -143.5157 0.0013297299 -111.08494 0.0011471938 -114.66982 0.89920288 -129.89355
10950412500 0.85628879 -143.52585 0.0013382726 -109.70485 0.0011597059 -114.78548 0.8987118 -129.83969
10950446875 0.85698402 -143.47011 0.0013471507 -111.96224 0.0011674811 -115.18552 0.89766115 -129.89149
10950481250 0.85645545 -143.50952 0.0013382699 -111.2354 0.0011531536 -115.36019 0.89764833 -129.90019
10950515625 0.85829437 -143.50989 0.0013601533 -110.56835 0.0011369839 -116.2809 0.89745599 -129.9407
10950550000 0.85770375 -143.52499 0.0013433902 -112.31353 0.0011253149 -114.14165 0.8977921 -129.89674
10950584375 0.85646617 -143.49922 0.0013079008 -110.48454 0.0011799634 -114.66859 0.89810723 -129.92694
10950618750 0.85632819 -143.5961 0.001349421 -111.33362 0.0011484374 -116.22042 0.89822567 -129.95294
10950653125 0.85716999 -143.4612 0.0013478791 -111.227 0.0011601071 -115.46433 0.89803028 -129.98529
10950687500 0.85542905 -143.49272 0.0013524527 -110.84126 0.0011444662 -114.95933 0.89789778 -129.99847
10950721875 0.85617721 -143.53052 0.001345203 -110.94205 0.0011706528 -113.97482 0.89767635 -129.99905
10950756250 0.85669082 -143.47107 0.001315081 -109.98784 0.0011626033 -114.63557 0.89784884 -129.9091
10950790625 0.85796148 -143.52066 0.0013485408 -109.22176 0.0011825564 -114.24727 0.89879483 -129.93442
10950825000 0.85747385 -143.53853 0.0013100633 -111.12445 0.0011297247 -114.62277 0.89736581 -129.84869
10950859375 0.85776985 -143.53105 0.0013435305 -109.9268 0.001131631 -115.43697 0.89733315 -129.98477
10950893750 0.85733026 -143.51335 0.0013525333 -110.6554 0.0011576443 -114.18679 0.89789051 -129.96552
10950928125 0.85838014 -143.46313 0.0013217612 -110.68961 0.0011439282 -116.46603 0.89792538 -129.88033
10950962500 0.85786647 -143.5052 0.0013514773 -110.01162 0.0011499897 -115.10269 0.89802074 -129.92802
10950996875 0.85747218 -143.59312 0.0013196956 -111.84014 0.0011253528 -116.03407 0.89774317 -129.9856
10951031250 0.85716629 -143.60045 0.0013244953 -110.63651 0.0011496033 -113.58241 0.89714754 -130.00073
10951065625 0.85748863 -143.56444 0.0013170411 -110.57305 0.0011435299 -114.15434 0.898408 -129.9689
10951100000 0.85753876 -143.57742 0.0013629474 -110.6045 0.0011393565 -113.39673 0.89799726 -130.00717
10951134375 0.85755968 -143.5648 0.0013437965 -110.4069 0.0011546895 -114.61275 0.89840865 -130.01331
10951168750 0.85633498 -143.63434 0.0013376279 -111.15711 0.0011749701 -114.90112 0.89692426 -129.96844
10951203125 0.85780078 -143.65891 0.0013453752 -111.80217 0.0011435018 -114.9621 0.89765501 -129.9491
10951237500 0.85731357 -143.58849 0.001341925 -112.61796 0.0011243032 -115.03027 0.89801592 -129.93872
10951271875 0.85812914 -143.60378 0.0013197152 -111.40783 0.0011512183 -113.67678 0.8986702 -130.00069
10951306250 0.85742831 -143.58711 0.0013387566 -111.88158 0.0011488091 -114.98093 0.89767969 -129.9651
10951340625 0.85739833 -143.56557 0.001318605 -110.78652 0.0011380676 -114.17268 0.89916664 -129.99492
10951375000 0.85772967 -143.64235 0.0013465232 -111.41538 0.0011240719 -115.21348 0.89741027 -130.00592
10951409375 0.85755026 -143.58847 0.0013217849 -110.6348 0.0011073995 -114.99876 0.89739895 -130.03827
10951443750 0.85840529 -143.52371 0.0013183613 -111.44291 0.0011588986 -114.43079 0.89809722 -129.97757
10951478125 0.85680586 -143.63889 0.0013442257 -111.32526 0.0011738847 -115.21454 0.89795941 -129.92921
10951512500 0.85774982 -143.62505 0.0013251588 -110.57019 0.0011749953 -115.24219 0.89708471 -129.98334
10951546875 0.85860324 -143.68391 0.0013289128 -110.12617 0.0011587623 -115.67136 0.8969993 -130.00035
10951581250 0.85831463 -143.65889 0.0013112969 -110.22931 0.0011610411 -116.55784 0.89790428 -129.99638
10951615625 0.85779637 -143.65755 0.0013279574 -109.56796 0.0011326154 -114.30914 0.89759451 -130.09665
10951650000 0.858437 -143.61983 0.0013120127 -111.99184 0.0011703563 -114.27365 0.898664 -130.00111
10951684375 0.85864508 -143.66171 0.0013306501 -109.90664 0.0011273061 -115.74163 0.89862126 -130.04906
10951718750 0.85829228 -143.68538 0.0013509289 -111.38538 0.0011663174 -114.78585 0.89932555 -130.02197
10951753125 0.85707074 -143.65453 0.0013050517 -112.70488 0.0011620352 -114.49628 0.89766955 -130.04059
10951787500 0.85751957 -143.59508 0.0013208732 -111.62045 0.0011144377 -115.53059 0.89925593 -129.9379
10951821875 0.85722971 -143.64529 0.0013547875 -110.88509 0.0011491028 -113.82153 0.89861655 -130.02577
10951856250 0.85755944 -143.64215 0.0013063139 -111.81171 0.0011413369 -116.04211 0.89840209 -130.02199
10951890625 0.85764587 -143.63618 0.0013145061 -110.62396 0.0011410016 -115.12115 0.89767766 -130.02718
10951925000 0.85714304 -143.62686 0.0013248568 -112.15315 0.0011403725 -114.66746 0.89760339 -130.13336
10951959375 0.85876453 -143.6692 0.0013604189 -112.50338 0.0011504675 -115.46838 0.89697117 -130.10286
10951993750 0.85860854 -143.67656 0.0013442147 -109.6469 0.0011787018 -113.63944 0.89773172 -130.11319
10952028125 0.85793316 -143.73827 0.0013328694 -112.0333 0.0011540347 -115.82273 0.89723343 -130.10149
10952062500 0.85804743 -143.7881 0.0013539669 -110.65227 0.0011666885 -114.54634 0.89623225 -130.02534
10952096875 0.85804409 -143.72765 0.0013110868 -111.05594 0.0011501187 -115.11102 0.89740837 -130.04953
10952131250 0.85833842 -143.68217 0.0013093273 -111.1998 0.0011774095 -114.33228 0.89758247 -130.09056
10952165625 0.85882217 -143.7516 0.0013282165 -111.8175 0.0011408862 -115.3218 0.89757806 -130.09016
10952200000 0.85640019 -143.80954 0.0013150793 -111.74986 0.0011372401 -115.51985 0.89661962 -130.172
10952234375 0.8573764 -143.77374 0.00130232 -112.16723 0.001118544 -113.92256 0.89873427 -130.09067
10952268750 0.85696042 -143.75311 0.0013364216 -111.60743 0.0011415932 -114.33372 0.89758933 -130.15233
10952303125 0.8568272 -143.71844 0.0013212559 -111.57939 0.0011765253 -113.03786 0.89782584 -130.13193
10952337500 0.85800958 -143.69315 0.0013339558 -110.59476 0.0011493792 -114.51237 0.89714742 -130.08446
10952371875 0.85702831 -143.73372 0.0013033398 -111.47075 0.0011443883 -115.33165 0.89740819 -130.14046
10952406250 0.85709906 -143.8345 0.0012848096 -112.33412 0.001160232 -114.9674 0.89770073 -130.13367
10952440625 0.85616249 -143.78737 0.0013084303 -113.28957 0.0011510772 -115.65189 0.89732486 -130.1543
10952475000 0.8558569 -143.83698 0.0012883288 -112.04077 0.0011557399 -115.36809 0.89654171 -130.11885
10952509375 0.85745639 -143.7049 0.0013346989 -111.47314 0.0011364528 -115.56611 0.89707899 -130.18202
10952543750 0.85643488 -143.73723 0.0013160048 -112.39583 0.0011546809 -114.11444 0.89693677 -130.10011
10952578125 0.85791868 -143.79774 0.0012904282 -110.40146 0.0011263742 -114.52111 0.89679968 -130.15675
10952612500 0.85788006 -143.69102 0.0013401869 -111.42353 0.0011626399 -113.76119 0.89821273 -130.13506
10952646875 0.85706687 -143.69693 0.0013049272 -111.29681 0.0011525913 -114.36494 0.897677 -130.12947
10952681250 0.85711473 -143.7756 0.0013171773 -112.03787 0.0011623958 -116.22672 0.89951003 -130.07321
10952715625 0.85720092 -143.74724 0.0013247901 -111.28648 0.0011648401 -116.82208 0.89818758 -130.12393
10952750000 0.85779613 -143.73267 0.0013288306 -111.87022 0.0011536494 -115.13102 0.89682317 -130.12589
10952784375 0.85724282 -143.77177 0.00132583 -111.65884 0.0011541151 -115.25053 0.89854574 -130.02829
10952818750 0.85737759 -143.78014 0.0013477615 -112.28144 0.0011439527 -115.3484 0.89772415 -130.07884
10952853125 0.85749209 -143.74895 0.0013417213 -112.24509 0.0011387838 -116.07797 0.89815676 -130.14992
10952887500 0.85804409 -143.76936 0.0013333235 -111.20194 0.0011384052 -114.18689 0.89847952 -130.1095
10952921875 0.85863847 -143.79231 0.0013318947 -112.07493 0.0011520144 -114.326 0.89725608 -130.1716
10952956250 0.85932028 -143.85582 0.001313264 -112.0541 0.0011397707 -114.08066 0.89801449 -130.21385
10952990625 0.85775667 -143.83916 0.0013100062 -111.27546 0.0011469794 -115.0088 0.89845544 -130.19843
10953025000 0.85883987 -143.8015 0.001343332 -111.89612 0.0011512265 -115.60087 0.898449 -130.24533
10953059375 0.85799742 -143.83438 0.001328452 -111.35812 0.0011465367 -116.86221 0.89751351 -130.1963
10953093750 0.85706723 -143.8824 0.0013104617 -111.60664 0.0011253802 -113.70855 0.89662051 -130.16777
10953128125 0.85815471 -143.86922 0.0013159324 -112.75347 0.0011563258 -114.21025 0.89683145 -130.16966
10953162500 0.85906088 -143.79276 0.0012896577 -111.94237 0.0011566831 -114.42005 0.8969956 -130.19244
10953196875 0.85810351 -143.85834 0.0013005297 -111.94178 0.0011394646 -115.12003 0.89718246 -130.21797
10953231250 0.857041 -143.79898 0.0012933178 -113.83785 0.0011385295 -114.41692 0.89713109 -130.2094
10953265625 0.85621017 -143.78725 0.0013054054 -112.59884 0.0011618944 -115.20017 0.89806253 -130.24881
10953300000 0.85720181 -143.76985 0.0013280074 -111.79938 0.0011581391 -115.52194 0.89752543 -130.24734
10953334375 0.85607129 -143.83844 0.001290462 -112.26763 0.0011529848 -114.70033 0.89725065 -130.23669
10953368750 0.85760295 -143.76239 0.0013126394 -112.61845 0.001156265 -114.4903 0.89865649 -130.22572
10953403125 0.85649568 -143.78409 0.0013120829 -112.66964 0.0011419237 -115.37364 0.89873177 -130.18201
10953437500 0.85653883 -143.87935 0.0012627826 -112.0703 0.0011411763 -113.70403 0.89943069 -130.14182
10953471875 0.85650861 -143.83575 0.0013023708 -113.68083 0.0011260678 -114.94049 0.89848644 -130.21487
10953506250 0.85798168 -143.82072 0.0013206825 -112.32325 0.0011439506 -114.45467 0.89832008 -130.19504
10953540625 0.85815769 -143.90981 0.0012586907 -112.15289 0.0011313383 -115.51596 0.89876109 -130.26828
10953575000 0.85718876 -143.8381 0.0013196217 -111.7765 0.0011489517 -114.91993 0.89838541 -130.22882
10953609375 0.85591394 -143.91367 0.0012949144 -111.71404 0.0011369968 -116.0871 0.89876342 -130.17656
10953643750 0.85681063 -143.89015 0.001288943 -112.05411 0.0011255147 -115.08048 0.89890641 -130.23628
10953678125 0.85713458 -143.9839 0.0012769585 -112.84937 0.0011374061 -114.80186 0.89763939 -130.19966
10953712500 0.85728073 -143.8658 0.0013438645 -111.74055 0.0011359897 -115.38423 0.89829624 -130.25755
10953746875 0.85755676 -143.95213 0.0012776991 -113.60654 0.0011293017 -114.5619 0.89682496 -130.2493
10953781250 0.85856438 -143.87378 0.0012895423 -112.06615 0.0011551112 -115.76047 0.8972519 -130.22086
10953815625 0.85796416 -143.78778 0.0012898124 -111.91219 0.0011369196 -114.37048 0.89705944 -130.23299
10953850000 0.85795015 -143.81677 0.0012951659 -113.27698 0.0011338436 -115.09222 0.8976413 -130.21201
10953884375 0.85799712 -143.84348 0.0013231083 -113.45544 0.0011432434 -114.50872 0.89865083 -130.24855
10953918750 0.85726845 -143.92223 0.0012751955 -112.08478 0.0011186689 -114.26102 0.89910263 -130.21043
10953953125 0.85805976 -143.8452 0.0012839314 -111.71962 0.0011440619 -115.19785 0.89889765 -130.1911
10953987500 0.85825855 -143.88393 0.0012665349 -112.90477 0.0011079133 -115.26118 0.89784026 -130.28835
10954021875 0.85897702 -143.856 0.0013062664 -112.57121 0.0011264171 -114.94786 0.89713281 -130.31166
10954056250 0.85749722 -143.8654 0.0012516023 -112.21878 0.0011160144 -114.32746 0.89666617 -130.28494
10954090625 0.85597765 -143.90034 0.0012775916 -112.42302 0.0011440819 -116.03812 0.89789087 -130.28053
10954125000 0.85743219 -143.97591 0.0012961405 -110.59196 0.0011057236 -115.0284 0.89856976 -130.22351
10954159375 0.85818428 -143.94254 0.0012760174 -112.1342 0.0011047951 -116.94232 0.89725024 -130.27861
10954193750 0.8570314 -143.9626 0.0013145054 -111.11678 0.0011323625 -115.40997 0.89616829 -130.29341
10954228125 0.85863823 -143.88631 0.0012800482 -112.22575 0.0011186358 -114.62806 0.89733899 -130.26199
10954262500 0.85713726 -143.88641 0.0012881861 -111.91894 0.0011170872 -116.76015 0.89735746 -130.32167
10954296875 0.85747862 -143.97507 0.0012820673 -111.70444 0.0011015387 -113.30176 0.89780605 -130.27016
10954331250 0.85835803 -143.94254 0.0012749105 -112.819 0.0011039047 -116.22475 0.89829934 -130.29324
10954365625 0.85707873 -143.99333 0.0012648298 -111.86583 0.0010920983 -115.57541 0.89834702 -130.28662
10954400000 0.85703856 -143.98949 0.0012529152 -112.67397 0.0011635429 -115.27785 0.89788455 -130.31619
10954434375 0.85704988 -143.98283 0.0013169127 -112.13754 0.0011369411 -113.82585 0.8973971 -130.3399
10954468750 0.85686159 -143.95442 0.0012669152 -111.97555 0.0011395608 -115.70541 0.89728707 -130.27983
10954503125 0.8585332 -143.88197 0.0012802664 -112.15437 0.0011220317 -114.78416 0.89780331 -130.32765
10954537500 0.85842282 -143.83542 0.0013144055 -113.50642 0.0011208485 -115.21832 0.89807117 -130.31239
10954571875 0.85756379 -143.93192 0.0012896953 -111.98804 0.0011384434 -115.3653 0.89764673 -130.28238
10954606250 0.85660011 -143.87857 0.0012637466 -112.80119 0.0011722164 -115.76234 0.89736885 -130.29633
10954640625 0.85732108 -143.96703 0.0012859206 -111.55934 0.0011439422 -114.79971 0.89819682 -130.35303
10954675000 0.85791618 -143.98174 0.0012927778 -112.15379 0.0011273609 -113.79387 0.89726597 -130.3295
10954709375 0.85799032 -143.97182 0.0012727228 -112.89789 0.0011232381 -114.21674 0.89745998 -130.3105
10954743750 0.85731691 -143.96144 0.0012407533 -112.31111 0.0010883397 -114.71854 0.89728862 -130.31491
10954778125 0.85842222 -143.96423 0.0012945551 -114.2028 0.0011458733 -116.77779 0.89737803 -130.33432
10954812500 0.85804617 -143.93896 0.0012698714 -112.86412 0.0011407569 -115.68965 0.89754075 -130.38269
10954846875 0.85826677 -143.99931 0.0012813305 -112.37231 0.0011052409 -115.4533 0.89759558 -130.436
10954881250 0.85648489 -144.10052 0.0012467849 -112.11967 0.0011131966 -115.78135 0.89829713 -130.43813
10954915625 0.8563118 -144.00629 0.0012783225 -112.38288 0.0011331713 -115.53762 0.89808869 -130.40054
10954950000 0.85635644 -144.06166 0.0012794066 -114.46588 0.00113535 -114.17907 0.89812285 -130.35451
10954984375 0.85622096 -144.02051 0.0012831551 -113.57989 0.0011566349 -115.87867 0.89891154 -130.2746
10955018750 0.85678434 -144.03664 0.0012673144 -112.0003 0.0011170158 -115.35995 0.89709896 -130.31007
10955053125 0.85786504 -144.01169 0.0012776343 -112.05717 0.0011285875 -114.81911 0.8980999 -130.33215
10955087500 0.85725248 -143.98813 0.0012372388 -112.89677 0.0011370255 -114.88268 0.89868826 -130.35635
10955121875 0.8560341 -143.99991 0.001313761 -111.83373 0.0011120714 -114.68279 0.8975929 -130.35364
10955156250 0.85575092 -143.94614 0.0012290817 -110.14844 0.0010933958 -112.87151 0.896927 -130.39731
10955190625 0.85632402 -144.02118 0.0012766523 -112.1691 0.0011172609 -114.79141 0.89759755 -130.33665
10955225000 0.85619396 -144.0354 0.0012645304 -111.83944 0.0011246912 -114.22286 0.89796078 -130.39679
10955259375 0.8568716 -143.94403 0.0012433891 -112.67855 0.0011169832 -114.91781 0.8980037 -130.42128
10955293750 0.85757571 -143.98186 0.0012743024 -111.71992 0.0011044395 -114.65007 0.89762735 -130.40489
10955328125 0.85888916 -143.99466 0.001218396 -112.7096 0.0011072073 -115.33105 0.89732212 -130.50389
10955362500 0.8579945 -143.989 0.0012634753 -113.94133 0.001109544 -114.07851 0.89729196 -130.41695
10955396875 0.85684878 -144.01389 0.0012676867 -111.68816 0.0011382019 -113.66148 0.89763027 -130.43362
10955431250 0.85709935 -143.93967 0.0012531021 -111.92703 0.0011492644 -114.57671 0.89783937 -130.3951
10955465625 0.85662204 -144.00629 0.0012349932 -114.53382 0.0010994496 -114.76093 0.89764869 -130.37303
10955500000 0.85718822 -144.05444 0.0012155263 -114.06568 0.0011208638 -115.47653 0.89702839 -130.4388
10955534375 0.85682207 -144.07657 0.0012460466 -111.68373 0.0010950974 -114.85865 0.89858538 -130.39886
10955568750 0.85663724 -144.02 0.0012313353 -113.28693 0.0011079357 -114.39218 0.89790469 -130.48659
10955603125 0.85702926 -144.05171 0.0012693338 -113.05703 0.0011011513 -115.06033 0.89658284 -130.40886
10955637500 0.85817724 -144.02881 0.0012465887 -112.79437 0.0011657912 -114.40635 0.8973757 -130.51596
10955671875 0.85732073 -144.01917 0.0012385424 -111.97814 0.0011216084 -117.51476 0.89748132 -130.46455
10955706250 0.85827261 -144.01012 0.0012451434 -111.03776 0.0010942667 -114.92595 0.89730191 -130.50301
10955740625 0.85735291 -144.13026 0.0012367404 -110.69489 0.0010935753 -114.15114 0.89831555 -130.48747
10955775000 0.8564536 -144.00156 0.0012704732 -112.03518 0.0011138023 -113.43685 0.89803791 -130.49742
10955809375 0.85617352 -144.06798 0.0012269637 -112.68083 0.0010951784 -116.27216 0.89793831 -130.48518
10955843750 0.85695314 -144.15727 0.0012669052 -112.58927 0.0011068634 -113.09936 0.8981629 -130.45418
10955878125 0.85671204 -144.11172 0.0012627604 -113.49744 0.0011337901 -115.61598 0.89706564 -130.48816
10955912500 0.85547543 -144.14256 0.0012134931 -113.82406 0.0010976648 -115.58433 0.89689147 -130.47414
10955946875 0.85618728 -144.12241 0.0012727809 -113.04624 0.0011201191 -114.68381 0.897416 -130.48253
10955981250 0.8551802 -144.14514 0.0012711049 -112.3263 0.0011271352 -113.39385 0.89814162 -130.48611
10956015625 0.85704285 -144.07701 0.0012354627 -112.98306 0.001122916 -114.23175 0.89865994 -130.44485
10956050000 0.85734189 -144.04932 0.0012212853 -112.88309 0.0011243256 -113.50861 0.89866638 -130.44827
10956084375 0.85648042 -144.02007 0.001236717 -110.93535 0.0010883604 -114.17435 0.89839685 -130.52628
10956118750 0.8570686 -144.02914 0.0012246071 -112.04016 0.0010786225 -113.79477 0.89801729 -130.50656
10956153125 0.8568123 -144.0239 0.0012472111 -112.75039 0.0010928316 -114.2552 0.89851499 -130.44188
10956187500 0.85652006 -144.09991 0.0012361301 -112.5229 0.0010974176 -114.29269 0.89746749 -130.5594
10956221875 0.85649896 -144.15547 0.0011917584 -111.41944 0.0010932323 -114.57983 0.89718515 -130.47031
10956256250 0.85677999 -144.15952 0.001253632 -110.90839 0.0011317894 -113.94066 0.89616132 -130.44838
10956290625 0.85763884 -144.1315 0.0012372494 -110.84812 0.0010552701 -117.01563 0.8971507 -130.45358
10956325000 0.85750014 -144.12587 0.0012168431 -112.82825 0.0011378712 -115.08611 0.89799124 -130.48499
10956359375 0.85703069 -144.01276 0.0012465995 -113.46261 0.0010994634 -114.6581 0.89777875 -130.42442
10956393750 0.85786361 -144.12474 0.0012370279 -112.66634 0.0010949739 -115.09952 0.89729643 -130.50774
10956428125 0.85618412 -144.0929 0.0012352967 -110.9398 0.0010963413 -113.99281 0.8976568 -130.4507
10956462500 0.85699654 -144.02435 0.0012147224 -111.796 0.0010460917 -115.40054 0.8995145 -130.50656
