!Agilent Technologies,E8362C,MY49020356,A.09.42.23
!Agilent E8362C: A.09.42.23
!Date: Saturday, September 11, 2021 04:08:39
!Correction: S11(Full 2 Port(1,2)) 
!S21(Full 2 Port(1,2)) 
!S12(Full 2 Port(1,2)) 
!S22(Full 2 Port(1,2)) 
!S2P File: Measurements: S11, S21, S12, S22:
# Hz S  MA   R 50
10950000000 0.70147806 -175.19916 0.00089399068 -126.78481 0.00085742812 -124.1795 0.78921735 -147.61098
10950034375 0.7005862 -175.21895 0.00088994374 -126.53028 0.00083789683 -125.50816 0.78877819 -147.62947
10950068750 0.70072651 -175.18172 0.00088754279 -126.83434 0.00080599549 -124.76506 0.78893238 -147.5856
10950103125 0.70087612 -175.13469 0.00090936304 -127.47912 0.00080748729 -123.16277 0.78955364 -147.56892
10950137500 0.70138794 -175.22665 0.00092722155 -128.43427 0.00080162368 -123.50269 0.78989208 -147.53999
10950171875 0.70059437 -175.26884 0.00088657421 -127.66702 0.00077992451 -124.54376 0.78881359 -147.69913
10950206250 0.70076501 -175.24214 0.00093885709 -130.4001 0.00082345854 -121.58302 0.789469 -147.70027
10950240625 0.70140684 -175.1998 0.00092404126 -127.12006 0.00085594394 -125.81717 0.78877348 -147.68159
10950275000 0.70152009 -175.2287 0.00086875417 -128.70296 0.00083440827 -123.85156 0.78860676 -147.68678
10950309375 0.70057327 -175.15294 0.00095184351 -126.57551 0.00079752615 -123.19112 0.78890085 -147.62505
10950343750 0.70073366 -175.15395 0.00091935229 -129.20329 0.00083887996 -120.21118 0.78967327 -147.6888
10950378125 0.70115596 -175.09082 0.00092558883 -125.5156 0.0008228955 -126.15511 0.79104906 -147.59215
10950412500 0.69981664 -175.18587 0.00091300585 -126.38039 0.0008387845 -125.40491 0.78956908 -147.60335
10950446875 0.70036042 -175.17412 0.00089810306 -127.36687 0.00082058721 -123.63451 0.78911328 -147.58791
10950481250 0.70088744 -175.14838 0.00090274919 -128.3058 0.00084989431 -125.01907 0.78874892 -147.65778
10950515625 0.70116252 -175.29483 0.00088153244 -128.14397 0.00086364505 -126.0352 0.79006732 -147.61165
10950550000 0.70051843 -175.1508 0.00088997814 -127.47385 0.00084858411 -125.88282 0.78971148 -147.66933
10950584375 0.70005 -175.20238 0.00093377015 -127.14273 0.00084340107 -124.42046 0.78935176 -147.69185
10950618750 0.69999975 -175.18498 0.0009087206 -127.13605 0.00083355402 -125.79794 0.78935468 -147.63947
10950653125 0.69988394 -175.23238 0.00089550967 -126.43118 0.00083428039 -124.86646 0.78895712 -147.71898
10950687500 0.6998384 -175.14288 0.00093109166 -128.74585 0.00085152092 -123.91808 0.78943968 -147.70404
10950721875 0.70041203 -175.13911 0.00091309386 -127.2885 0.00082565076 -127.15308 0.78893715 -147.65028
10950756250 0.69974673 -175.15363 0.00092198059 -126.12025 0.00082472537 -124.15993 0.78953201 -147.60622
10950790625 0.70127237 -175.19862 0.00085885276 -129.4595 0.00084430166 -124.23016 0.78869706 -147.6302
10950825000 0.70121777 -175.23701 0.00089508004 -127.81226 0.00082759646 -123.4432 0.78892821 -147.6209
10950859375 0.70110029 -175.17912 0.00089150673 -126.83377 0.0008362839 -123.64483 0.78907192 -147.63995
10950893750 0.70079947 -175.24907 0.00089158444 -126.79222 0.00080490846 -124.55942 0.78858399 -147.6498
10950928125 0.70174092 -175.21227 0.00088044466 -127.28117 0.00084007491 -124.73698 0.78792989 -147.71475
10950962500 0.70034426 -175.17451 0.00091381604 -127.14356 0.00078594929 -122.89348 0.78815466 -147.65654
10950996875 0.70060587 -175.20474 0.00090461341 -128.10027 0.00081899099 -125.59592 0.78946477 -147.64015
10951031250 0.70086116 -175.27759 0.00090392865 -128.50357 0.00079179252 -125.06736 0.788517 -147.66554
10951065625 0.70130903 -175.20198 0.00087669503 -126.39687 0.00080881844 -123.7315 0.78856295 -147.7305
10951100000 0.70086539 -175.25038 0.00087414315 -125.65249 0.0008228657 -125.78719 0.78873813 -147.7361
10951134375 0.70134199 -175.18021 0.00089276658 -125.07301 0.00081962551 -123.73101 0.78908771 -147.66695
10951168750 0.70100266 -175.24599 0.00091850647 -127.47724 0.00081548444 -127.51904 0.78867483 -147.74158
10951203125 0.7007069 -175.28214 0.00092509727 -127.89865 0.00084410975 -124.14024 0.78917158 -147.72052
10951237500 0.70056826 -175.27374 0.00088151888 -125.29418 0.00081557414 -123.37517 0.79030436 -147.65875
10951271875 0.70057452 -175.26054 0.00090057292 -128.61493 0.00081898418 -123.98758 0.78989154 -147.77953
10951306250 0.70074046 -175.2852 0.00091829721 -125.7066 0.00085203222 -123.43221 0.78906244 -147.71487
10951340625 0.70158762 -175.21765 0.00090292533 -128.71875 0.00084252498 -123.59554 0.78868175 -147.70349
10951375000 0.70089775 -175.26523 0.00086806185 -126.09828 0.0008054949 -124.68266 0.78778327 -147.80397
10951409375 0.70056647 -175.30067 0.00092824351 -126.90229 0.00086669199 -124.87949 0.78857881 -147.73972
10951443750 0.70027459 -175.28693 0.00089007296 -126.31387 0.00081922609 -124.46859 0.788387 -147.67676
10951478125 0.70120549 -175.32092 0.00090390682 -128.16002 0.00084276107 -125.18198 0.78762716 -147.70255
10951512500 0.70195395 -175.32237 0.00094576838 -128.18819 0.00084356754 -124.56958 0.78722495 -147.75044
10951546875 0.70155376 -175.34563 0.00091532647 -124.60567 0.00083865708 -124.15807 0.78766352 -147.67278
10951581250 0.70212841 -175.27423 0.0008779192 -126.82399 0.00083461183 -126.44828 0.78757584 -147.71175
10951615625 0.70138144 -175.30652 0.00089249079 -126.45615 0.00083971175 -125.38722 0.78862751 -147.73882
10951650000 0.70169222 -175.37961 0.00090174569 -125.69454 0.00083849207 -124.23218 0.78936058 -147.77536
10951684375 0.70161057 -175.29756 0.00092511659 -127.50984 0.00083600887 -124.58086 0.78920579 -147.85272
10951718750 0.70059174 -175.35321 0.00090886949 -126.74091 0.00079525169 -124.53805 0.78852987 -147.71367
10951753125 0.70047438 -175.34451 0.0008940202 -125.65416 0.00083667727 -125.43326 0.78928167 -147.82108
10951787500 0.70076466 -175.33463 0.00089132471 -126.31065 0.00085248263 -125.10155 0.78954881 -147.68018
10951821875 0.69965506 -175.34564 0.00090383424 -127.63042 0.00081665593 -123.66868 0.78823906 -147.77609
10951856250 0.70040852 -175.27039 0.00089110498 -127.31632 0.00082361192 -124.51714 0.78843373 -147.86154
10951890625 0.7007817 -175.27588 0.00092657335 -125.56464 0.00082670088 -125.21798 0.7880671 -147.79686
10951925000 0.70108616 -175.31836 0.00085395051 -126.62982 0.00081641 -126.35974 0.78842974 -147.83321
10951959375 0.70028168 -175.34064 0.00087957882 -126.69803 0.00082744507 -126.10512 0.78819627 -147.78612
10951993750 0.70168638 -175.41365 0.00087863894 -123.82329 0.000834384 -124.09856 0.78841758 -147.8651
10952028125 0.7010113 -175.42345 0.00085828477 -128.41357 0.00083063258 -124.32992 0.78698653 -147.77539
10952062500 0.7010687 -175.38686 0.00091348146 -126.51247 0.00082770578 -125.86236 0.78768724 -147.81841
10952096875 0.70104665 -175.4044 0.00084419968 -126.04729 0.00084716099 -125.79313 0.78846925 -147.8092
10952131250 0.70030475 -175.33885 0.00090429856 -126.53535 0.00088099163 -123.63094 0.78719759 -147.86122
10952165625 0.70066744 -175.41533 0.00085849472 -127.23285 0.00084021688 -123.95757 0.78840429 -147.84845
10952200000 0.70096254 -175.45085 0.00088818406 -126.09982 0.0008441793 -124.57503 0.7892791 -147.87889
10952234375 0.70007938 -175.46764 0.00091793441 -128.22202 0.00083529903 -126.68529 0.78985107 -147.8299
10952268750 0.70009762 -175.39067 0.00089200313 -125.9131 0.00082773331 -126.5152 0.78786677 -147.90858
10952303125 0.70075017 -175.41895 0.00087656151 -126.06494 0.00086510234 -123.04455 0.78916144 -147.84074
10952337500 0.70068073 -175.38484 0.00092275668 -126.51035 0.00084902562 -126.20463 0.788845 -147.91867
10952371875 0.70011914 -175.38959 0.00087590259 -126.87797 0.00081243197 -124.02763 0.78797889 -147.92381
10952406250 0.7003721 -175.4472 0.00084937247 -124.46702 0.00086458825 -124.89398 0.78742421 -147.85966
10952440625 0.70034069 -175.47887 0.00089010445 -127.93533 0.00080716948 -124.79347 0.78648198 -147.90677
10952475000 0.70032448 -175.53142 0.00089242926 -127.33116 0.00082908379 -125.41081 0.78722262 -147.91228
10952509375 0.69972074 -175.41612 0.00090210175 -126.47572 0.00082617655 -126.38924 0.78723401 -147.84436
10952543750 0.69997436 -175.35249 0.00092920166 -127.12478 0.00080602069 -124.33424 0.78705215 -147.88362
10952578125 0.70087028 -175.34064 0.00089052605 -126.24159 0.00079773617 -125.63809 0.78823149 -147.84135
10952612500 0.70117724 -175.38248 0.00091302471 -128.59132 0.00082003331 -123.20313 0.78795183 -147.84669
10952646875 0.70036429 -175.42378 0.00091461133 -127.37203 0.00083931384 -123.58957 0.78917336 -147.74635
10952681250 0.70080441 -175.45647 0.00091400451 -126.92985 0.000840422 -127.02187 0.789074 -147.85033
10952715625 0.70034355 -175.39032 0.0008686661 -128.26111 0.00083840854 -123.70564 0.78903574 -147.81859
10952750000 0.70001519 -175.42033 0.00088319147 -126.68256 0.0008345283 -125.55018 0.78743953 -147.83722
10952784375 0.70037228 -175.42459 0.00091219001 -126.04633 0.00082743034 -124.88019 0.78839535 -147.81052
10952818750 0.70025349 -175.41931 0.0008555128 -127.27377 0.00085311662 -124.26868 0.78873825 -147.85716
10952853125 0.70038205 -175.46445 0.00088127039 -127.69621 0.00084088102 -126.37671 0.78874117 -147.89905
10952887500 0.70005625 -175.46307 0.00089564617 -127.61246 0.00083695265 -124.93564 0.78876776 -147.90039
10952921875 0.70128614 -175.42917 0.0009042187 -126.1965 0.0008494542 -123.35201 0.79014045 -147.89087
10952956250 0.70103258 -175.52324 0.00091888098 -126.11468 0.00081767188 -124.6427 0.78916097 -147.90912
10952990625 0.70131052 -175.48967 0.00088551099 -129.09003 0.00084872445 -125.27234 0.78807265 -147.93086
10953025000 0.70116407 -175.49582 0.00086804235 -125.73189 0.00085278915 -124.3968 0.78843045 -147.95775
10953059375 0.70094156 -175.51843 0.00092184509 -127.48605 0.00084704504 -126.35137 0.78788269 -147.94604
10953093750 0.70049578 -175.52034 0.00088775984 -124.06358 0.00081384426 -126.53049 0.78786194 -147.98921
10953128125 0.70105976 -175.51253 0.00090674573 -123.7138 0.00087344099 -126.59928 0.7881856 -147.93826
10953162500 0.70181042 -175.49274 0.00087515917 -126.60133 0.00083810132 -126.93034 0.78793883 -147.88623
10953196875 0.70122606 -175.53076 0.00087936287 -127.11156 0.00084206852 -125.50978 0.7878052 -147.91849
10953231250 0.70012206 -175.46658 0.0008969038 -127.04456 0.00083117071 -124.39835 0.78801548 -147.96039
10953265625 0.70050508 -175.4529 0.00088662788 -125.88356 0.00081869937 -127.3933 0.78860229 -147.89124
10953300000 0.70182341 -175.44368 0.00089001749 -126.85265 0.00084584753 -124.32744 0.78899276 -147.93257
10953334375 0.69922811 -175.54198 0.00087870925 -126.76491 0.00080613466 -126.54035 0.78884202 -148.00104
10953368750 0.69935441 -175.51453 0.00089937646 -128.05251 0.00084409409 -125.02929 0.78899986 -147.99469
10953403125 0.70076072 -175.4563 0.0008964978 -126.16769 0.00086162693 -125.88115 0.78924876 -147.96196
10953437500 0.70030868 -175.4624 0.00090708374 -126.7933 0.00086868036 -127.29913 0.78893924 -147.96123
10953471875 0.70114142 -175.46153 0.00089503365 -124.5554 0.00085035188 -122.92842 0.78835827 -148.00836
10953506250 0.70098615 -175.46378 0.00092470448 -124.3088 0.00086852489 -125.75858 0.78949571 -147.97069
10953540625 0.7006833 -175.50134 0.00092616084 -129.03024 0.00085661688 -125.24432 0.78762454 -148.05971
10953575000 0.70051467 -175.50133 0.00088182389 -124.51614 0.00080356398 -124.08847 0.78829503 -147.97989
10953609375 0.70037854 -175.51585 0.00088888558 -128.33739 0.00085768686 -125.7475 0.78866684 -147.99561
10953643750 0.70050895 -175.56009 0.00089315017 -125.48495 0.00085427635 -124.4851 0.78915751 -148.04164
10953678125 0.69968218 -175.54967 0.00089746696 -126.02261 0.0008230831 -126.84256 0.78929085 -148.05139
10953712500 0.70016497 -175.57484 0.00089600717 -127.23849 0.00080988108 -126.07852 0.78799635 -148.09586
10953746875 0.70072758 -175.6174 0.00091207959 -126.93829 0.00082092203 -125.50143 0.78852051 -148.01692
10953781250 0.70148623 -175.56148 0.00089925813 -125.97359 0.00083969301 -126.55358 0.78771728 -147.91879
10953815625 0.70161152 -175.49832 0.0008748814 -124.70622 0.0008333507 -126.05528 0.78827739 -148.02011
10953850000 0.7022447 -175.55376 0.00086882274 -126.70083 0.00085330475 -126.58518 0.7885499 -147.9836
10953884375 0.70074022 -175.51843 0.00090445951 -126.38496 0.00086243893 -125.24973 0.78865635 -148.02032
10953918750 0.70081562 -175.58405 0.00086374459 -127.87908 0.00082127406 -124.94763 0.78923708 -148.05971
10953953125 0.70045418 -175.55421 0.00087949977 -126.32407 0.00081813731 -127.28506 0.7881434 -148.0218
10953987500 0.70075852 -175.52328 0.00089570967 -125.29586 0.00082455319 -126.41881 0.78827602 -148.00185
10954021875 0.70092726 -175.44788 0.00087520614 -127.4177 0.00081116287 -126.20224 0.78754354 -147.99574
10954056250 0.70001954 -175.54419 0.00087151414 -124.60635 0.00086488714 -124.63219 0.78709996 -148.05872
10954090625 0.7006098 -175.61186 0.00091685395 -125.89466 0.00087429921 -124.96616 0.78836429 -148.06169
10954125000 0.70023799 -175.67401 0.00089334004 -126.40037 0.0008382661 -126.64157 0.78809875 -148.02274
10954159375 0.7003032 -175.64479 0.00086686946 -124.97105 0.00084781362 -126.17744 0.78807437 -148.03372
10954193750 0.70053244 -175.64821 0.00089250907 -124.77718 0.00085056765 -128.78864 0.78656352 -148.09274
10954228125 0.70045531 -175.59053 0.00087623997 -127.1357 0.00085774431 -125.40193 0.78804767 -148.05508
10954262500 0.70077187 -175.58125 0.00089633558 -127.24968 0.00084257935 -126.31764 0.78823543 -148.06335
10954296875 0.70018703 -175.63309 0.00092801877 -125.02821 0.0008288126 -125.71136 0.78810084 -148.13924
10954331250 0.70048797 -175.68454 0.00090687315 -128.60565 0.00084464322 -128.23845 0.78913438 -148.07787
10954365625 0.70011932 -175.60258 0.00088069378 -128.24658 0.00085266674 -123.92418 0.78828424 -148.0419
10954400000 0.70165873 -175.60936 0.00087134971 -126.78658 0.00084981153 -128.11436 0.78758019 -148.12376
10954434375 0.70075643 -175.55754 0.00089420122 -125.97624 0.00084828702 -126.5277 0.78766328 -148.0871
10954468750 0.70054066 -175.6442 0.00089527736 -127.00165 0.00082658068 -126.61681 0.78656995 -148.07814
10954503125 0.70079035 -175.58218 0.00086977996 -125.06252 0.00082287774 -125.84214 0.78802276 -148.12465
10954537500 0.70141637 -175.61348 0.00091858493 -130.61855 0.00084519817 -124.72568 0.78737408 -148.056
10954571875 0.70101517 -175.57858 0.00091759389 -125.61562 0.00085910002 -126.10047 0.78815562 -148.05298
10954606250 0.70062321 -175.68597 0.00090313435 -128.90121 0.000851241 -125.27072 0.78815532 -148.11395
10954640625 0.70067227 -175.67078 0.00090253772 -127.35805 0.00082021032 -127.68832 0.78832954 -148.0466
10954675000 0.70036846 -175.65131 0.00087911804 -128.05562 0.0008404759 -127.09037 0.78801173 -148.13358
10954709375 0.7007671 -175.66652 0.00092182361 -125.56176 0.00085864775 -127.21714 0.78747433 -148.09801
10954743750 0.70077139 -175.65556 0.00088754215 -130.65446 0.00083635305 -125.7321 0.78771394 -148.09593
10954778125 0.70063162 -175.67957 0.00089725351 -127.85329 0.00083107507 -125.891 0.78705186 -148.06923
10954812500 0.70134813 -175.69385 0.00091506162 -127.60619 0.00082839135 -126.18432 0.78710532 -148.1347
10954846875 0.70052373 -175.67314 0.00089826289 -126.77137 0.00081520062 -129.09293 0.78803766 -148.23105
10954881250 0.70062906 -175.75429 0.00089746754 -127.46281 0.00083859189 -129.79477 0.7876913 -148.11765
10954915625 0.69988793 -175.65491 0.00087232812 -128.31526 0.000836969 -127.03234 0.78815049 -148.18475
10954950000 0.70099247 -175.68878 0.00091711973 -130.78094 0.00084179128 -127.23598 0.78767914 -148.10712
10954984375 0.70018756 -175.74518 0.0008609019 -126.01691 0.00086168107 -124.52076 0.78773868 -148.07933
10955018750 0.69922537 -175.67641 0.00090474251 -127.43367 0.0008114301 -127.34505 0.78805006 -148.11256
10955053125 0.69966227 -175.75114 0.00091536716 -129.53912 0.00085657527 -127.02622 0.78819704 -148.2403
10955087500 0.70009017 -175.62943 0.0009089341 -127.47105 0.00082705973 -128.17622 0.7880224 -148.20425
10955121875 0.69975454 -175.6687 0.00086418929 -126.32941 0.00081775949 -126.75916 0.78950596 -148.18813
10955156250 0.69865155 -175.58095 0.0008597977 -126.59656 0.00085175817 -126.83434 0.7877931 -148.19199
10955190625 0.69938618 -175.61703 0.0008906055 -128.34656 0.00083323236 -129.1387 0.78791577 -148.14023
10955225000 0.69962639 -175.71912 0.00088585587 -129.0038 0.00082452031 -126.45347 0.78769135 -148.21678
10955259375 0.70014495 -175.76872 0.00088983728 -127.44404 0.0008329493 -127.57291 0.78884727 -148.19281
10955293750 0.70094717 -175.65834 0.00088778371 -126.17739 0.00083355611 -127.77251 0.78849542 -148.18584
10955328125 0.70105785 -175.6694 0.00088423298 -128.99857 0.00083780417 -126.68594 0.78750384 -148.2422
10955362500 0.70068973 -175.72798 0.0008975612 -127.4099 0.00085938541 -128.1503 0.78675038 -148.21872
10955396875 0.70060396 -175.65945 0.0008869645 -127.33758 0.00083878299 -126.91689 0.78765279 -148.23717
10955431250 0.6996628 -175.66359 0.0008741722 -128.56465 0.00083261303 -126.4557 0.78761333 -148.24934
10955465625 0.70020711 -175.67245 0.00088168646 -128.06767 0.00082942779 -129.63493 0.78833067 -148.21577
10955500000 0.70080942 -175.68463 0.00091050187 -129.16226 0.00082697195 -126.86629 0.78803468 -148.19585
10955534375 0.69991249 -175.75546 0.00088811212 -126.54398 0.00082992145 -126.36162 0.78847498 -148.21596
10955568750 0.70017719 -175.70055 0.00089444901 -129.26285 0.0008421297 -129.25363 0.78771752 -148.2655
10955603125 0.70011014 -175.80725 0.00083455187 -125.64452 0.00081379997 -127.08385 0.78830737 -148.1492
10955637500 0.70103383 -175.6452 0.00085387123 -128.92242 0.00085045624 -125.95975 0.78730249 -148.23601
10955671875 0.70145595 -175.7261 0.0008678934 -126.91112 0.00083265308 -128.49977 0.78712595 -148.29857
10955706250 0.69909716 -175.75789 0.00089755125 -127.68584 0.00082557683 -126.69077 0.78788584 -148.27373
10955740625 0.69918317 -175.74808 0.00086547766 -127.26494 0.00081860129 -127.96281 0.7885372 -148.2281
10955775000 0.699835 -175.68816 0.00086880074 -126.62936 0.00083033252 -129.20961 0.78731 -148.30998
10955809375 0.69997782 -175.73654 0.0008842292 -128.58902 0.00081254676 -126.22459 0.78778386 -148.24533
10955843750 0.70029086 -175.81419 0.0008779412 -129.62227 0.00081549381 -124.75417 0.78828365 -148.30862
10955878125 0.69901544 -175.85493 0.00088009989 -128.52477 0.00081550615 -129.87535 0.78687358 -148.26137
10955912500 0.69981742 -175.82977 0.00088637782 -130.55507 0.00081771222 -127.04651 0.78758794 -148.25247
10955946875 0.69946432 -175.74857 0.00085948606 -128.66495 0.00080254755 -129.45493 0.7879476 -148.22464
10955981250 0.69979018 -175.72963 0.0008837817 -127.31862 0.00080245943 -128.69487 0.78868222 -148.20937
10956015625 0.69964069 -175.68927 0.0008846994 -126.45058 0.00083233981 -128.29793 0.78922403 -148.27948
10956050000 0.70125383 -175.66769 0.00090122933 -129.9716 0.00080643705 -128.92902 0.78795362 -148.27269
10956084375 0.70144212 -175.74396 0.00082842482 -128.7236 0.00083987706 -127.48721 0.78788036 -148.3119
10956118750 0.70050013 -175.81616 0.00087324483 -129.1824 0.00085906149 -130.22443 0.78789562 -148.34183
10956153125 0.69941372 -175.75377 0.00086265476 -127.11652 0.00081633875 -128.78139 0.7887547 -148.22945
10956187500 0.69967848 -175.7975 0.00089452381 -130.66312 0.00081826787 -126.97595 0.78860271 -148.23755
10956221875 0.69904041 -175.79509 0.00085956196 -130.58691 0.00082764146 -126.10042 0.78720254 -148.23174
10956256250 0.70092767 -175.80554 0.00084897428 -126.73435 0.00083945569 -126.05273 0.78724784 -148.25276
10956290625 0.70055425 -175.78671 0.00086802716 -127.74519 0.00082990958 -128.28728 0.78672111 -148.38176
10956325000 0.70019233 -175.78746 0.00086061336 -129.67499 0.00080894318 -127.54743 0.78732133 -148.31294
