!Agilent Technologies,E8362C,MY49020356,A.09.42.23
!Agilent E8362C: A.09.42.23
!Date: Saturday, September 11, 2021 04:22:29
!Correction: S11(Full 2 Port(1,2)) 
!S21(Full 2 Port(1,2)) 
!S12(Full 2 Port(1,2)) 
!S22(Full 2 Port(1,2)) 
!S2P File: Measurements: S11, S21, S12, S22:
# Hz S  MA   R 50
10950000000 0.87141782 -149.08736 0.0013414033 -113.56374 0.0011417102 -113.80428 0.89525038 -127.43495
10950034375 0.87116104 -149.10162 0.0013477014 -112.4804 0.0011459343 -114.0639 0.89511174 -127.4369
10950068750 0.8711459 -149.13585 0.0013344443 -112.80405 0.0011468426 -115.07337 0.89591688 -127.40497
10950103125 0.87055486 -149.13899 0.0013295545 -112.34737 0.0011285652 -113.12617 0.89548749 -127.42457
10950137500 0.87065762 -149.21419 0.0013786625 -111.62675 0.0011182684 -113.93243 0.89515424 -127.44771
10950171875 0.87139654 -149.26907 0.0013409581 -112.49955 0.0011537505 -113.28642 0.89547372 -127.47692
10950206250 0.87180901 -149.2328 0.0013772222 -113.96112 0.0011508178 -113.43923 0.89472049 -127.4271
10950240625 0.87161356 -149.26778 0.0013245546 -112.69301 0.0011414699 -116.18812 0.89577204 -127.44125
10950275000 0.87125647 -149.22893 0.0013404933 -112.98296 0.0011311187 -112.27027 0.89413393 -127.49029
10950309375 0.87124044 -149.15382 0.0013958415 -113.05555 0.0011508178 -113.20584 0.89509362 -127.45253
10950343750 0.87049866 -149.10313 0.001324871 -113.27454 0.0011779122 -114.1385 0.89599121 -127.41698
10950378125 0.87036335 -149.13962 0.0013259915 -113.35719 0.001151049 -113.40015 0.89661336 -127.38363
10950412500 0.87054855 -149.15555 0.0013239185 -113.38586 0.0011477405 -114.37399 0.89577872 -127.39722
10950446875 0.8702293 -149.14774 0.0013126109 -112.25024 0.0011435634 -114.89363 0.89493948 -127.40298
10950481250 0.87080997 -149.18008 0.0013172647 -112.08727 0.0011518986 -113.03142 0.89506006 -127.40453
10950515625 0.87168229 -149.15334 0.0013267046 -114.66912 0.0011175765 -111.90045 0.89568579 -127.44492
10950550000 0.87052459 -149.1723 0.0013375601 -113.06612 0.0011421256 -112.63921 0.89513427 -127.43758
10950584375 0.86990863 -149.11534 0.0013637246 -112.00107 0.0011851345 -113.00261 0.89637578 -127.48598
10950618750 0.87013799 -149.16725 0.0013370386 -111.88255 0.0011441489 -112.90201 0.89545858 -127.51566
10950653125 0.8698588 -149.17847 0.001358754 -112.08533 0.0011232373 -114.63866 0.8956154 -127.56169
10950687500 0.86903131 -149.17148 0.0013096853 -112.59426 0.0011531919 -112.03996 0.89589608 -127.53563
10950721875 0.86984235 -149.15681 0.001321628 -114.02213 0.0011598442 -113.39334 0.89537317 -127.53521
10950756250 0.87033057 -149.12581 0.0013465697 -113.58999 0.0011242215 -112.64505 0.89493877 -127.46882
10950790625 0.87127662 -149.15775 0.0013887348 -114.39339 0.001183113 -111.88094 0.89502275 -127.49412
10950825000 0.87020177 -149.23715 0.0013352179 -112.83275 0.0011016049 -112.79404 0.89464056 -127.42861
10950859375 0.87126648 -149.17668 0.0013376857 -113.84946 0.0011379588 -113.3505 0.89578366 -127.49275
10950893750 0.87116802 -149.25145 0.0013538547 -111.83109 0.0011219615 -114.43896 0.8943181 -127.47285
10950928125 0.87212342 -149.18747 0.0013356024 -112.68112 0.0011742872 -113.56665 0.89480746 -127.45976
10950962500 0.87126017 -149.15157 0.0013368296 -113.24496 0.0011360283 -113.23905 0.89549559 -127.48006
10950996875 0.87182927 -149.24907 0.0013639436 -113.45591 0.0011184451 -114.15988 0.89519995 -127.45678
10951031250 0.87148041 -149.29001 0.0013656444 -112.78385 0.0011449909 -112.89352 0.89510769 -127.54314
10951065625 0.87096363 -149.32431 0.0013539795 -113.38312 0.0011422274 -114.10019 0.89555818 -127.52036
10951100000 0.87215757 -149.28664 0.0013404234 -112.67488 0.0011545843 -114.11607 0.89511287 -127.52566
10951134375 0.87129259 -149.2605 0.0012943244 -111.47608 0.0011351517 -112.81306 0.8952657 -127.49779
10951168750 0.87042743 -149.25238 0.0013044993 -112.56001 0.0011245175 -112.88277 0.89565122 -127.5162
10951203125 0.87095994 -149.21877 0.0013557085 -111.99548 0.0011416521 -112.79503 0.89551735 -127.47229
10951237500 0.87079549 -149.29599 0.0013529557 -111.92602 0.0011286433 -113.09439 0.89621884 -127.541
10951271875 0.87169611 -149.24747 0.0013551652 -112.93963 0.001147127 -112.35944 0.89496475 -127.47905
10951306250 0.87045819 -149.27878 0.0013334113 -112.99021 0.0011453917 -114.24223 0.89542633 -127.47947
10951340625 0.87093109 -149.15022 0.0013277488 -112.79227 0.0011383436 -114.07265 0.89533734 -127.50112
10951375000 0.8703348 -149.26886 0.0013294719 -114.04868 0.0011603686 -113.02074 0.89566249 -127.58956
10951409375 0.87139839 -149.20471 0.0013432563 -112.07323 0.0011755632 -112.59231 0.89556748 -127.60285
10951443750 0.872639 -149.28307 0.0013136369 -113.0665 0.0011633864 -113.19542 0.89490807 -127.55482
10951478125 0.87173635 -149.23309 0.0013659722 -113.8205 0.0011471751 -115.14437 0.89492655 -127.55493
10951512500 0.87190473 -149.28568 0.0013038826 -112.56782 0.0011531439 -113.16524 0.89420354 -127.56597
10951546875 0.87159944 -149.24802 0.0013537559 -113.39351 0.001143038 -114.79559 0.89410293 -127.51325
10951581250 0.87093294 -149.28043 0.0013549476 -112.32268 0.0011529395 -111.99081 0.89482832 -127.53252
10951615625 0.87206465 -149.28058 0.0013141503 -113.13663 0.0011367786 -113.46281 0.89519596 -127.55281
10951650000 0.87184006 -149.30409 0.0013199049 -112.68407 0.0011358563 -113.22849 0.8950125 -127.53249
10951684375 0.87281972 -149.2795 0.0013084423 -114.58757 0.0011536534 -114.18268 0.89586866 -127.57859
10951718750 0.87243158 -149.3465 0.0013496981 -115.32552 0.001167847 -113.09389 0.89690459 -127.56667
10951753125 0.87098128 -149.33258 0.0013509582 -113.07055 0.0011277768 -113.39414 0.89601749 -127.57993
10951787500 0.87072867 -149.28362 0.0013262657 -112.07774 0.0011623846 -113.23473 0.896451 -127.55298
10951821875 0.87010419 -149.36183 0.0013278857 -113.86553 0.001137899 -113.14427 0.89546454 -127.52343
10951856250 0.87103248 -149.25534 0.0013663751 -113.62047 0.0011645614 -113.47575 0.89490634 -127.55824
10951890625 0.87227291 -149.3058 0.0013226698 -113.75254 0.0011441926 -113.39312 0.89520282 -127.58758
10951925000 0.87167269 -149.36589 0.0013426532 -113.61566 0.0011232295 -114.17117 0.89497346 -127.6155
10951959375 0.87116319 -149.34686 0.0013633124 -112.53173 0.0011420774 -113.00535 0.89419097 -127.60276
10951993750 0.87100524 -149.43375 0.0013085275 -112.4799 0.0011572085 -112.58701 0.8947314 -127.64165
10952028125 0.87225235 -149.37621 0.0013494284 -113.96711 0.0011593973 -113.94733 0.89455986 -127.61277
10952062500 0.87097716 -149.41402 0.0013590666 -114.31259 0.0011634289 -112.81085 0.89480734 -127.59141
10952096875 0.87143922 -149.36554 0.0013010253 -112.08585 0.0011505121 -113.67104 0.89429629 -127.62129
10952131250 0.87172771 -149.40427 0.0013675062 -112.89789 0.0011440181 -114.08349 0.89534098 -127.62096
10952165625 0.87146139 -149.42313 0.0013486171 -114.25248 0.0011420355 -112.35094 0.89458472 -127.67416
10952200000 0.87016976 -149.3826 0.0013340102 -112.88033 0.001148397 -112.45223 0.89512086 -127.62713
10952234375 0.87022728 -149.37906 0.0013699419 -112.62841 0.0011625498 -112.76037 0.89508164 -127.67652
10952268750 0.87019742 -149.41745 0.0013171119 -113.44687 0.0011451638 -113.37473 0.895051 -127.65067
10952303125 0.87093192 -149.39149 0.0013494249 -114.35361 0.0011657184 -114.00739 0.8958174 -127.66916
10952337500 0.86987203 -149.35458 0.0013198557 -114.25861 0.0011495409 -111.92732 0.89453304 -127.67184
10952371875 0.87066668 -149.34842 0.0013252087 -113.40954 0.0011460403 -113.9847 0.89559972 -127.65018
10952406250 0.87115294 -149.41476 0.0013379615 -114.03807 0.0011633089 -114.02808 0.89424747 -127.71563
10952440625 0.87113571 -149.52745 0.0013403336 -113.15955 0.001171593 -112.37633 0.89453095 -127.76189
10952475000 0.87096727 -149.40176 0.0013333256 -113.19623 0.0011477887 -114.79453 0.89446646 -127.702
10952509375 0.87099624 -149.35468 0.0013451758 -112.31687 0.0011426845 -113.67648 0.89399981 -127.68236
10952543750 0.87132072 -149.30844 0.0013773468 -113.37093 0.0011298192 -114.21092 0.89438826 -127.6927
10952578125 0.87011862 -149.44374 0.0013017696 -113.54795 0.0011335301 -112.5657 0.89450079 -127.65376
10952612500 0.87186676 -149.33751 0.0013440428 -113.91928 0.0011670644 -112.87093 0.89484209 -127.69827
10952646875 0.87192154 -149.37619 0.0013433611 -114.30604 0.001125599 -112.36506 0.89590794 -127.64516
10952681250 0.87136751 -149.45375 0.001325715 -113.86446 0.0011392009 -114.61581 0.89618343 -127.6104
10952715625 0.8706367 -149.38023 0.0013405555 -112.35225 0.0011586223 -113.75152 0.89565289 -127.62376
10952750000 0.87000072 -149.45718 0.0013163125 -113.08552 0.0011723096 -112.50183 0.89563572 -127.64371
10952784375 0.87024534 -149.38632 0.0013310765 -114.64871 0.0011473324 -113.9768 0.89524645 -127.64175
10952818750 0.8712284 -149.40433 0.0013286906 -114.33525 0.0011616136 -113.92469 0.89496517 -127.60487
10952853125 0.87026656 -149.41087 0.0013154277 -115.11474 0.0011674527 -114.38783 0.89580041 -127.67479
10952887500 0.87284404 -149.40332 0.0013121432 -112.116 0.0011209343 -113.86269 0.89605874 -127.61977
10952921875 0.87168753 -149.45273 0.0013289006 -113.35878 0.0011810642 -113.26309 0.89600027 -127.66107
10952956250 0.87155765 -149.39655 0.0013283696 -115.31693 0.0011389795 -113.28371 0.89468461 -127.74464
10952990625 0.87226278 -149.53418 0.0012985409 -112.81037 0.0011569514 -113.43307 0.89654177 -127.69405
10953025000 0.87124795 -149.55034 0.0013237927 -113.16476 0.0011391768 -113.6155 0.89588314 -127.75172
10953059375 0.87094915 -149.46629 0.0013257727 -112.68624 0.001143278 -114.07415 0.89533734 -127.7923
10953093750 0.87130475 -149.48505 0.0013155482 -114.34399 0.0011628558 -113.97298 0.89478576 -127.70872
10953128125 0.87134171 -149.5621 0.0013276126 -114.13751 0.0011359686 -114.10694 0.89402938 -127.64944
10953162500 0.87174922 -149.51903 0.0012878668 -113.02749 0.00117372 -112.99859 0.89574367 -127.65245
10953196875 0.87137693 -149.5256 0.0013197659 -115.08202 0.0011467714 -114.40674 0.89481801 -127.74395
10953231250 0.8696146 -149.49361 0.0013455602 -114.69521 0.0011334395 -112.47757 0.89482135 -127.71297
10953265625 0.86938822 -149.44356 0.0013083216 -114.6728 0.0011414519 -113.37718 0.89532751 -127.71236
10953300000 0.87049782 -149.47282 0.0013212903 -113.91425 0.0011546231 -113.23264 0.89510435 -127.78903
10953334375 0.86973679 -149.43312 0.0013106508 -112.60392 0.0011567771 -113.86917 0.89557409 -127.75552
10953368750 0.87063152 -149.44176 0.0013213642 -114.02663 0.0011484233 -113.47388 0.8957839 -127.77112
10953403125 0.8692314 -149.40868 0.0013496149 -115.16613 0.0011564633 -113.23603 0.89584959 -127.76849
10953437500 0.87101293 -149.55669 0.0013441299 -113.91384 0.0011474973 -113.17425 0.89676017 -127.7825
10953471875 0.87078685 -149.4606 0.0013075074 -114.08901 0.0011846598 -115.34936 0.8958084 -127.7847
10953506250 0.87081224 -149.44696 0.0013158866 -114.21021 0.0011216754 -111.88155 0.89519507 -127.75626
10953540625 0.87061822 -149.49561 0.0013172061 -113.29369 0.0011366749 -113.99274 0.89591718 -127.8146
10953575000 0.8701511 -149.52388 0.0013404266 -113.77336 0.0011800686 -112.5602 0.89595926 -127.76385
10953609375 0.8696447 -149.64752 0.0013187523 -114.01976 0.0011375857 -110.9811 0.89662522 -127.79056
10953643750 0.86947453 -149.62996 0.0013284521 -114.30573 0.0011686957 -112.54286 0.89581537 -127.83228
10953678125 0.87080377 -149.61003 0.0013157245 -113.08594 0.0011547165 -113.40992 0.89565563 -127.78091
10953712500 0.87091273 -149.5753 0.0013441575 -113.52455 0.0011624623 -113.82322 0.89562148 -127.82927
10953746875 0.87157184 -149.50063 0.0013337015 -114.10687 0.0011424 -114.06202 0.89616442 -127.78005
10953781250 0.87117887 -149.49068 0.0013169466 -114.11011 0.0011321628 -114.45696 0.89405429 -127.77063
10953815625 0.87167627 -149.48459 0.0013135402 -112.6642 0.0011499998 -114.47018 0.89494276 -127.75253
10953850000 0.87172276 -149.51669 0.0012869248 -114.63174 0.0011557828 -114.73218 0.89587045 -127.79557
10953884375 0.87283802 -149.54771 0.0012790712 -114.0032 0.0011429158 -113.21362 0.89537728 -127.8274
10953918750 0.87080455 -149.55994 0.0012791447 -114.54549 0.001130447 -112.69875 0.89649636 -127.7454
10953953125 0.87122738 -149.58655 0.0012779091 -115.25871 0.0011440628 -112.68864 0.8965047 -127.84453
10953987500 0.87146097 -149.57593 0.0012742099 -114.21061 0.001152099 -114.29779 0.89612216 -127.8515
10954021875 0.87127292 -149.48984 0.0013475555 -113.50388 0.0011555036 -113.77543 0.89517403 -127.7404
10954056250 0.87112451 -149.51846 0.0013167475 -113.17875 0.0011371099 -113.91696 0.8952198 -127.78259
10954090625 0.87024355 -149.62521 0.0013114315 -112.77001 0.0011587688 -113.59052 0.89552617 -127.76376
10954125000 0.87120742 -149.62064 0.0013225074 -114.62541 0.0011575209 -112.63398 0.89589089 -127.78518
10954159375 0.87045735 -149.64159 0.001314308 -114.49296 0.0011352482 -113.42256 0.89471483 -127.83778
10954193750 0.87113249 -149.59976 0.0012923701 -115.33863 0.0011376654 -111.61801 0.89444804 -127.85393
10954228125 0.87132883 -149.57263 0.0012961283 -113.8301 0.0011902839 -113.52984 0.89491594 -127.80795
10954262500 0.8704164 -149.61621 0.0012770382 -114.00164 0.001173189 -115.54519 0.89494002 -127.82545
10954296875 0.87137496 -149.5498 0.0013031786 -111.80171 0.0011462711 -114.59642 0.8947438 -127.87154
10954331250 0.87103677 -149.6046 0.0013263316 -114.97405 0.0011152952 -114.87747 0.89592201 -127.79935
10954365625 0.87019646 -149.64668 0.0013125208 -114.31389 0.0011067287 -115.45662 0.89502865 -127.84777
10954400000 0.86915648 -149.58028 0.0013225059 -115.04922 0.0011283637 -113.42838 0.89513129 -127.80907
10954434375 0.87042838 -149.5934 0.0012845806 -114.43193 0.001172332 -113.14951 0.89523739 -127.92004
10954468750 0.8701601 -149.64627 0.0012999299 -111.8497 0.0011422682 -114.10642 0.8943091 -127.90279
10954503125 0.87124336 -149.60591 0.0012947005 -116.23815 0.0011526828 -113.56563 0.89498204 -127.91206
10954537500 0.87126082 -149.56264 0.0013024217 -114.36378 0.0011381382 -113.11708 0.89549345 -127.91748
10954571875 0.87102878 -149.53566 0.0013243676 -114.08553 0.0011226243 -113.93604 0.89487171 -127.81593
10954606250 0.87021607 -149.58664 0.0013094246 -115.06227 0.0011209332 -114.03401 0.8949123 -127.89236
10954640625 0.87055576 -149.62585 0.0012976618 -114.23402 0.0011270664 -115.08694 0.89559543 -127.86581
10954675000 0.87048322 -149.62276 0.0013218842 -112.7972 0.0011437938 -115.06981 0.89419633 -127.88685
10954709375 0.87072957 -149.65695 0.0012903108 -114.36633 0.0011590781 -113.96884 0.89507103 -127.84093
10954743750 0.87046647 -149.58693 0.0012893981 -113.96043 0.0011264683 -114.53417 0.89409769 -127.84345
10954778125 0.87191105 -149.61629 0.0012863284 -114.0598 0.001119221 -114.63708 0.89340663 -127.92577
10954812500 0.87181944 -149.60385 0.0012700636 -114.87502 0.0011035349 -113.92657 0.89506662 -127.90621
10954846875 0.87129444 -149.74161 0.0012926696 -113.18943 0.0011500077 -112.18958 0.89517009 -127.93121
10954881250 0.87090439 -149.69363 0.0012797035 -113.58921 0.0011261244 -112.93024 0.89549387 -127.92305
10954915625 0.87044251 -149.76472 0.0012736962 -115.10969 0.0011361173 -114.76476 0.89560878 -127.93537
10954950000 0.86992145 -149.69637 0.0012651355 -113.52775 0.0011436163 -114.56091 0.89533955 -127.87257
10954984375 0.86895996 -149.68134 0.0012885553 -112.95494 0.0011329608 -114.28899 0.89464283 -127.83571
10955018750 0.87016147 -149.78375 0.0012842141 -115.35033 0.0011303732 -114.76263 0.89521998 -127.84399
10955053125 0.87061554 -149.73305 0.0012708239 -115.46272 0.001149894 -115.60491 0.8948397 -127.89149
10955087500 0.87075573 -149.66631 0.0013097837 -114.97311 0.0011418272 -113.46605 0.89494818 -127.96822
10955121875 0.86970353 -149.7108 0.0012926467 -113.21667 0.0011343188 -113.16818 0.89469266 -128.00536
10955156250 0.87041843 -149.68968 0.0012646316 -113.30497 0.0011390862 -114.53547 0.89628184 -127.92686
10955190625 0.86994368 -149.64331 0.001324458 -112.94254 0.001146179 -113.49145 0.89464325 -127.9451
10955225000 0.86963296 -149.68439 0.0013169869 -113.55669 0.0011419446 -114.98472 0.89488429 -127.93861
10955259375 0.87108022 -149.65271 0.0012837703 -114.90721 0.0011501577 -113.89513 0.8960067 -128.04048
10955293750 0.87211251 -149.646 0.0012634607 -115.1016 0.0011484604 -113.64883 0.89489502 -127.94036
10955328125 0.87254888 -149.75443 0.0012705605 -115.12991 0.0011524122 -112.93843 0.89482188 -128.00262
10955362500 0.87064707 -149.70085 0.0012826552 -112.81287 0.0011404887 -113.98634 0.89500082 -127.97779
10955396875 0.87049615 -149.6777 0.001286025 -113.57747 0.0011383921 -114.02978 0.89554143 -128.01588
10955431250 0.87021184 -149.69011 0.0012466814 -114.25627 0.0011176078 -114.04502 0.89555079 -127.94666
10955465625 0.86981541 -149.69601 0.0012738832 -114.67355 0.0011418111 -113.71688 0.8955707 -127.99822
10955500000 0.87027228 -149.66962 0.0012864613 -112.73186 0.0011573825 -114.16125 0.89583611 -127.95238
10955534375 0.8712067 -149.73375 0.0012699309 -116.34058 0.0011251488 -113.32248 0.8958438 -127.93224
10955568750 0.87073791 -149.72836 0.0012576007 -114.32799 0.0011339983 -112.23602 0.89579123 -127.95759
10955603125 0.87158042 -149.70012 0.0012775345 -113.53075 0.001123247 -113.7354 0.89477181 -127.93065
10955637500 0.87192035 -149.71165 0.0012686264 -113.23576 0.0011263087 -112.96642 0.89527088 -127.9039
10955671875 0.87133408 -149.72775 0.0012635562 -114.52361 0.001128507 -113.63253 0.89515287 -128.0645
10955706250 0.87110347 -149.73891 0.0012946548 -115.66588 0.0011139109 -114.07814 0.89518046 -128.09216
10955740625 0.86993313 -149.76163 0.0012962845 -114.7514 0.001109227 -112.80078 0.89574301 -128.04129
10955775000 0.87005305 -149.73491 0.0012953279 -113.41422 0.0011134758 -114.06631 0.89465845 -128.01715
10955809375 0.8695671 -149.75125 0.0012632154 -113.75054 0.0011178469 -114.42099 0.89637661 -127.98698
10955843750 0.86989355 -149.80861 0.0012701885 -112.91142 0.0011500577 -111.9346 0.89519167 -128.06599
10955878125 0.86895311 -149.81677 0.0012453167 -114.34856 0.0011087843 -112.59418 0.8953191 -128.04648
10955912500 0.86902952 -149.79489 0.001264333 -113.80443 0.001120287 -114.7202 0.89497471 -128.0092
10955946875 0.86952901 -149.7858 0.0012558746 -112.98484 0.0010952101 -113.23846 0.89501983 -127.93478
10955981250 0.86887503 -149.67592 0.0012845701 -113.57027 0.0011148757 -113.81709 0.89565182 -128.03018
10956015625 0.86991692 -149.78969 0.0012955928 -113.53662 0.0011289717 -114.61031 0.89621133 -128.0632
10956050000 0.86927569 -149.7762 0.0012501088 -114.08062 0.0011166412 -112.91847 0.89609253 -128.04626
10956084375 0.87023407 -149.67122 0.0012820434 -115.46393 0.0011036806 -112.95732 0.89557469 -128.04684
10956118750 0.87031752 -149.7831 0.0012870918 -113.90708 0.0011091807 -112.3419 0.89579517 -128.09525
10956153125 0.87041432 -149.78761 0.0012522163 -113.68184 0.0011194419 -113.73043 0.89609259 -128.02881
10956187500 0.86894882 -149.77898 0.0012364761 -115.16525 0.001133997 -114.38554 0.8962236 -128.00208
10956221875 0.86992133 -149.76465 0.0012503333 -113.06452 0.0011423108 -113.55437 0.89525229 -127.97237
10956256250 0.86988699 -149.80367 0.0012482423 -113.84946 0.0011178633 -111.45393 0.89417779 -128.04097
10956290625 0.87001109 -149.74081 0.0012361885 -112.16534 0.0010914771 -113.40128 0.89494729 -128.08649
10956325000 0.87020189 -149.78212 0.0012526452 -113.96493 0.0011494406 -113.72313 0.89530689 -128.08522
10956359375 0.87158471 -149.71562 0.001311682 -113.28861 0.0011297532 -113.41398 0.89498055 -127.96111
10956393750 0.87171632 -149.77316 0.001242983 -114.67154 0.0011031177 -113.43511 0.89511383 -128.06689
10956428125 0.87019324 -149.78926 0.001227272 -112.62665 0.0011164616 -112.15524 0.89511287 -127.961
10956462500 0.87053883 -149.8027 0.0012155559 -113.08306 0.0011099856 -111.59011 0.89676195 -128.15643
