!Agilent Technologies,E8362C,MY49020356,A.09.42.23
!Agilent E8362C: A.09.42.23
!Date: Saturday, September 11, 2021 02:13:21
!Correction: S11(Full 2 Port(1,2)) 
!S21(Full 2 Port(1,2)) 
!S12(Full 2 Port(1,2)) 
!S22(Full 2 Port(1,2)) 
!S2P File: Measurements: S11, S21, S12, S22:
# Hz S  MA   R 50
5000000000 0.84402549 -52.490089 1.6824755e-005 21.267488 2.2471682e-005 -11.497906 0.91680408 -127.45379
5000625000 0.84364486 -52.484924 2.6147964e-005 -50.162472 1.875935e-005 -39.817116 0.9170382 -127.7566
5001250000 0.84252489 -52.513786 4.1222829e-005 -41.459888 1.0310893e-005 -46.240265 0.92076266 -127.98512
5001875000 0.84437197 -52.674538 5.4615328e-005 -55.198349 8.1512269e-005 -53.445934 0.9184711 -128.38037
5002500000 0.84495902 -52.757568 3.9703566e-005 171.86406 5.3934098e-005 -0.78548282 0.91821122 -128.62175
5003125000 0.84502065 -52.891815 5.9744667e-005 -42.980984 4.9071114e-005 -28.691313 0.91968334 -129.05118
5003750000 0.84490949 -52.762688 5.3603726e-005 -44.065422 3.0455263e-005 -60.1595 0.92052257 -129.45781
5004375000 0.84439415 -53.102329 3.1043146e-005 -75.913734 3.0597155e-005 -122.82721 0.9212355 -129.83498
5005000000 0.8445915 -53.165005 3.1582698e-005 -36.428459 2.9892395e-005 16.977751 0.92177093 -130.03387
5005625000 0.84448332 -53.132198 6.518673e-005 -89.683891 2.7398202e-005 6.3042507 0.92335439 -130.42978
5006250000 0.84557974 -53.316189 7.2262177e-005 -25.839832 5.3438343e-005 -14.811429 0.92264384 -130.6483
5006875000 0.84723699 -53.320755 5.4767836e-005 -11.491732 6.0327606e-005 -15.192942 0.92336977 -130.99467
5007500000 0.84566051 -53.383144 5.7421563e-005 -58.276768 6.9319372e-005 -47.750809 0.9236939 -131.33031
5008125000 0.84568036 -53.481548 6.0728446e-005 -58.512245 4.0831488e-005 -125.74003 0.92374736 -131.60234
5008750000 0.84513563 -53.579773 4.4124496e-005 -57.183323 3.884163e-005 -50.835503 0.92573637 -131.98146
5009375000 0.8476308 -53.588249 3.6448866e-005 -62.657139 4.9390266e-005 -61.153698 0.92353266 -132.33255
5010000000 0.84461045 -53.621178 7.8720746e-005 -24.019381 9.7010787e-005 -141.07419 0.92827785 -132.79056
5010625000 0.84604216 -53.644707 5.7769153e-005 -59.835724 6.2192034e-005 -33.196678 0.92795706 -132.92825
5011250000 0.84584838 -53.842525 5.5923876e-005 1.7282779 2.4382798e-005 27.270006 0.92663616 -133.28157
5011875000 0.84694737 -53.880035 3.9028226e-005 -37.082195 4.2248539e-005 18.196474 0.92830741 -133.6337
5012500000 0.84598988 -54.051685 6.0513936e-005 -64.22522 6.8768277e-005 -25.734579 0.93022442 -133.93401
5013125000 0.84730279 -54.063293 2.3879729e-005 -54.498447 1.9123203e-005 -30.09836 0.92861634 -134.29839
5013750000 0.84758246 -54.180099 1.5512065e-005 -96.815102 4.6805377e-005 88.637329 0.92996812 -134.71822
5014375000 0.84753019 -54.327618 1.6592274e-005 63.072945 6.0245162e-005 -21.922247 0.93007797 -135.07825
5015000000 0.84703439 -54.370747 1.4723466e-005 -58.921623 1.2941897e-005 -14.897112 0.93016165 -135.33243
5015625000 0.84783185 -54.40934 3.6911682e-005 15.7663 5.0548537e-005 3.04775 0.93108541 -135.64594
5016250000 0.8483752 -54.504108 4.1363481e-005 -27.404711 6.2305109e-005 -43.264423 0.93174326 -136.00577
5016875000 0.84799904 -54.62323 5.3088439e-005 -60.086029 5.9890484e-005 -39.889938 0.9300701 -136.32521
5017500000 0.84805912 -54.671894 1.960314e-005 -148.57019 3.3423312e-005 -48.45319 0.93086505 -136.64093
5018125000 0.84864551 -54.785091 2.5466359e-005 -97.721474 6.0961574e-005 -20.3778 0.93556207 -137.02353
5018750000 0.84896863 -54.867264 3.3882294e-005 -7.0985851 9.8686003e-005 -24.249968 0.93400383 -137.32416
5019375000 0.84902978 -54.94165 4.5557877e-005 -76.559624 3.0823445e-005 -149.12994 0.93437123 -137.63011
5020000000 0.84828222 -55.043236 3.1490861e-005 -171.82726 3.6585036e-005 -28.00988 0.93407834 -138.03098
5020625000 0.84914881 -55.169647 2.9967374e-005 -75.806244 2.6310341e-005 -109.80714 0.93505085 -138.37228
5021250000 0.84996533 -55.295486 6.8343106e-005 -86.781433 3.4334156e-005 -71.931351 0.93598908 -138.67656
5021875000 0.84942496 -55.29924 5.2801359e-005 -73.283989 1.7967104e-005 -83.510468 0.93614906 -138.95267
5022500000 0.85015821 -55.367283 2.5321468e-005 -83.90686 3.570877e-005 -62.882153 0.9367497 -139.28809
5023125000 0.84841454 -55.369991 3.256843e-005 5.2922864 1.8223385e-005 40.753014 0.93644899 -139.56087
5023750000 0.8509326 -55.425812 4.5638255e-005 -54.939049 6.4876825e-005 -101.4051 0.93789083 -140.06181
5024375000 0.85045147 -55.647587 1.4410299e-005 39.706474 5.3874006e-005 -6.3500333 0.93891722 -140.31395
5025000000 0.85014343 -55.745743 1.2860219e-005 17.897499 4.7007612e-005 -63.159824 0.93930483 -140.65608
5025625000 0.85055602 -55.764782 4.1690484e-005 -107.06149 1.3614268e-005 -143.20625 0.93915409 -140.99832
5026250000 0.85073376 -55.836792 2.995972e-005 -113.11945 5.0985156e-005 -26.693325 0.93838477 -141.38187
5026875000 0.85145605 -55.891754 2.8508524e-005 -5.3229699 4.8151807e-005 -23.860634 0.93957287 -141.8217
5027500000 0.85094792 -56.073803 8.113592e-005 -91.969788 0.00010520212 -26.385052 0.93886876 -142.02495
5028125000 0.85073346 -56.043224 4.6943111e-005 -50.516571 2.3957824e-005 -71.239136 0.94035894 -142.39856
5028750000 0.85066116 -56.139526 2.8695944e-005 -78.59668 6.4119231e-005 -49.979023 0.93935013 -142.72075
5029375000 0.85094702 -56.241985 5.4944343e-005 -25.862553 3.1754924e-005 -64.182007 0.93997407 -143.07726
5030000000 0.85059071 -56.487415 3.1915391e-005 1.4745609 1.6018037e-005 5.0484552 0.94197494 -143.40482
5030625000 0.85083681 -56.380596 3.6243608e-005 -40.394474 6.4236367e-005 -27.928488 0.94386679 -143.68475
5031250000 0.85148913 -56.545578 1.5080046e-005 -76.786629 3.5454952e-005 -105.97253 0.94253707 -144.10796
5031875000 0.84985304 -56.640797 4.9633978e-005 -49.294971 5.4832042e-005 -44.077427 0.94330275 -144.48082
5032500000 0.85220641 -56.668068 2.7658954e-005 -89.205048 3.8870719e-005 -55.704163 0.94462985 -144.87921
5033125000 0.85186738 -56.716316 2.2860537e-005 -139.80861 3.0634044e-005 111.98154 0.94282413 -145.14922
5033750000 0.85147154 -56.95142 3.2338234e-005 26.629747 1.7678896e-005 113.40473 0.94435495 -145.41011
5034375000 0.85152137 -57.015793 3.4147251e-005 -67.146767 5.5173638e-005 -41.566368 0.94438922 -145.78023
5035000000 0.85175633 -57.017662 5.0562918e-005 -9.0938196 5.3635478e-005 -78.068657 0.9457528 -146.21869
5035625000 0.8519125 -57.085823 1.9627787e-005 -36.725311 0.00010203218 -12.63949 0.94459504 -146.43854
5036250000 0.85240602 -57.088741 5.7571338e-005 -91.938248 4.7814035e-005 -20.128372 0.94629306 -146.85587
5036875000 0.85315073 -57.247654 3.4199752e-006 8.3453541 5.6660225e-005 -95.782333 0.94526571 -147.16586
5037500000 0.85258406 -57.288532 6.5318709e-005 -60.659496 5.0824161e-005 -7.6060853 0.94612479 -147.51108
5038125000 0.85134935 -57.439693 5.597671e-005 -41.912857 4.4582514e-005 -108.10885 0.94677418 -147.83664
5038750000 0.85263693 -57.569187 4.5733897e-005 -15.039237 4.6107671e-005 9.0225296 0.94464535 -148.19179
5039375000 0.85393083 -57.692642 2.600185e-005 -47.38842 4.9934606e-005 -26.788101 0.94825757 -148.50104
5040000000 0.85318005 -57.710209 4.4999284e-005 -75.764961 4.2812379e-005 -43.843441 0.94744337 -148.85367
5040625000 0.85325259 -57.71204 4.1176139e-005 -47.479008 4.4996857e-005 -34.658085 0.94891006 -149.1664
5041250000 0.85520607 -57.832478 3.8964434e-005 -72.899231 4.1283729e-005 -102.97861 0.9491635 -149.53581
5041875000 0.85373491 -57.993649 3.6698249e-005 -29.494534 6.1484949e-005 -56.754078 0.9473989 -149.87952
5042500000 0.85278994 -58.116802 5.0051254e-005 -23.716242 6.6770022e-005 -27.112047 0.9478125 -150.24931
5043125000 0.85391718 -58.211182 3.9678504e-005 -106.58465 4.059841e-005 -71.723145 0.94831222 -150.5741
5043750000 0.8541019 -58.143337 6.3813844e-005 -4.3625703 1.1381501e-005 -69.86161 0.94892555 -151.01385
5044375000 0.85476232 -58.355961 5.2360516e-005 -76.697838 6.2088111e-005 -11.943632 0.94945776 -151.4032
5045000000 0.85521227 -58.39447 2.6288504e-005 42.649879 6.4172011e-005 -68.57856 0.95123488 -151.582
5045625000 0.85446423 -58.534168 3.5405781e-005 -37.096333 4.1073963e-005 -88.971909 0.94923174 -152.02226
5046250000 0.85465097 -58.622082 4.2198371e-005 -23.660988 3.0259394e-005 -79.232635 0.9496758 -152.33542
5046875000 0.85538304 -58.678135 1.8505227e-005 -37.285133 5.7238343e-005 -33.438473 0.95133138 -152.68732
5047500000 0.85615772 -58.79409 5.2737596e-005 -58.669289 2.7541095e-005 -50.422611 0.94839615 -152.9519
5048125000 0.85492045 -58.950256 6.4438304e-005 -51.194794 6.8389709e-005 -65.210625 0.95122778 -153.37141
5048750000 0.85505962 -59.02306 5.8941459e-005 -83.679398 7.0495778e-005 -42.560726 0.95146763 -153.68748
5049375000 0.85473078 -59.16103 4.2136937e-005 -10.167249 3.6077901e-005 -31.96726 0.95120782 -154.0327
5050000000 0.8539061 -59.196766 3.5925503e-005 -44.125797 3.2620486e-005 -92.853569 0.9522894 -154.40512
5050625000 0.85504234 -59.153503 3.9674076e-005 -39.474575 7.5448319e-005 -77.276596 0.95247877 -154.67137
5051250000 0.85625672 -59.315865 2.63494e-005 -39.579521 6.2134088e-005 -24.636053 0.95154428 -155.0936
5051875000 0.8564465 -59.265373 3.7485279e-005 -50.221691 2.7245716e-005 -51.680733 0.95423543 -155.37044
5052500000 0.85749823 -59.489307 7.0764618e-005 -78.279648 4.7164798e-005 -61.706421 0.95375305 -155.81546
5053125000 0.85693771 -59.617729 2.4755758e-005 -65.51445 4.8875907e-005 10.09842 0.95430684 -156.05545
5053750000 0.85689604 -59.687912 2.5592673e-005 -50.381905 4.6822192e-005 -23.282696 0.95383328 -156.51968
5054375000 0.85790658 -59.865578 2.0200156e-005 -95.0578 5.7547761e-005 -74.162613 0.95348263 -156.75638
5055000000 0.85917401 -59.90572 3.2883123e-005 -78.245621 3.0009993e-005 -64.548149 0.95479983 -157.19255
5055625000 0.85863304 -59.878788 2.3186143e-005 -54.727455 2.2582359e-005 -83.580765 0.95356834 -157.48616
5056250000 0.85848445 -60.104771 3.402372e-005 -51.372753 4.7323079e-005 -42.984604 0.95435709 -157.79301
5056875000 0.85725713 -60.13134 3.0304007e-005 -64.819351 4.15717e-005 -55.79686 0.95492524 -158.17683
5057500000 0.85802865 -60.243191 3.2904489e-005 -127.83403 4.8043599e-005 9.5826731 0.95544416 -158.44066
5058125000 0.85829782 -60.19878 3.4606845e-005 -61.295525 5.5905522e-005 -66.263885 0.95404464 -158.8074
5058750000 0.85817599 -60.468376 1.3490233e-005 178.84007 4.6903348e-005 -68.497353 0.95525122 -159.24782
5059375000 0.85900259 -60.510983 5.160669e-005 -36.435295 5.5576395e-005 -51.450909 0.95549315 -159.5184
5060000000 0.85828274 -60.602692 4.5745863e-005 -77.162224 4.7523699e-005 3.7085772 0.95661753 -159.85237
5060625000 0.85878378 -60.769852 2.370688e-005 -76.911247 4.2020638e-005 -65.731102 0.95587224 -160.28673
5061250000 0.85976821 -60.720074 1.7430038e-005 -10.310643 4.6681831e-005 -72.720421 0.95600432 -160.60854
5061875000 0.86159045 -60.743435 5.1941905e-005 -110.28973 4.4647721e-005 -66.120483 0.95606142 -160.95982
5062500000 0.85983694 -60.957211 6.6137851e-005 -77.232231 5.9834096e-005 -39.074562 0.95639533 -161.34346
5063125000 0.85989916 -61.072411 3.0879812e-005 -29.273989 1.8143504e-005 94.748466 0.95798862 -161.66026
5063750000 0.86186093 -60.976349 3.8972681e-005 -77.773727 2.0414298e-005 -149.664 0.95529807 -162.03195
5064375000 0.8619743 -61.247509 7.2351089e-005 -41.937275 3.1791133e-005 -39.184845 0.957313 -162.34398
5065000000 0.86150855 -61.313938 9.9062581e-006 -34.259007 6.424584e-005 -29.30019 0.95824856 -162.71053
5065625000 0.86010653 -61.408756 4.0503703e-005 -77.400764 2.6080983e-005 -108.51912 0.95833832 -163.0396
5066250000 0.86172426 -61.540653 5.5887791e-005 -56.43206 5.5575907e-005 -71.718773 0.95854354 -163.3372
5066875000 0.86097449 -61.593395 5.0302617e-005 -22.668633 1.4090843e-005 -110.98544 0.95794326 -163.71135
5067500000 0.86193669 -61.701477 3.6319172e-005 -29.884186 4.7822225e-005 -71.03183 0.9586888 -164.15016
5068125000 0.86197209 -61.917114 2.7667689e-005 2.7535331 5.2802461e-005 -61.967628 0.95774782 -164.45308
5068750000 0.86200219 -61.830788 4.9567472e-005 -49.516533 4.9038488e-005 -66.610191 0.96124268 -164.84224
5069375000 0.86201239 -61.875908 2.0855574e-005 -84.683205 8.2729879e-005 -65.188873 0.9594475 -165.10341
5070000000 0.86327076 -61.996246 6.5943714e-005 -46.059734 4.5829114e-005 -69.878609 0.9596507 -165.50691
5070625000 0.86382389 -62.042706 3.2913296e-005 -34.049316 4.7484667e-005 -108.32983 0.9610191 -165.87408
5071250000 0.86265618 -62.283253 6.3236977e-005 18.448143 4.8382935e-005 -36.124638 0.95956343 -166.18683
5071875000 0.86315727 -62.294125 5.3296833e-005 -99.210915 3.7914575e-005 -32.467442 0.95915574 -166.44751
5072500000 0.86411685 -62.377155 1.7157383e-005 179.57637 4.825868e-005 -103.11374 0.95792788 -166.89984
5073125000 0.86580473 -62.567356 3.9105311e-005 -38.014736 5.0190058e-005 -24.325527 0.95853978 -167.31557
5073750000 0.86427903 -62.50106 4.5413919e-005 -106.64337 3.5365094e-005 -117.24927 0.95997471 -167.56778
5074375000 0.86531276 -62.750153 3.3445765e-005 -118.99919 3.330984e-005 -64.82267 0.95956558 -167.98462
5075000000 0.86512721 -62.748184 6.2693071e-005 -75.235703 2.8570696e-005 -9.899868 0.9586134 -168.30585
5075625000 0.86374736 -62.86084 3.8595303e-005 -41.752254 7.812096e-005 -102.65384 0.9621495 -168.82236
5076250000 0.86645746 -62.920284 5.4878437e-005 -17.484335 3.8284801e-005 -74.122765 0.96037793 -168.92509
5076875000 0.86599565 -63.027988 1.4603719e-005 -91.810425 2.9901623e-005 -66.223312 0.95987427 -169.35785
5077500000 0.86419809 -63.214973 5.9201149e-005 -81.126648 3.6555339e-005 -17.781864 0.96122688 -169.70271
5078125000 0.86642623 -63.233032 3.924315e-005 -101.09405 3.9422303e-005 -81.624336 0.95973295 -169.94054
5078750000 0.86700463 -63.283035 3.5573034e-005 -43.643055 6.9151029e-005 -117.13416 0.95950973 -170.35016
5079375000 0.86665583 -63.367073 1.0971387e-005 -154.89459 4.5366985e-005 -81.225357 0.96179724 -170.7193
5080000000 0.86755943 -63.461521 2.8613498e-005 -23.878939 2.5864421e-005 -71.910957 0.96016431 -171.12325
5080625000 0.86634928 -63.605583 5.3443971e-005 -50.600506 6.2685038e-005 -59.369549 0.95888734 -171.32777
5081250000 0.86554742 -63.624409 1.4040521e-005 60.561989 5.7744332e-005 -100.5172 0.96221119 -171.69402
5081875000 0.86721367 -63.677547 6.1865539e-006 56.768635 4.5086777e-005 -87.283722 0.96108276 -172.14008
5082500000 0.86672825 -63.878601 6.1146195e-005 -61.280254 4.7189755e-005 -45.116737 0.95939279 -172.35936
5083125000 0.86766058 -64.023643 7.2002978e-005 -19.166435 4.6402831e-005 -63.021126 0.96104717 -172.83498
5083750000 0.8676452 -64.08139 4.8344315e-005 -123.35961 2.3443654e-005 -87.730423 0.95968968 -173.15936
5084375000 0.86826837 -64.077156 7.5475233e-005 -56.057053 2.6736901e-005 -81.539391 0.95971769 -173.53778
5085000000 0.86670762 -64.205421 5.9093941e-006 145.03656 1.9120798e-005 -56.830639 0.9575491 -173.89249
5085625000 0.86730415 -64.379822 3.0026133e-005 -55.74567 2.9349312e-005 -49.344818 0.96094137 -174.06442
5086250000 0.86807436 -64.412865 3.372864e-005 -153.73662 2.0795167e-005 61.009838 0.96013808 -174.5611
5086875000 0.86820126 -64.503792 4.2389449e-005 -70.456001 6.4011758e-005 -48.610016 0.96093875 -174.91655
5087500000 0.86668617 -64.517044 3.9625411e-005 -50.935341 7.0193732e-005 -89.805481 0.95930761 -175.10471
5088125000 0.87030399 -64.714127 2.7567574e-005 -62.994453 6.2146806e-005 13.842634 0.96041322 -175.52754
5088750000 0.87056106 -64.798904 3.9979612e-005 -42.956985 5.8554986e-005 -68.56707 0.95891118 -175.97258
5089375000 0.86987865 -64.80011 1.2767196e-005 -17.750896 1.6708878e-005 -46.327404 0.9599815 -176.20743
5090000000 0.86976063 -64.845566 5.4403936e-005 -54.188881 5.8934143e-005 -34.242886 0.96063423 -176.58221
5090625000 0.87034291 -64.988823 6.5263674e-005 -126.5842 7.3288393e-005 -94.611649 0.95867938 -177.00999
5091250000 0.87058794 -65.122375 4.8907037e-005 -158.44824 3.8269995e-005 -104.88342 0.95914495 -177.21687
5091875000 0.87141299 -65.179825 3.6658792e-005 -124.56588 2.2059239e-005 2.9144876 0.95954543 -177.59692
5092500000 0.8709709 -65.249947 5.6071101e-005 -42.65028 3.3615288e-005 -94.460106 0.96048599 -177.98175
5093125000 0.87187463 -65.340965 6.3113956e-005 -59.831646 3.0228835e-005 -76.557831 0.95902139 -178.34908
5093750000 0.87256765 -65.375648 2.6048685e-005 -103.33892 5.4623571e-005 16.337763 0.96128935 -178.63483
5094375000 0.87179613 -65.463669 3.6822436e-005 -33.804668 1.9354424e-005 -81.680855 0.95943916 -178.95767
5095000000 0.8730703 -65.590103 5.8467496e-005 -126.38155 6.5617714e-005 -21.165943 0.9595474 -179.21492
5095625000 0.87139034 -65.660957 5.6509834e-005 -72.072083 3.4206198e-005 -52.301998 0.95916927 -179.67216
5096250000 0.87355471 -65.89032 7.3285948e-005 -71.655334 4.9847415e-005 -62.882286 0.95788467 -179.98264
5096875000 0.87290567 -65.783836 1.844798e-005 -86.613708 6.8163965e-005 -143.22673 0.95957702 179.58223
5097500000 0.87010115 -65.861 6.2074687e-005 -91.035439 1.3831307e-005 -78.872253 0.95982033 179.28981
5098125000 0.87208706 -65.949333 7.4204625e-005 -69.383095 4.3618238e-005 -111.67905 0.95944488 178.96611
5098750000 0.87225634 -66.12075 2.2236638e-005 -159.59677 2.7088949e-005 -43.119461 0.95942533 178.66745
5099375000 0.8720004 -66.293571 3.0003592e-005 89.820389 5.9453723e-005 -102.50891 0.95979244 178.28828
5100000000 0.87257695 -66.190849 5.3021038e-005 -96.857407 7.8981189e-005 -87.853897 0.95792067 177.95671
5100625000 0.87355655 -66.340782 2.8662014e-005 159.26582 7.217392e-005 -92.758072 0.96080548 177.5513
5101250000 0.87409735 -66.45504 5.6696448e-005 -65.236954 3.1610278e-005 -81.215919 0.95934725 177.24289
5101875000 0.8734737 -66.343323 3.4402648e-005 -96.414238 5.4498734e-005 -84.87249 0.95737833 176.84189
5102500000 0.87414116 -66.602127 4.6857989e-005 -160.38548 3.3623983e-005 -159.86176 0.9593209 176.56464
5103125000 0.87331301 -66.698463 3.864145e-005 -61.672935 5.8932739e-005 -87.781578 0.95809501 176.24117
5103750000 0.87437993 -66.832909 6.0854571e-005 -83.129158 1.303953e-005 -20.975338 0.95980304 175.88228
5104375000 0.87398177 -66.883781 2.9920884e-005 -101.1804 6.5862194e-005 -61.65831 0.95641762 175.52341
5105000000 0.87543494 -67.016823 5.1503299e-005 -47.262886 0.00012109273 -66.554672 0.95725214 175.17455
5105625000 0.8743732 -67.094543 1.2155155e-005 -1.0540118 3.8284161e-005 3.8162098 0.95817941 174.87251
5106250000 0.87643409 -67.082466 1.8377579e-005 -38.54388 5.6817571e-005 -17.77426 0.95761663 174.50665
5106875000 0.87722093 -67.214119 5.1616869e-005 -26.038822 9.0641392e-005 -101.70647 0.95770848 174.24432
5107500000 0.87695378 -67.371857 6.019936e-005 -32.465748 7.1639406e-005 -61.463856 0.95650893 173.87878
5108125000 0.87571245 -67.49778 1.527606e-005 -28.764315 1.7638235e-005 -68.74192 0.95712149 173.54321
5108750000 0.87678736 -67.602242 3.9653951e-005 -63.798576 2.6685733e-005 -62.80167 0.9576472 173.16026
5109375000 0.87650192 -67.582069 4.3967895e-005 -27.114481 6.8441797e-005 -58.054832 0.95619202 172.86096
5110000000 0.87555915 -67.625763 6.1825573e-005 -78.498146 4.8105787e-005 -55.397415 0.95630789 172.46487
5110625000 0.87839538 -67.783577 5.8553022e-005 -117.09148 4.2981337e-005 -70.508553 0.95507371 172.03691
5111250000 0.87771696 -67.778542 5.1349405e-005 -100.51114 1.7208415e-005 -41.828712 0.9572742 171.69153
5111875000 0.87858552 -67.840652 3.2431341e-005 -27.691799 6.693654e-005 6.5082574 0.95491469 171.44582
5112500000 0.87971431 -67.97261 3.7254766e-005 -67.738022 3.6449135e-005 -148.14787 0.95799553 171.07425
5113125000 0.87843853 -68.012428 6.6859e-005 -92.373596 2.4936773e-005 -41.889854 0.95698762 170.70222
5113750000 0.88004023 -68.152092 6.340968e-005 -86.111809 4.6809873e-005 -36.565857 0.95503783 170.42242
5114375000 0.87917691 -68.205376 3.1018055e-005 -107.88519 2.6978762e-005 -83.267174 0.95588332 170.14908
