!Agilent Technologies,E8362C,MY49020356,A.09.42.23
!Agilent E8362C: A.09.42.23
!Date: Saturday, September 11, 2021 02:11:55
!Correction: S11(Full 2 Port(1,2)) 
!S21(Full 2 Port(1,2)) 
!S12(Full 2 Port(1,2)) 
!S22(Full 2 Port(1,2)) 
!S2P File: Measurements: S11, S21, S12, S22:
# Hz S  MA   R 50
5000000000 0.84232289 -52.466888 1.6988524e-005 -173.64738 1.9357145e-005 -33.262547 0.89197928 -25.86676
5000625000 0.84514165 -52.622177 5.962373e-005 -46.502377 1.7097713e-005 33.889671 0.8906585 -25.836733
5001250000 0.84284657 -52.60685 1.8680343e-005 -132.22607 3.8291873e-005 55.365513 0.89124799 -25.725039
5001875000 0.84377146 -52.626827 1.9977811e-005 -48.107292 1.26377e-005 94.146362 0.89310914 -25.744217
5002500000 0.84471864 -52.830238 7.6100396e-006 -8.0982895 9.1767724e-006 -16.786884 0.89292347 -25.755814
5003125000 0.84519559 -52.939396 6.510304e-006 -83.652161 2.3946262e-005 72.925934 0.89380533 -25.726423
5003750000 0.84554899 -52.920601 3.0835265e-005 54.423347 5.7789941e-005 2.9940667 0.89327788 -25.865332
5004375000 0.84464633 -53.104912 3.3661352e-005 -39.761688 3.0542611e-005 -31.168629 0.89474326 -25.80707
5005000000 0.84407467 -53.122456 4.0904186e-005 -80.965927 3.4774992e-005 39.27158 0.89405566 -25.783495
5005625000 0.84458697 -53.256382 4.1029052e-005 -80.940308 4.9053728e-005 20.86581 0.89369619 -25.640976
5006250000 0.8461749 -53.311306 4.0676478e-005 5.5416265 4.486772e-005 -16.199789 0.89557672 -25.80895
5006875000 0.84530795 -53.334602 2.4362833e-005 -45.064014 4.4920648e-006 63.251862 0.89560384 -25.752445
5007500000 0.84524453 -53.367596 5.9294562e-005 -15.910219 1.8302373e-005 7.3157063 0.89457256 -25.724743
5008125000 0.84504682 -53.475094 5.5489159e-005 -51.537277 7.0696107e-005 -22.606087 0.89536071 -25.617188
5008750000 0.84575498 -53.511395 2.6258291e-005 -110.74686 2.3992787e-005 -38.44804 0.89543724 -25.67264
5009375000 0.84671181 -53.560863 4.6391557e-005 -33.905758 1.8339937e-005 44.521416 0.8956427 -25.645493
5010000000 0.84539497 -53.603374 4.3542186e-005 2.2081587 2.6621823e-005 -46.177887 0.89637041 -25.67399
5010625000 0.84658533 -53.883682 3.6241749e-005 24.941612 3.6323996e-005 -26.69492 0.89739811 -25.600634
5011250000 0.84567773 -53.832066 4.7000591e-005 -58.022041 5.3133183e-005 -42.435596 0.89638346 -25.684708
5011875000 0.84615397 -53.914547 2.7806002e-005 -155.51266 1.5939546e-005 -85.348129 0.89715743 -25.593382
5012500000 0.84693909 -54.017864 3.8942726e-005 -77.083038 1.9795531e-005 -78.969933 0.89944184 -25.652107
5013125000 0.84713876 -54.058514 4.8557038e-005 -113.77848 2.9078547e-005 -26.974884 0.8970384 -25.645283
5013750000 0.84815711 -54.211922 3.9023134e-006 -8.5260172 4.5142158e-005 -35.316353 0.89772952 -25.531549
5014375000 0.84816712 -54.400002 6.2682717e-005 -38.633099 4.9741164e-005 -48.567036 0.89993709 -25.665749
5015000000 0.84708458 -54.36935 5.9429458e-005 -56.488056 3.7934515e-005 -33.718292 0.89814997 -25.681469
5015625000 0.84732026 -54.434002 3.661932e-005 -68.558975 5.4272045e-005 -94.884781 0.89811069 -25.653591
5016250000 0.84753782 -54.570137 4.9668117e-005 -113.0124 3.9988623e-005 -40.612114 0.9004128 -25.627533
5016875000 0.84777784 -54.656212 3.979824e-005 -121.04486 2.3680357e-005 -24.430832 0.89967799 -25.505001
5017500000 0.84879881 -54.674461 3.9159859e-005 -81.930344 2.7072487e-005 4.6267662 0.90071201 -25.557671
5018125000 0.84843522 -54.694229 3.0774198e-005 -66.450798 3.0241523e-005 28.495285 0.90077198 -25.486244
5018750000 0.84820193 -54.832062 5.0640039e-005 -146.29129 1.8237826e-005 -99.904655 0.89963412 -25.51157
5019375000 0.85010737 -54.785011 3.2126867e-005 -35.264843 3.9305611e-005 -66.674232 0.90194112 -25.492441
5020000000 0.84951788 -54.937859 3.3959084e-005 -54.23035 5.8825844e-006 -7.1944904 0.90075111 -25.566931
5020625000 0.84905016 -55.063629 5.8311183e-005 -38.804653 4.5866342e-005 -45.041393 0.90243465 -25.499746
5021250000 0.8490873 -55.197037 3.075174e-005 -91.243744 1.5831145e-005 -9.1040621 0.90114993 -25.412613
5021875000 0.84792382 -55.232193 5.6042696e-005 -147.44864 7.5490857e-006 29.392855 0.90359455 -25.379463
5022500000 0.84785312 -55.365578 2.1565684e-005 -175.29031 3.6712263e-005 -45.658409 0.90287286 -25.463387
5023125000 0.84912288 -55.403172 4.7851936e-005 -82.24128 5.0808456e-005 -72.357712 0.90217102 -25.465033
5023750000 0.8501153 -55.411682 5.95647e-005 -56.28091 3.7991347e-005 -37.381638 0.90327889 -25.415108
5024375000 0.84937096 -55.610729 1.2732437e-005 69.528763 4.1342752e-005 -31.098389 0.90383887 -25.375023
5025000000 0.85022336 -55.729221 4.6561658e-005 -113.68954 1.8362331e-005 75.023911 0.90311122 -25.418917
5025625000 0.85039824 -55.729374 4.9748105e-005 -117.18472 5.0246097e-005 -16.911777 0.90332961 -25.405663
5026250000 0.8501603 -55.831142 2.749634e-005 -124.69228 2.3575652e-005 72.882034 0.90347993 -25.435265
5026875000 0.85042942 -55.913292 6.3581734e-005 -89.834244 3.5804769e-005 -60.684177 0.90533316 -25.424347
5027500000 0.85103136 -56.022404 4.0252777e-005 -100.43305 4.07601e-005 -119.04421 0.90317607 -25.36824
5028125000 0.85125327 -56.068737 3.3300385e-005 -82.444771 7.6041521e-005 -58.09782 0.90507883 -25.315224
5028750000 0.85019952 -56.130455 4.4664623e-005 -110.5455 9.886583e-006 -129.85388 0.90340698 -25.280861
5029375000 0.85001981 -56.21957 4.1333122e-005 -59.522961 5.1072093e-005 -53.622253 0.90492374 -25.325441
5030000000 0.84892321 -56.432796 2.6226333e-005 -165.24208 6.2521765e-005 -67.660995 0.90532798 -25.381304
5030625000 0.84913403 -56.32877 3.5956462e-005 -115.72741 5.1468753e-005 -12.488058 0.90416986 -25.24334
5031250000 0.85052121 -56.562805 1.8919434e-005 -126.62425 2.8470675e-005 -127.5284 0.90734708 -25.234169
5031875000 0.85002142 -56.58942 3.8823309e-005 -81.697472 2.1679418e-005 -84.591644 0.90738595 -25.247171
5032500000 0.85081095 -56.658104 4.9576436e-005 -106.66008 1.5728261e-005 -122.15578 0.90604806 -25.337345
5033125000 0.85205656 -56.723328 6.4051055e-005 -112.43513 4.5464578e-005 -76.293343 0.9083519 -25.251389
5033750000 0.85178548 -56.909966 4.3753305e-005 -119.28687 2.153909e-005 -107.00336 0.90771466 -25.24634
5034375000 0.85169047 -56.910152 1.4359976e-005 -130.43817 2.8005034e-005 -71.754349 0.90617943 -25.161022
5035000000 0.85299557 -57.010429 1.8648852e-005 -132.15343 4.2692896e-005 -45.136177 0.90806365 -25.09886
5035625000 0.85137898 -57.03598 4.6229678e-005 -56.062962 6.7286841e-005 -90.416222 0.90742135 -25.17267
5036250000 0.85168511 -57.160217 3.5954188e-005 -79.799049 5.9591621e-005 -76.473434 0.90729123 -25.137527
5036875000 0.85143143 -57.206234 4.645819e-005 -135.28029 2.4260371e-005 -101.94212 0.90734839 -25.152462
5037500000 0.851978 -57.296955 3.4448385e-005 -78.445839 1.7296807e-005 -81.533577 0.90865237 -25.181572
5038125000 0.85185933 -57.474255 5.1195915e-005 -107.8742 2.9310726e-005 -69.575905 0.90886909 -25.09164
5038750000 0.85355014 -57.515663 5.3009226e-005 142.66663 1.348312e-005 57.954292 0.90930295 -25.156755
5039375000 0.85301459 -57.655067 5.2830124e-005 -148.76315 4.4218479e-005 -94.552406 0.90785176 -25.073908
5040000000 0.85298908 -57.691269 2.9363171e-005 -159.37569 5.5269171e-005 -65.559151 0.91074443 -25.151337
5040625000 0.85340798 -57.832512 3.8631457e-005 -104.28319 3.1125812e-005 -120.60216 0.91041058 -25.031807
5041250000 0.85349685 -57.891617 6.3523723e-005 -162.52161 2.2740642e-005 -102.31288 0.91120839 -24.977468
5041875000 0.85344607 -57.963207 6.810062e-005 -158.66922 1.2763874e-005 -118.93864 0.9108023 -25.035563
5042500000 0.85321456 -58.17725 5.9121248e-005 -129.84845 5.0031402e-005 73.433273 0.90929025 -24.998102
5043125000 0.85268646 -58.072414 1.5665155e-005 -5.1073198 2.2495118e-005 123.25362 0.9106496 -25.031395
5043750000 0.85354304 -58.12944 2.3749881e-005 -151.244 4.5406079e-005 -131.37418 0.91108549 -24.990936
5044375000 0.85392565 -58.312134 4.5951896e-005 -168.11411 1.8183358e-005 -113.41909 0.9113695 -25.057274
5045000000 0.85381925 -58.343285 4.1383275e-005 -110.25242 5.9091417e-005 -114.85919 0.91048992 -24.932669
5045625000 0.85462785 -58.530746 4.798681e-005 -166.10228 2.8946179e-005 -56.364269 0.91190732 -25.014318
5046250000 0.85463399 -58.686535 2.5788249e-005 135.71368 4.466547e-005 -167.68132 0.91233021 -25.057861
5046875000 0.85466272 -58.636082 1.9273166e-005 168.01611 1.7459612e-005 89.680695 0.91173464 -24.864038
5047500000 0.85454911 -58.797718 4.6084457e-005 -107.29068 2.8780889e-005 -128.28152 0.91215307 -24.829901
5048125000 0.85514891 -58.860168 4.1562194e-005 -127.41654 5.5522898e-005 123.45127 0.91355985 -24.936171
5048750000 0.85488415 -58.992386 7.0084701e-005 174.19498 3.7592852e-006 52.411831 0.91240269 -24.838387
5049375000 0.8555541 -59.073589 3.0227893e-005 -146.82625 5.6845744e-005 -171.79385 0.91352671 -24.815477
5050000000 0.85414493 -59.193638 4.1871463e-005 -129.25009 1.3507989e-005 178.53041 0.91410649 -24.842688
5050625000 0.85540169 -59.126251 3.7583373e-005 -172.15869 1.530697e-005 -179.87355 0.91243327 -24.926271
5051250000 0.85625178 -59.252098 7.1744056e-005 155.40186 7.4449295e-006 4.1890545 0.91380072 -24.831896
5051875000 0.85528743 -59.255333 4.6537119e-005 -171.55539 1.7005967e-005 164.98158 0.91404217 -24.764805
5052500000 0.85596412 -59.49371 2.0894049e-005 162.95123 2.4832361e-005 -142.93721 0.91447204 -24.754715
5053125000 0.85624278 -59.705845 3.9158331e-005 163.93979 3.3089058e-005 -126.81009 0.91385466 -24.753008
5053750000 0.85564959 -59.705814 4.2347543e-005 -158.32683 1.6243799e-005 80.537392 0.91448146 -24.888454
5054375000 0.85858667 -59.82605 1.0593809e-005 -62.468704 4.2623258e-005 -145.41118 0.91644937 -24.70767
5055000000 0.85799682 -59.886074 3.8744787e-005 134.64355 6.6321729e-005 -98.48275 0.91544527 -24.77775
5055625000 0.85758233 -59.932644 4.121352e-005 -122.12737 5.9768539e-005 86.584328 0.91544312 -24.66704
5056250000 0.85725063 -60.027966 8.5256164e-005 176.51578 1.9219367e-005 152.85709 0.91529113 -24.677948
5056875000 0.85769928 -60.179478 3.8254508e-005 -85.15728 3.6677233e-005 -104.89251 0.91644102 -24.702892
5057500000 0.85689241 -60.232338 3.7604023e-005 164.95508 1.7941455e-005 -163.46771 0.91587585 -24.727612
5058125000 0.85688251 -60.262447 4.1307881e-005 -154.50749 1.8658709e-005 165.37425 0.91598094 -24.696472
5058750000 0.8579616 -60.494377 3.1055148e-005 -168.44176 3.4018263e-005 34.880501 0.91623324 -24.65756
5059375000 0.85805023 -60.514812 5.0616934e-005 -160.96164 2.3566707e-005 -23.403072 0.9169507 -24.704185
5060000000 0.85881776 -60.575024 7.3565316e-006 -137.36861 2.461913e-005 8.4612684 0.91730112 -24.50017
5060625000 0.85825747 -60.664497 5.119979e-005 145.77763 5.1944975e-005 -134.82069 0.91783464 -24.624964
5061250000 0.85990912 -60.705635 3.6596466e-005 -160.95622 3.1652526e-005 -18.873981 0.91943032 -24.638742
5061875000 0.86058468 -60.908432 2.7430295e-005 146.13744 5.4397209e-005 132.2697 0.91737884 -24.668957
5062500000 0.86115491 -60.990128 1.838045e-005 24.374733 5.1348543e-005 139.07693 0.92171007 -24.537828
5063125000 0.85845089 -61.106358 2.066189e-005 88.79731 5.0498318e-005 132.45506 0.91963476 -24.567753
5063750000 0.86057568 -60.99807 1.8635346e-005 10.476729 2.2807895e-005 126.48195 0.91931468 -24.655756
5064375000 0.86096275 -61.183075 4.500975e-005 156.97346 6.1518494e-006 -129.66942 0.92029107 -24.531031
5065000000 0.86127311 -61.264706 3.4090088e-005 -117.57997 1.4263652e-005 33.561317 0.91945738 -24.551264
5065625000 0.85911953 -61.449574 4.7578429e-005 159.013 4.1014871e-005 77.232414 0.92057014 -24.541683
5066250000 0.86028475 -61.575317 4.8754871e-005 -176.5654 7.8433295e-006 134.69519 0.92217231 -24.512074
5066875000 0.8607685 -61.615547 3.3003278e-005 75.633873 3.4181139e-005 121.15447 0.92065752 -24.485495
5067500000 0.86214453 -61.6339 2.066147e-005 -151.09769 7.4438281e-006 27.320808 0.91983086 -24.430407
5068125000 0.85989952 -61.772579 1.5270236e-005 110.99274 3.0538165e-005 7.7472839 0.91924733 -24.356281
5068750000 0.86135024 -61.857521 2.1131102e-005 44.433731 3.4969027e-005 89.050194 0.92095315 -24.499975
5069375000 0.86199975 -61.931702 3.2130563e-005 129.62708 2.9592522e-005 76.705627 0.92200863 -24.461195
5070000000 0.86435157 -62.031731 3.7422953e-005 65.135002 2.4761885e-005 83.1119 0.92236018 -24.496544
5070625000 0.86210757 -62.076572 3.8092592e-005 -176.082 2.5291964e-005 174.18256 0.9230755 -24.370693
5071250000 0.86258936 -62.29158 2.8133029e-005 -124.65662 2.7141734e-005 -34.628075 0.92205298 -24.210411
5071875000 0.86387122 -62.20784 5.5663506e-005 117.45573 2.4519419e-005 -175.85309 0.92316687 -24.26063
5072500000 0.86494976 -62.478664 4.9794671e-005 -110.87652 7.118309e-006 74.960884 0.92129648 -24.352106
5073125000 0.86344928 -62.454491 7.7559074e-005 111.62508 1.5168094e-005 -2.8756473 0.92419034 -24.395906
5073750000 0.86396897 -62.544212 3.2941589e-005 -50.472542 3.9871848e-005 56.974262 0.92214018 -24.320007
5074375000 0.8649044 -62.778687 4.3678956e-005 80.129944 1.4010825e-005 81.866837 0.92138666 -24.43099
5075000000 0.86379343 -62.779758 1.8841269e-005 102.19585 8.8111547e-006 61.856728 0.92286253 -24.31658
5075625000 0.86301357 -62.859207 2.1923637e-005 -22.966337 3.5726887e-005 -170.19092 0.92373878 -24.36515
5076250000 0.86433107 -62.902607 5.7224988e-005 147.33838 6.3430384e-006 123.73923 0.92203128 -24.288889
5076875000 0.86487418 -63.035522 4.8309965e-005 119.10518 3.9706334e-005 69.294113 0.92300719 -24.297388
5077500000 0.86439222 -63.150543 3.8429269e-005 143.09734 3.0808973e-005 50.606537 0.92500436 -24.322191
5078125000 0.86592078 -63.219269 3.7356076e-005 -154.83156 2.6835258e-005 103.12126 0.92408371 -24.221903
5078750000 0.86627162 -63.238331 6.8227773e-006 70.402283 1.7578008e-005 83.840958 0.92540044 -24.321072
5079375000 0.86450589 -63.41861 2.2268037e-005 118.95193 1.629637e-005 9.1249027 0.92463791 -24.221659
5080000000 0.86787331 -63.522549 2.3350633e-005 63.081772 2.3038183e-005 101.02724 0.92437983 -24.185661
5080625000 0.865776 -63.601635 1.1985635e-005 -178.14528 4.0896815e-005 112.15838 0.92380339 -24.212526
5081250000 0.865026 -63.591099 3.5021316e-005 92.996475 3.2985568e-005 105.05631 0.92642248 -24.303968
5081875000 0.86835599 -63.689323 6.8734022e-005 86.657402 3.109988e-005 108.36287 0.92521089 -24.203707
5082500000 0.86670601 -63.761768 9.4879353e-005 133.76605 1.2870606e-005 72.088654 0.92511827 -24.273161
5083125000 0.8685568 -63.905998 1.1131021e-005 -89.768532 4.0300845e-005 98.244003 0.92533863 -24.282804
5083750000 0.86726254 -64.056793 4.7432135e-005 86.152275 4.529798e-005 52.983017 0.92622972 -24.164034
5084375000 0.868433 -64.003883 2.3651633e-005 49.297787 4.1432158e-005 125.74444 0.92598182 -24.104717
5085000000 0.86691558 -64.1763 4.4724209e-005 4.7198391 2.2404522e-005 101.10253 0.92532414 -24.129673
5085625000 0.86864614 -64.350899 2.3080231e-005 60.936844 2.9060771e-005 73.582878 0.92549431 -24.114258
5086250000 0.86742187 -64.426933 7.8901765e-005 45.633614 1.1487158e-005 97.226227 0.92552203 -24.14196
5086875000 0.86694223 -64.338791 3.2636955e-005 75.607658 2.0230087e-005 11.267165 0.92637724 -24.102846
5087500000 0.86828041 -64.474388 2.4160745e-005 75.391891 3.509747e-005 42.568195 0.92654121 -24.157652
5088125000 0.8701387 -64.658516 3.7499944e-005 60.330421 4.2752054e-005 86.740425 0.92646986 -24.120369
5088750000 0.86831939 -64.707764 6.7109562e-005 62.933289 2.9400073e-005 72.197571 0.92448914 -24.054195
5089375000 0.87118834 -64.781967 5.4112716e-005 90.418823 1.2188663e-005 -4.2438478 0.92500222 -24.053669
5090000000 0.86884487 -64.790604 6.4060259e-005 -52.107403 1.9717569e-005 41.015808 0.92692256 -24.07938
5090625000 0.87116641 -64.956284 4.0562067e-005 126.26024 4.6865338e-005 45.304398 0.92734557 -24.160885
5091250000 0.87067419 -65.179863 2.4060831e-005 38.549786 2.2102708e-005 42.679054 0.92706376 -24.057545
5091875000 0.87108028 -65.168678 1.9327523e-005 20.371523 7.9416313e-006 -42.9562 0.92710119 -24.0821
5092500000 0.86990798 -65.206726 2.8725117e-005 129.98019 3.9183244e-005 32.769733 0.92680585 -24.058479
5093125000 0.87177563 -65.323402 4.9842725e-005 -43.267204 2.229601e-005 94.362099 0.9271403 -24.076801
5093750000 0.87122059 -65.359314 7.0636503e-005 -12.976775 2.4866007e-005 67.103951 0.92605448 -24.018908
5094375000 0.87111557 -65.484314 9.1545189e-006 107.46674 2.6515832e-005 -10.3912 0.92742449 -24.02323
5095000000 0.87252724 -65.519012 2.1453649e-005 -32.364185 4.6784386e-005 17.559566 0.92794007 -24.063198
5095625000 0.87145549 -65.670982 7.0024391e-005 67.037468 6.9853663e-006 90.505974 0.9272362 -23.97024
5096250000 0.87268674 -65.79261 9.1853064e-005 55.002396 1.3210586e-005 27.360441 0.92694813 -23.953362
5096875000 0.87025571 -65.794212 1.8290644e-005 -129.39243 2.4549603e-005 7.8176064 0.92767203 -23.96476
5097500000 0.87032819 -65.887138 2.89605e-005 -98.647713 2.5755755e-005 -7.2780976 0.92719162 -23.999641
5098125000 0.87221897 -65.997398 2.7601884e-005 175.92003 2.3802968e-005 -17.070553 0.92665023 -24.000278
5098750000 0.87265724 -66.010559 7.1327449e-005 8.9114294 5.1790514e-005 -3.6706445 0.92758167 -23.948799
5099375000 0.87213594 -66.23243 3.6592483e-005 66.855087 2.7057979e-005 90.400711 0.92824364 -23.934229
5100000000 0.87276196 -66.193382 8.115566e-005 -14.064118 1.6788552e-005 -58.670006 0.92876506 -23.871468
5100625000 0.87440497 -66.403625 5.0077324e-005 -63.745731 4.8088768e-005 -40.192337 0.92775297 -23.942995
5101250000 0.87322944 -66.469696 4.7917398e-005 178.95779 3.5769383e-005 36.913857 0.92867011 -23.948406
5101875000 0.87358552 -66.416092 4.2687807e-005 43.632454 3.2141743e-005 38.648529 0.92855388 -23.924086
5102500000 0.87434733 -66.653503 2.1630462e-005 4.1678743 3.3301887e-005 -11.214872 0.92976999 -23.998737
5103125000 0.87342691 -66.699509 1.9860083e-005 103.16332 4.0961953e-005 19.320807 0.92831481 -23.890347
5103750000 0.87397993 -66.862091 3.4669407e-005 14.348259 2.2217127e-005 -59.339878 0.92886043 -23.986679
5104375000 0.87468857 -66.763145 2.9468905e-005 29.119808 3.1939679e-005 84.048851 0.92887169 -23.963017
5105000000 0.87655491 -66.976273 9.4118004e-006 22.660707 1.2920797e-005 14.903702 0.92917842 -23.930992
5105625000 0.87422419 -67.012291 4.8321315e-005 -41.750942 4.0369574e-005 42.893269 0.92854702 -23.912336
5106250000 0.87481743 -67.067734 2.968286e-005 -8.4444504 1.6175582e-005 -60.98521 0.92995673 -23.958097
5106875000 0.87707335 -67.221062 4.4673983e-005 43.759922 2.8418344e-005 15.664665 0.92983824 -23.840139
5107500000 0.875736 -67.253838 3.4992365e-005 -161.87538 4.9782079e-006 -50.854698 0.93000954 -23.85651
5108125000 0.87606978 -67.418236 1.2076552e-005 38.590332 3.8776052e-005 50.726768 0.9301188 -23.92477
5108750000 0.87611645 -67.540268 3.5756562e-005 -46.820259 4.6554975e-005 -14.719555 0.93191642 -23.843962
5109375000 0.87598908 -67.5243 2.4554374e-005 -128.66071 4.7522237e-005 -56.009682 0.93060386 -23.891481
5110000000 0.87585109 -67.604782 5.1159856e-005 -82.513832 1.3525545e-005 -37.507126 0.93066907 -23.897877
5110625000 0.87722534 -67.814255 5.0044153e-005 -4.4776473 3.7020578e-005 -15.622272 0.92978501 -23.833447
5111250000 0.87651622 -67.760002 3.3796685e-005 -73.854355 2.3534825e-005 55.527912 0.9323945 -23.856277
5111875000 0.87830973 -67.884888 8.1984526e-006 5.7834258 1.7263907e-005 8.9814682 0.93109697 -23.854218
5112500000 0.87822723 -68.034203 4.9251565e-005 36.084858 2.7904556e-005 -17.307858 0.93196476 -23.839682
5113125000 0.87751204 -68.000282 4.1513576e-005 -63.280746 2.2207551e-005 -73.665382 0.93182087 -23.784523
5113750000 0.8781597 -68.13459 3.3759003e-005 36.218536 3.2912772e-005 32.290363 0.93111998 -23.764277
5114375000 0.87777466 -68.249352 1.3147082e-005 -67.783737 1.3427772e-005 7.3323336 0.93241185 -23.808779
5115000000 0.87839884 -68.32029 6.1484003e-005 57.386036 1.6308166e-005 97.580315 0.93178523 -23.871178
