# Version 1.00
#
freq[Hz];re:Trc2_S21;im:Trc2_S21;
1.000000000000000E+09;3.412522855862677E-03;-1.314866041000098E-03;
1.070000000000000E+09;1.910471256171972E-03;1.093172614990496E-04;
1.140000000000000E+09;-3.994295469007702E-04;6.170188579065742E-04;
1.210000000000000E+09;-4.328984902387383E-04;-5.613565119605410E-04;
1.280000000000000E+09;-1.615470309059553E-04;-1.545999595906801E-04;
1.350000000000000E+09;-1.819620375298372E-04;8.581987465660257E-05;
1.420000000000000E+09;2.415064759083533E-06;-2.569743242138119E-05;
1.490000000000000E+09;1.140677943535154E-04;-2.061313279355162E-04;
1.560000000000000E+09;-1.635588735360873E-04;-6.160885147731368E-05;
1.630000000000000E+09;1.565951551307592E-04;-2.130290688917574E-04;
1.700000000000000E+09;5.396079754338509E-05;3.868636244518591E-05;
1.770000000000000E+09;-5.113391459924049E-05;6.307729899564868E-05;
1.840000000000000E+09;-5.790339559625966E-04;1.554213031886300E-03;
1.910000000000000E+09;-3.811349532180917E-04;-4.687906507621525E-04;
1.980000000000000E+09;-7.422128631705133E-04;4.932005380165727E-04;
2.050000000000000E+09;-2.704414374242330E-02;-1.785899630770784E-02;
2.120000000000000E+09;-2.209054869820914E-02;3.470867603812175E-03;
2.190000000000000E+09;4.444981086211232E-03;-6.763721200020869E-03;
2.260000000000000E+09;6.676180978208482E-03;-2.377844336976761E-03;
2.330000000000000E+09;2.016369777114838E-03;4.740711040867930E-03;
2.400000000000000E+09;-1.136934933641165E-02;-3.823220894353673E-04;
2.470000000000000E+09;6.769421693992762E-03;3.631621561032151E-03;
2.540000000000000E+09;1.650364773092557E-02;4.922350006605090E-03;
2.610000000000000E+09;-3.208215407362965E-04;2.319506721619288E-04;
2.680000000000000E+09;5.553433071271215E-03;-1.383079947576963E-03;
2.750000000000000E+09;1.749840843752155E-03;-3.779090264973230E-04;
2.820000000000000E+09;-1.889495705266727E-04;2.707510372765705E-04;
2.890000000000000E+09;-6.417724966994941E-05;-3.420057344349318E-05;
2.960000000000000E+09;3.930260250715591E-05;-1.223292748453298E-03;
3.030000000000000E+09;-1.340389957901322E-04;-1.181190409927281E-04;
3.100000000000000E+09;4.264367704554886E-04;-4.045350812682104E-05;
3.170000000000000E+09;7.411588504089879E-03;3.677997994976229E-03;
3.240000000000000E+09;-8.601115306173045E-04;-6.885218659878616E-04;
3.310000000000000E+09;2.175407294213557E-03;1.066325124698731E-03;
3.380000000000000E+09;-9.984914281390275E-03;-4.581735017955760E-02;
3.450000000000000E+09;6.467554335746606E-03;3.695472613731478E-02;
3.520000000000000E+09;7.503721348690845E-02;5.378078600102636E-02;
3.590000000000000E+09;1.775601777791509E-03;1.551359343452807E-02;
3.660000000000000E+09;-7.965287104012250E-03;-1.356815777022155E-03;
3.730000000000000E+09;-9.273626161303146E-03;-8.215293275364580E-03;
3.800000000000000E+09;2.853127725766914E-03;1.620859384847874E-02;
3.870000000000000E+09;4.658108326274077E-03;-2.022337273261006E-02;
3.940000000000000E+09;1.613646438005210E-02;1.513355789105418E-02;
4.010000000000000E+09;2.204609535239695E-02;-1.671449686521487E-03;
4.080000000000000E+09;-4.829069151118985E-03;-1.111306739747972E-02;
4.150000000000000E+09;2.502647371575975E-03;-1.884984106416039E-04;
4.220000000000000E+09;-1.243369871834470E-03;1.986412063036543E-03;
4.290000000000000E+09;-2.432154805367708E-03;-3.845038394558014E-03;
4.360000000000000E+09;-4.635326507426070E-03;5.508206067972224E-04;
4.430000000000000E+09;-5.072128581487761E-03;4.951334244282476E-03;
4.500000000000000E+09;3.097813978182148E-03;-2.646237286910850E-03;
4.570000000000000E+09;6.329846469750427E-04;-1.576672560140042E-03;
4.640000000000000E+09;4.739366273508889E-03;3.623517889665495E-03;
4.710000000000000E+09;-2.905450754661177E-02;-2.046827156634999E-03;
4.780000000000000E+09;-6.324306005729291E-03;1.196991599650066E-02;
4.850000000000000E+09;-2.550747987637852E-02;-5.710027931136966E-02;
4.920000000000000E+09;9.253193939769632E-03;1.588810718172116E-02;
4.990000000000000E+09;1.618514754729748E-02;1.851479901074111E-02;
5.060000000000000E+09;5.048348696161977E-03;-4.418044304808777E-03;
5.130000000000000E+09;-1.983051016003043E-03;-1.693068019538339E-03;
5.200000000000000E+09;-1.493634739252980E-02;3.943846497703359E-03;
5.270000000000000E+09;-1.075996887437071E-02;-4.818390058752687E-04;
5.340000000000000E+09;-4.759522037693993E-03;-2.793148295644487E-02;
5.410000000000000E+09;-1.364022462916961E-03;2.933189928082123E-03;
5.480000000000000E+09;-1.043549368512705E-03;1.390003607281009E-02;
5.550000000000000E+09;-7.998116132507447E-03;9.101198372907222E-03;
5.620000000000000E+09;-1.631453618411429E-03;3.349527769502554E-03;
5.690000000000000E+09;1.561892666658239E-03;-6.034412392429848E-03;
5.760000000000000E+09;-4.473379753216601E-03;-1.102491290058900E-02;
5.830000000000000E+09;1.594603680444438E-02;2.599757759435683E-02;
5.900000000000000E+09;-6.399487271298416E-03;-9.820661286225288E-04;
5.970000000000000E+09;-1.001146274939421E-02;-4.110010902997762E-03;
6.040000000000000E+09;-8.245156086672756E-03;-7.662669629103185E-03;
6.110000000000000E+09;3.446090571481434E-03;-8.037767879194304E-03;
6.180000000000000E+09;1.428154467211278E-02;8.486815434971613E-03;
6.250000000000000E+09;-7.326071653399610E-03;2.734235736201110E-02;
6.320000000000000E+09;1.410959973479942E-02;-1.572589716221704E-02;
6.390000000000000E+09;2.697089673890682E-03;1.372083040995388E-02;
6.460000000000000E+09;-3.264746144016791E-02;-6.666219440799685E-02;
6.530000000000000E+09;1.878527058712350E-02;-2.936783645293548E-02;
6.600000000000000E+09;2.052252844669868E-02;-6.517958504471025E-03;
6.670000000000000E+09;3.808483355355793E-03;1.673046069762796E-02;
6.740000000000000E+09;-2.254711850667507E-03;-2.410346282668524E-02;
6.810000000000000E+09;7.532068498769577E-03;1.927586653461076E-03;
6.880000000000000E+09;-2.672920937625930E-03;-1.362734397522042E-02;
6.950000000000000E+09;-1.330495782148527E-03;-1.230553464955391E-02;
7.020000000000000E+09;1.478082125531135E-02;-1.912710087875992E-02;
7.090000000000000E+09;2.641403362098098E-02;-1.032998820815110E-02;
7.160000000000000E+09;3.510709192994770E-03;3.258499990237150E-03;
7.230000000000000E+09;8.010414425190010E-04;8.013099386431127E-04;
7.300000000000000E+09;6.085493916717456E-03;-1.006159511012534E-02;
7.370000000000000E+09;1.407293599968433E-02;-1.808110145198125E-02;
7.440000000000000E+09;2.527200043599699E-02;-4.168037135016512E-03;
7.510000000000000E+09;-1.229997653771534E-02;-1.823089641080613E-04;
7.580000000000000E+09;-5.458798947908413E-03;-1.698505689751647E-02;
7.650000000000000E+09;3.546028131150092E-02;2.662885875855328E-02;
7.720000000000000E+09;3.313029320791980E-02;7.832758307502871E-02;
7.790000000000000E+09;2.139539794863920E-03;-7.071356289089080E-02;
7.860000000000000E+09;4.926332040007349E-03;2.535013312267555E-03;
7.930000000000000E+09;-7.169307954266372E-04;-3.092022176048588E-02;
8.000000000000000E+09;2.128872332767398E-02;3.643194091140985E-03;
8.070000000000000E+09;2.700252986819667E-03;3.183539495801877E-02;
8.140000000000000E+09;-1.142943423192556E-02;3.959018774482617E-03;
8.210000000000000E+09;2.656219152176364E-02;-9.863763532937157E-03;
8.280000000000000E+09;1.543197466772131E-03;1.855854351792061E-02;
8.350000000000000E+09;-4.862067134050713E-02;3.740195334525853E-02;
8.420000000000000E+09;-8.925823955683601E-03;-1.771537230802647E-02;
8.490000000000000E+09;6.983028280693863E-02;4.574275558555870E-02;
8.560000000000000E+09;1.006905227284511E-02;2.691517888459239E-03;
8.630000000000000E+09;-2.437815734497248E-02;1.591466933970402E-02;
8.700000000000000E+09;2.212163690213751E-02;4.798189331427066E-03;
8.770000000000000E+09;-2.148233040480039E-03;1.057452500164104E-02;
8.840000000000000E+09;1.859350115709575E-02;1.974707201003093E-02;
8.910000000000000E+09;-2.682581303674741E-02;2.492392551581383E-02;
8.980000000000000E+09;3.329453525230473E-02;1.015841152528642E-02;
9.050000000000000E+09;2.918514504357720E-02;-3.419697489303637E-02;
9.120000000000000E+09;-2.086850566326289E-04;1.689917614432984E-02;
9.190000000000000E+09;-9.552401493506200E-03;4.953652508014483E-02;
9.260000000000000E+09;1.438982250948554E-02;2.500502622123266E-02;
9.330000000000000E+09;-7.307300559425869E-03;-1.020617509965376E-02;
9.400000000000000E+09;-1.343804215886236E-03;1.165076293785419E-02;
9.470000000000000E+09;-4.170342683485215E-02;-1.680007270028044E-03;
9.540000000000000E+09;3.483172642431329E-03;-4.021186964355984E-03;
9.610000000000000E+09;1.472277281798754E-02;3.309274185021575E-02;
9.680000000000000E+09;9.664986946842402E-02;6.034651916784604E-02;
9.750000000000000E+09;4.166714930481790E-03;3.853521017371835E-02;
9.820000000000000E+09;-9.310424218808544E-03;3.725734638327425E-02;
9.890000000000000E+09;-6.599323856737143E-03;-1.559361897296619E-02;
9.960000000000000E+09;-1.451669596148957E-02;2.601805789559461E-03;
1.003000000000000E+10;-1.008755064046571E-02;3.270286234165490E-02;
1.010000000000000E+10;-3.604008671718820E-02;-3.608804366402690E-02;
1.017000000000000E+10;3.517245266704015E-02;-2.837191264688518E-02;
1.024000000000000E+10;-1.002185707419520E-03;2.200251031822808E-02;
1.031000000000000E+10;-4.354166714324244E-02;8.554904513893782E-03;
1.038000000000000E+10;-9.990715779786922E-03;-2.192004458324014E-02;
1.045000000000000E+10;-4.426864518479291E-02;-2.010227752940797E-02;
1.052000000000000E+10;1.564131808795222E-03;9.942508735786941E-02;
1.059000000000000E+10;-3.338565916734874E-02;-7.301246139659518E-04;
1.066000000000000E+10;-3.268936265678060E-02;-4.376906492984710E-02;
1.073000000000000E+10;1.425821765608843E-02;-3.297589753929715E-03;
1.080000000000000E+10;1.897988416858434E-02;1.186444779278839E-02;
1.087000000000000E+10;-3.279498388209665E-02;1.164410242349180E-02;
1.094000000000000E+10;-3.742068699735460E-02;3.822157692105405E-02;
1.101000000000000E+10;-3.552154852958660E-02;-4.025370191194962E-02;
1.108000000000000E+10;1.891824535237496E-05;-4.636978528803795E-02;
1.115000000000000E+10;4.167815666017818E-02;1.120301927262304E-02;
1.122000000000000E+10;5.826507060864481E-03;1.773583790874508E-02;
1.129000000000000E+10;-9.993849320304147E-03;-3.998839772295771E-02;
1.136000000000000E+10;7.394917928991762E-02;8.568133138062828E-02;
1.143000000000000E+10;1.683932630078753E-02;6.889005016490949E-03;
1.150000000000000E+10;-3.106972865137273E-02;-2.441518984713759E-02;
1.157000000000000E+10;2.283700245157488E-02;1.392706261635167E-01;
1.164000000000000E+10;5.655699393971961E-02;2.932591525587224E-02;
1.171000000000000E+10;-1.084254768890205E-02;5.700844433038980E-02;
1.178000000000000E+10;4.942985782381892E-02;2.206410056092862E-02;
1.185000000000000E+10;-5.033774848760215E-02;-3.339473034814485E-02;
1.192000000000000E+10;2.846528084458833E-02;4.132618244043446E-02;
1.199000000000000E+10;3.682129424821109E-02;2.880405967297452E-02;
1.206000000000000E+10;1.912393900841632E-02;-3.785324051554651E-03;
1.213000000000000E+10;1.333107284816874E-02;-2.020854600668991E-02;
1.220000000000000E+10;-4.612452683203173E-02;4.926846226880698E-02;
1.227000000000000E+10;-2.834801989840885E-02;-1.104505567045828E-02;
1.234000000000000E+10;-3.854319136552418E-02;4.258470931602128E-02;
1.241000000000000E+10;-8.507009234797221E-02;2.646591894146278E-02;
1.248000000000000E+10;4.865215900263126E-03;-7.495522940454200E-02;
1.255000000000000E+10;-3.855497358848210E-03;6.204965134931750E-02;
1.262000000000000E+10;4.875880186490119E-02;2.014602487714393E-02;
1.269000000000000E+10;-1.015938440742387E-01;-1.645019184423518E-02;
1.276000000000000E+10;7.434758771905739E-02;-2.477773644351364E-02;
1.283000000000000E+10;9.279462162873610E-02;1.931242213086525E-03;
1.290000000000000E+10;-4.183966274981854E-02;-1.445154183723057E-02;
1.297000000000000E+10;-7.206960825545247E-02;-1.001456418395192E-01;
1.304000000000000E+10;1.494851832532278E-02;-4.096995176033603E-02;
1.311000000000000E+10;-4.486231171985560E-02;1.232090824150932E-02;
1.318000000000000E+10;-3.762347807532922E-02;3.403289861945547E-02;
1.325000000000000E+10;-1.216027724605682E-02;7.563767160650083E-02;
1.332000000000000E+10;-2.512070484290490E-02;-1.096650524541254E-02;
1.339000000000000E+10;-1.887387443069898E-02;-1.459404686632798E-01;
1.346000000000000E+10;-4.311289503633874E-03;2.131653716931324E-02;
1.353000000000000E+10;-2.964985635340066E-02;3.700597572819095E-02;
1.360000000000000E+10;-1.686133090056209E-02;-3.258743412541685E-02;
1.367000000000000E+10;7.941245642605398E-02;-4.594263614730131E-02;
1.374000000000000E+10;-3.212307548301926E-02;8.359995162667162E-02;
1.381000000000000E+10;-5.517968317430515E-02;1.223658754444665E-01;
1.388000000000000E+10;1.040773674251913E-01;9.561085896677660E-03;
1.395000000000000E+10;1.189326742949137E-02;-2.184453082218803E-02;
1.402000000000000E+10;-2.537192341987278E-02;-6.191344062817292E-02;
1.409000000000000E+10;4.467671967836233E-02;1.161665924951421E-01;
1.416000000000000E+10;-3.584520163340840E-02;3.126166816365365E-03;
1.423000000000000E+10;-7.267317709461406E-02;6.047096341826017E-02;
1.430000000000000E+10;9.965060655239212E-02;-7.461151852078818E-02;
1.437000000000000E+10;5.904453417526638E-02;-5.061965578875004E-02;
1.444000000000000E+10;-1.003898469007540E-01;3.082866351658449E-02;
1.451000000000000E+10;2.803619174400139E-02;-9.232614216590415E-04;
1.458000000000000E+10;-8.360908134201388E-03;-2.000140818023281E-02;
1.465000000000000E+10;-3.106680276071204E-02;1.068708691628371E-01;
1.472000000000000E+10;-3.555846626773640E-02;-4.520669528513469E-02;
1.479000000000000E+10;5.042629610341341E-02;-2.417170453361363E-02;
1.486000000000000E+10;2.199654899180269E-02;3.378138151369348E-02;
1.493000000000000E+10;-6.508460728434745E-03;6.271848255393771E-02;
1.500000000000000E+10;3.656624190865802E-02;-3.366104538410283E-02;
