# Version 1.00
#
freq[Hz];re:Trc1_S11;im:Trc1_S11;
1.000000000000000E+08;9.989703983771224E-01;-6.274260009304489E-02;
1.014900000000000E+08;9.970552548966226E-01;-6.377915916026211E-02;
1.029800000000000E+08;9.972260921018183E-01;-6.290354286223693E-02;
1.044700000000000E+08;9.959045295130045E-01;-6.438505065941595E-02;
1.059600000000000E+08;9.984613729735243E-01;-6.577235792019685E-02;
1.074500000000000E+08;9.985078484241102E-01;-6.820844047100826E-02;
1.089400000000000E+08;9.982627062831340E-01;-6.712062513786013E-02;
1.104300000000000E+08;9.964817852050841E-01;-6.814490552280436E-02;
1.119200000000000E+08;9.975424991076798E-01;-6.806514306836409E-02;
1.134100000000000E+08;9.957846887150226E-01;-7.153250624260853E-02;
1.149000000000000E+08;9.965980686980224E-01;-7.220117781469947E-02;
1.163900000000000E+08;9.977268391892758E-01;-7.155263867713293E-02;
1.178800000000000E+08;9.959024092253794E-01;-7.252730941851862E-02;
1.193700000000000E+08;9.974577184065110E-01;-7.553706551385134E-02;
1.208600000000000E+08;9.961834067663569E-01;-7.584765428921202E-02;
1.223500000000000E+08;9.968404580283544E-01;-7.634428210839889E-02;
1.238400000000000E+08;9.955265706821832E-01;-7.565055248798319E-02;
1.253300000000000E+08;9.969564465002906E-01;-7.772939756566798E-02;
1.268200000000000E+08;9.968552155254452E-01;-7.717233191079689E-02;
1.283100000000000E+08;9.974829468436404E-01;-7.956001003742058E-02;
1.298000000000000E+08;9.969972401000214E-01;-8.025365380056326E-02;
1.312900000000000E+08;9.956785434234263E-01;-8.111386999000977E-02;
1.327800000000000E+08;9.961232397916721E-01;-8.204426616039330E-02;
1.342700000000000E+08;9.959821939906922E-01;-8.242836878305491E-02;
1.357600000000000E+08;9.963009153585236E-01;-8.340952308586656E-02;
1.372500000000000E+08;9.953160105279898E-01;-8.603731787583324E-02;
1.387400000000000E+08;9.963472709673598E-01;-8.578775014366632E-02;
1.402300000000000E+08;9.952434936069674E-01;-8.640363696882658E-02;
1.417200000000000E+08;9.967314224965657E-01;-8.778094009396878E-02;
1.432100000000000E+08;9.955522364697198E-01;-8.951891081096355E-02;
1.447000000000000E+08;9.957862828096011E-01;-8.846827916193779E-02;
1.461900000000000E+08;9.959987845726295E-01;-9.020889329893746E-02;
1.476800000000000E+08;9.958631393369409E-01;-9.123304231259990E-02;
1.491700000000000E+08;9.942500796424736E-01;-9.243824220270078E-02;
1.506600000000000E+08;9.959337398579184E-01;-9.313527894631779E-02;
1.521500000000000E+08;9.942443617846872E-01;-9.413943321282463E-02;
1.536400000000000E+08;9.952179378863354E-01;-9.594750340973716E-02;
1.551300000000000E+08;9.947241128430021E-01;-9.513300359871056E-02;
1.566200000000000E+08;9.939414858219725E-01;-9.681903011106480E-02;
1.581100000000000E+08;9.955605643965719E-01;-9.671389784857042E-02;
1.596000000000000E+08;9.948423414705022E-01;-9.792756219227958E-02;
1.610900000000000E+08;9.957194347402696E-01;-9.857213267413542E-02;
1.625800000000000E+08;9.937178243458274E-01;-9.975338472122637E-02;
1.640700000000000E+08;9.944089002000417E-01;-1.005705403791213E-01;
1.655600000000000E+08;9.940364776854707E-01;-1.025450631050480E-01;
1.670500000000000E+08;9.943118636522525E-01;-1.029611721301208E-01;
1.685400000000000E+08;9.938045402104083E-01;-1.037810751188600E-01;
1.700300000000000E+08;9.935860516861048E-01;-1.056979410913090E-01;
1.715200000000000E+08;9.934120685166705E-01;-1.055618892249059E-01;
1.730100000000000E+08;9.940015661654176E-01;-1.063269177323013E-01;
1.745000000000000E+08;9.948467194755266E-01;-1.078394173572689E-01;
1.759900000000000E+08;9.932575527094365E-01;-1.072731190840612E-01;
1.774800000000000E+08;9.940432259951958E-01;-1.103435403926323E-01;
1.789700000000000E+08;9.940898444148148E-01;-1.103866810387975E-01;
1.804600000000000E+08;9.930443200340966E-01;-1.118563021488259E-01;
1.819500000000000E+08;9.923127720073864E-01;-1.118221661077065E-01;
1.834400000000000E+08;9.943231955989431E-01;-1.139911996991594E-01;
1.849300000000000E+08;9.934521787870557E-01;-1.145667655301680E-01;
1.864200000000000E+08;9.929560474991379E-01;-1.149597541459472E-01;
1.879100000000000E+08;9.928798213497818E-01;-1.160266306847804E-01;
1.894000000000000E+08;9.921295598802654E-01;-1.176013587905100E-01;
1.908900000000000E+08;9.925742556612465E-01;-1.176071525109288E-01;
1.923800000000000E+08;9.927727480835089E-01;-1.195272367769577E-01;
1.938700000000000E+08;9.926302272899553E-01;-1.215192901704666E-01;
1.953600000000000E+08;9.912289043157334E-01;-1.217450604679111E-01;
1.968500000000000E+08;9.924171649093818E-01;-1.214509383819941E-01;
1.983400000000000E+08;9.936883203212403E-01;-1.212768441836307E-01;
1.998300000000000E+08;9.929398466106260E-01;-1.212421045096524E-01;
2.013200000000000E+08;9.920726428267008E-01;-1.240499811919771E-01;
2.028100000000000E+08;9.921567856789800E-01;-1.255490266523007E-01;
2.043000000000000E+08;9.906467706700645E-01;-1.262035067825643E-01;
2.057900000000000E+08;9.912376730503071E-01;-1.275661604351619E-01;
2.072800000000000E+08;9.911646276181839E-01;-1.282919891081967E-01;
2.087700000000000E+08;9.907826908254530E-01;-1.294022432121944E-01;
2.102600000000000E+08;9.916811682214706E-01;-1.295464320269657E-01;
2.117500000000000E+08;9.917028454896700E-01;-1.306727567929799E-01;
2.132400000000000E+08;9.911393169320241E-01;-1.319941729248635E-01;
2.147300000000000E+08;9.902179814955054E-01;-1.332240532819155E-01;
2.162200000000000E+08;9.906386995757880E-01;-1.340444691656383E-01;
2.177100000000000E+08;9.900706499155293E-01;-1.344097590509948E-01;
2.192000000000000E+08;9.902890838659907E-01;-1.361923090098896E-01;
2.206900000000000E+08;9.906417234791236E-01;-1.377553032877865E-01;
2.221800000000000E+08;9.902198417153000E-01;-1.379279692743987E-01;
2.236700000000000E+08;9.902003989683544E-01;-1.383714178182720E-01;
2.251600000000000E+08;9.905898455524454E-01;-1.393884395512473E-01;
2.266500000000000E+08;9.908980348008900E-01;-1.403145982769533E-01;
2.281400000000000E+08;9.896592363818959E-01;-1.410458007350266E-01;
2.296300000000000E+08;9.905806842421628E-01;-1.416129165645431E-01;
2.311200000000000E+08;9.903500228409255E-01;-1.437850081259268E-01;
2.326100000000000E+08;9.898252141510742E-01;-1.430485372363094E-01;
2.341000000000000E+08;9.892137820418621E-01;-1.450513563148308E-01;
2.355900000000000E+08;9.883994218555530E-01;-1.448099415142886E-01;
2.370800000000000E+08;9.887499979919032E-01;-1.471191279236696E-01;
2.385700000000000E+08;9.888114355690172E-01;-1.485869581395499E-01;
2.400600000000000E+08;9.880141787669833E-01;-1.486857168740185E-01;
2.415500000000000E+08;9.883154048366940E-01;-1.493272653769860E-01;
2.430400000000000E+08;9.885241031722027E-01;-1.506784058882393E-01;
2.445300000000000E+08;9.885399570198909E-01;-1.514470372598217E-01;
2.460200000000000E+08;9.887907211107859E-01;-1.519394924123540E-01;
2.475100000000000E+08;9.874639482551685E-01;-1.530575835901495E-01;
2.490000000000000E+08;9.858369157978117E-01;-1.527300952770241E-01;
2.504900000000000E+08;9.884524766733631E-01;-1.540058616187849E-01;
2.519800000000000E+08;9.885722892300305E-01;-1.545725212112620E-01;
2.534700000000000E+08;9.875903767046187E-01;-1.557694666508805E-01;
2.549600000000000E+08;9.872461486863742E-01;-1.574421289777732E-01;
2.564500000000000E+08;9.871761347608937E-01;-1.579255445335107E-01;
2.579400000000000E+08;9.870074737787128E-01;-1.582518494074068E-01;
2.594300000000000E+08;9.872932862945067E-01;-1.594371180814383E-01;
2.609200000000000E+08;9.870115492260443E-01;-1.600581474535935E-01;
2.624100000000000E+08;9.863290342866722E-01;-1.616359181057616E-01;
2.639000000000000E+08;9.872993347752069E-01;-1.623171578435245E-01;
2.653900000000000E+08;9.878137512277697E-01;-1.638795592682404E-01;
2.668800000000000E+08;9.857969550022669E-01;-1.636366177760842E-01;
2.683700000000000E+08;9.862524771025727E-01;-1.646236936683015E-01;
2.698600000000000E+08;9.860439146440143E-01;-1.650422343672575E-01;
2.713500000000000E+08;9.859597447833001E-01;-1.673843801319510E-01;
2.728400000000000E+08;9.863211722546583E-01;-1.676316433614726E-01;
2.743300000000000E+08;9.856115454468451E-01;-1.678521794823260E-01;
2.758200000000000E+08;9.847723011654954E-01;-1.684021873974415E-01;
2.773100000000000E+08;9.860516320337640E-01;-1.704256107217673E-01;
2.788000000000000E+08;9.854035336822903E-01;-1.717359358370746E-01;
2.802900000000000E+08;9.848926640741686E-01;-1.722610942877653E-01;
2.817800000000000E+08;9.851084015724221E-01;-1.734915755719910E-01;
2.832700000000000E+08;9.845107129957149E-01;-1.741685834275117E-01;
2.847600000000000E+08;9.846530473481000E-01;-1.746753720351713E-01;
2.862500000000000E+08;9.843584350192741E-01;-1.755760625896823E-01;
2.877400000000000E+08;9.838191097653400E-01;-1.769462128969912E-01;
2.892300000000000E+08;9.843319845488597E-01;-1.774789983375122E-01;
2.907200000000000E+08;9.842094895011119E-01;-1.790461981007311E-01;
2.922100000000000E+08;9.836246251130529E-01;-1.793992956073441E-01;
2.937000000000000E+08;9.832097398074483E-01;-1.796806412928204E-01;
2.951900000000000E+08;9.845594308232363E-01;-1.809784420812606E-01;
2.966800000000000E+08;9.831572883562005E-01;-1.821884813257430E-01;
2.981700000000000E+08;9.835248126976653E-01;-1.836872938239120E-01;
2.996600000000000E+08;9.832842393720030E-01;-1.850235726885942E-01;
3.011500000000000E+08;9.825203330588802E-01;-1.854190869274781E-01;
3.026400000000000E+08;9.826222931571339E-01;-1.864288040280899E-01;
3.041300000000000E+08;9.820920551135752E-01;-1.872210339019377E-01;
3.056200000000000E+08;9.829281814577828E-01;-1.879861223445097E-01;
3.071100000000000E+08;9.820159437976794E-01;-1.896080491564335E-01;
3.086000000000000E+08;9.811792020777369E-01;-1.902474368259405E-01;
3.100900000000000E+08;9.815289911776016E-01;-1.906450475032159E-01;
3.115800000000000E+08;9.817183749156059E-01;-1.914957563347717E-01;
3.130700000000000E+08;9.816266767674193E-01;-1.922193585770025E-01;
3.145600000000000E+08;9.804622131377817E-01;-1.937045007762438E-01;
3.160500000000000E+08;9.812958401664347E-01;-1.935172237316732E-01;
3.175400000000000E+08;9.814413202438854E-01;-1.951642696071315E-01;
3.190300000000000E+08;9.810204228734090E-01;-1.961673848597061E-01;
3.205200000000000E+08;9.812646416237680E-01;-1.970040363895680E-01;
3.220100000000000E+08;9.801733893732887E-01;-1.979114515263877E-01;
3.235000000000000E+08;9.802861979497948E-01;-1.987664268576165E-01;
3.249900000000000E+08;9.799496965463576E-01;-2.007106764076919E-01;
3.264800000000000E+08;9.796920800719734E-01;-2.010641080056305E-01;
3.279700000000000E+08;9.799768023224318E-01;-2.022056796046644E-01;
3.294600000000000E+08;9.800619277308223E-01;-2.026160124019899E-01;
3.309500000000000E+08;9.785250451026795E-01;-2.047597760212332E-01;
3.324400000000000E+08;9.789427290719958E-01;-2.045981484928605E-01;
3.339300000000000E+08;9.787446478631217E-01;-2.069518752921351E-01;
3.354200000000000E+08;9.785436525735924E-01;-2.071494029487361E-01;
3.369100000000000E+08;9.776532898729596E-01;-2.085671102852741E-01;
3.384000000000000E+08;9.785990676272310E-01;-2.079997716429065E-01;
3.398900000000000E+08;9.780630600146686E-01;-2.094594419996626E-01;
3.413800000000000E+08;9.784171696292610E-01;-2.110825595739585E-01;
3.428700000000000E+08;9.767604762959223E-01;-2.122954688885205E-01;
3.443600000000000E+08;9.771814673632674E-01;-2.128511283597465E-01;
3.458500000000000E+08;9.774632997779207E-01;-2.134833465944418E-01;
3.473400000000000E+08;9.765457141745520E-01;-2.149718850394232E-01;
3.488300000000000E+08;9.768115369892603E-01;-2.153628928132247E-01;
3.503200000000000E+08;9.765973476517987E-01;-2.154661890691960E-01;
3.518100000000000E+08;9.754384206012707E-01;-2.178479119532027E-01;
3.533000000000000E+08;9.760317193927925E-01;-2.180105335287934E-01;
3.547900000000000E+08;9.767131736155676E-01;-2.195905318561972E-01;
3.562800000000000E+08;9.753591583191465E-01;-2.198895771047824E-01;
3.577700000000000E+08;9.756060161126879E-01;-2.211709983431832E-01;
3.592600000000000E+08;9.756545524943488E-01;-2.217715579631299E-01;
3.607500000000000E+08;9.753202716821086E-01;-2.230881198875496E-01;
3.622400000000000E+08;9.743910100740778E-01;-2.233226702715838E-01;
3.637300000000000E+08;9.746216867299353E-01;-2.246232610155020E-01;
3.652200000000000E+08;9.740857451777458E-01;-2.253400874022105E-01;
3.667100000000000E+08;9.745290335392518E-01;-2.267250626610350E-01;
3.682000000000000E+08;9.750526709806788E-01;-2.270353134520677E-01;
3.696900000000000E+08;9.741032278656997E-01;-2.271969783002689E-01;
3.711800000000000E+08;9.735542855014895E-01;-2.291790189449712E-01;
3.726700000000000E+08;9.735452557478698E-01;-2.301739370395835E-01;
3.741600000000000E+08;9.733904599204550E-01;-2.303839075589046E-01;
3.756500000000000E+08;9.727316242731243E-01;-2.318590109355023E-01;
3.771400000000000E+08;9.727729479450666E-01;-2.323869825401669E-01;
3.786300000000000E+08;9.716022643472062E-01;-2.330039973530204E-01;
3.801200000000000E+08;9.709562423534536E-01;-2.328207749299868E-01;
3.816100000000000E+08;9.726648365997291E-01;-2.338759517662884E-01;
3.831000000000000E+08;9.720762320278056E-01;-2.354310801652523E-01;
3.845900000000000E+08;9.727825635604183E-01;-2.359529416285018E-01;
3.860800000000000E+08;9.723880599422492E-01;-2.385047954081454E-01;
3.875700000000000E+08;9.713938313993254E-01;-2.382662424086246E-01;
3.890600000000000E+08;9.709543179826472E-01;-2.390911593002136E-01;
3.905500000000000E+08;9.711823632582932E-01;-2.402964231465733E-01;
3.920400000000000E+08;9.709366752397726E-01;-2.410894553085844E-01;
3.935300000000000E+08;9.710985868088936E-01;-2.412716261293990E-01;
3.950200000000000E+08;9.710053130746994E-01;-2.428447365753502E-01;
3.965100000000000E+08;9.702468141961482E-01;-2.434218878274440E-01;
3.980000000000000E+08;9.707164366822041E-01;-2.441619831382624E-01;
3.994900000000000E+08;9.691234690999903E-01;-2.453311817103292E-01;
4.009800000000000E+08;9.698662847694655E-01;-2.458520243462090E-01;
4.024700000000000E+08;9.697779497387149E-01;-2.467557311028088E-01;
4.039600000000000E+08;9.688432548633946E-01;-2.478958794383415E-01;
4.054500000000000E+08;9.688803034034120E-01;-2.486333815336479E-01;
4.069400000000000E+08;9.688197910716414E-01;-2.499771701675307E-01;
4.084300000000000E+08;9.679530598135621E-01;-2.499701067710082E-01;
4.099200000000000E+08;9.680120019792240E-01;-2.512671211489829E-01;
4.114100000000000E+08;9.676593738239946E-01;-2.522278808132116E-01;
4.129000000000000E+08;9.676940054494979E-01;-2.537003857514227E-01;
4.143900000000000E+08;9.672104766919547E-01;-2.539002431469892E-01;
4.158800000000000E+08;9.674289762782017E-01;-2.555638806562641E-01;
4.173700000000000E+08;9.671221199373943E-01;-2.563689300977865E-01;
4.188600000000000E+08;9.669387217502647E-01;-2.577605406008148E-01;
4.203500000000000E+08;9.664782998650858E-01;-2.581617606338130E-01;
4.218400000000000E+08;9.659691400996713E-01;-2.587740578341867E-01;
4.233300000000000E+08;9.660726084033600E-01;-2.605842521358326E-01;
4.248200000000000E+08;9.656233772143304E-01;-2.601204023731752E-01;
4.263100000000000E+08;9.649515242987274E-01;-2.613997794692796E-01;
4.278000000000000E+08;9.652901741025463E-01;-2.626612807948531E-01;
4.292900000000000E+08;9.653241432076500E-01;-2.627957609475328E-01;
4.307800000000000E+08;9.653860218778806E-01;-2.644140040983537E-01;
4.322700000000000E+08;9.649033585171328E-01;-2.649258914181822E-01;
4.337600000000000E+08;9.641493478854274E-01;-2.652833225894888E-01;
4.352500000000000E+08;9.639947494359247E-01;-2.661913735044693E-01;
4.367400000000000E+08;9.634365315924598E-01;-2.674861985485778E-01;
4.382300000000000E+08;9.634309248500252E-01;-2.687472702580143E-01;
4.397200000000000E+08;9.632829873737302E-01;-2.684790805199120E-01;
4.412100000000000E+08;9.625687561067611E-01;-2.695833170207627E-01;
4.427000000000000E+08;9.629991860498964E-01;-2.706982187313898E-01;
4.441900000000000E+08;9.627607450432786E-01;-2.718165339334955E-01;
4.456800000000000E+08;9.624639765579625E-01;-2.725046578450633E-01;
4.471700000000000E+08;9.616589820591454E-01;-2.744432791795008E-01;
4.486600000000000E+08;9.611912045696943E-01;-2.754718883604567E-01;
4.501500000000000E+08;9.611339966773444E-01;-2.760871159168081E-01;
4.516400000000000E+08;9.604277761715312E-01;-2.777224979157107E-01;
4.531300000000000E+08;9.598816817538373E-01;-2.773646891534235E-01;
4.546200000000000E+08;9.608246680715565E-01;-2.785956420207175E-01;
4.561100000000000E+08;9.599362313689673E-01;-2.790074660896135E-01;
4.576000000000000E+08;9.601661614649660E-01;-2.801004828478607E-01;
4.590900000000000E+08;9.598588973810601E-01;-2.821673277223311E-01;
4.605800000000000E+08;9.591557869292205E-01;-2.826398107214347E-01;
4.620700000000000E+08;9.601118192178665E-01;-2.836303235714030E-01;
4.635600000000000E+08;9.590129090349279E-01;-2.842391447836338E-01;
4.650500000000000E+08;9.588086321713899E-01;-2.859455636564869E-01;
4.665400000000000E+08;9.581849097919735E-01;-2.859886715570415E-01;
4.680300000000000E+08;9.580105921136878E-01;-2.872824665550935E-01;
4.695200000000000E+08;9.581833703186016E-01;-2.888769769404661E-01;
4.710100000000000E+08;9.578857459592530E-01;-2.888921087517828E-01;
4.725000000000000E+08;9.572885601355821E-01;-2.905036871015066E-01;
4.739900000000000E+08;9.568310707029007E-01;-2.914273123609540E-01;
4.754800000000000E+08;9.569713059555492E-01;-2.923924393837121E-01;
4.769700000000000E+08;9.564822808171872E-01;-2.934236229331332E-01;
4.784600000000000E+08;9.556890903300268E-01;-2.941127611205978E-01;
4.799500000000000E+08;9.557023328050214E-01;-2.953423966808192E-01;
4.814400000000000E+08;9.555911142777743E-01;-2.959344308109700E-01;
4.829300000000000E+08;9.551926146818651E-01;-2.976272265973640E-01;
4.844200000000000E+08;9.545554308017669E-01;-2.977478667351580E-01;
4.859100000000000E+08;9.549044767400202E-01;-2.991280308327517E-01;
4.874000000000000E+08;9.539748484099910E-01;-2.996366782101160E-01;
4.888900000000000E+08;9.540022580713572E-01;-3.008872352175475E-01;
4.903800000000000E+08;9.538243630035563E-01;-3.012642611449286E-01;
4.918700000000000E+08;9.528729300782784E-01;-3.027106909152884E-01;
4.933600000000000E+08;9.530549394005787E-01;-3.036278521531938E-01;
4.948500000000000E+08;9.535609880416102E-01;-3.040582131271293E-01;
4.963400000000000E+08;9.529778325126728E-01;-3.047296944448323E-01;
4.978300000000000E+08;9.530790694438187E-01;-3.058450186428037E-01;
4.993200000000000E+08;9.517538312019689E-01;-3.064649949359795E-01;
5.008100000000000E+08;9.524294810794074E-01;-3.079522831569277E-01;
5.023000000000000E+08;9.520749349730807E-01;-3.081470956291482E-01;
5.037900000000000E+08;9.511163515514632E-01;-3.092207117316615E-01;
5.052800000000000E+08;9.510075269330671E-01;-3.088373369244028E-01;
5.067700000000000E+08;9.517267144711133E-01;-3.095730119342525E-01;
5.082600000000000E+08;9.505276802658124E-01;-3.112172750915550E-01;
5.097500000000000E+08;9.505926865225930E-01;-3.118266777117393E-01;
5.112400000000000E+08;9.497501106567972E-01;-3.128060175931205E-01;
5.127300000000000E+08;9.496675463695623E-01;-3.138210542018062E-01;
5.142200000000000E+08;9.494048939948947E-01;-3.151563176908351E-01;
5.157100000000000E+08;9.494695952780011E-01;-3.157293553651282E-01;
5.172000000000000E+08;9.492196080112739E-01;-3.166399092808649E-01;
5.186900000000000E+08;9.485008570443424E-01;-3.173308393290388E-01;
5.201800000000000E+08;9.483006581418638E-01;-3.189359753077806E-01;
5.216700000000000E+08;9.475526785334029E-01;-3.196910027264481E-01;
5.231600000000000E+08;9.477650537031997E-01;-3.197729737369035E-01;
5.246500000000000E+08;9.480642047379372E-01;-3.210362566138621E-01;
5.261400000000000E+08;9.472571331324926E-01;-3.218252700647105E-01;
5.276300000000000E+08;9.471980801827603E-01;-3.229159116122012E-01;
5.291200000000000E+08;9.464384488047248E-01;-3.237268018658482E-01;
