# Version 1.00
#
freq[Hz];re:Trc1_S11;im:Trc1_S11;
1.000000000000000E+08;9.987986146845197E-01;-6.175731222753281E-02;
1.014900000000000E+08;9.966688460681703E-01;-6.392559906398589E-02;
1.029800000000000E+08;9.975391112342591E-01;-6.237410979762285E-02;
1.044700000000000E+08;9.969068649025328E-01;-6.425732228308584E-02;
1.059600000000000E+08;9.985075096711884E-01;-6.563504902948822E-02;
1.074500000000000E+08;9.984996785849031E-01;-6.694689545478762E-02;
1.089400000000000E+08;9.988218909317292E-01;-6.668217187351440E-02;
1.104300000000000E+08;9.966168656984636E-01;-6.815441774660461E-02;
1.119200000000000E+08;9.965265348509201E-01;-6.734023580497513E-02;
1.134100000000000E+08;9.958226550131286E-01;-7.017510298904378E-02;
1.149000000000000E+08;9.973375467751450E-01;-7.155694856615757E-02;
1.163900000000000E+08;9.974561726405985E-01;-7.246167864274378E-02;
1.178800000000000E+08;9.967926777666173E-01;-7.296373876799700E-02;
1.193700000000000E+08;9.973734234407035E-01;-7.514745731747753E-02;
1.208600000000000E+08;9.968275317645957E-01;-7.511899549204086E-02;
1.223500000000000E+08;9.975045898445345E-01;-7.656321250945923E-02;
1.238400000000000E+08;9.953552472233030E-01;-7.571955719885816E-02;
1.253300000000000E+08;9.974633102286841E-01;-7.729240103712649E-02;
1.268200000000000E+08;9.963212082790626E-01;-7.725277045322640E-02;
1.283100000000000E+08;9.974278124331920E-01;-8.007842573682605E-02;
1.298000000000000E+08;9.973159149737809E-01;-8.024901315311869E-02;
1.312900000000000E+08;9.960314233131756E-01;-8.155113196502045E-02;
1.327800000000000E+08;9.963764158309969E-01;-8.207459022094177E-02;
1.342700000000000E+08;9.963315585745777E-01;-8.210325254190307E-02;
1.357600000000000E+08;9.970242866748662E-01;-8.389674650779290E-02;
1.372500000000000E+08;9.956441039045464E-01;-8.596774768539579E-02;
1.387400000000000E+08;9.954464492922778E-01;-8.553949890388672E-02;
1.402300000000000E+08;9.952315010233438E-01;-8.630165191006918E-02;
1.417200000000000E+08;9.969124986798570E-01;-8.636294993929179E-02;
1.432100000000000E+08;9.954348277200464E-01;-8.886665223588572E-02;
1.447000000000000E+08;9.955463365280394E-01;-8.825174231283055E-02;
1.461900000000000E+08;9.959451174844565E-01;-8.901813584236727E-02;
1.476800000000000E+08;9.961868188859241E-01;-9.043188850649200E-02;
1.491700000000000E+08;9.957828479144700E-01;-9.226134697268000E-02;
1.506600000000000E+08;9.959711338383257E-01;-9.267064765634331E-02;
1.521500000000000E+08;9.939034188557284E-01;-9.337674766259184E-02;
1.536400000000000E+08;9.949964685858146E-01;-9.457760756833404E-02;
1.551300000000000E+08;9.948948771517223E-01;-9.518444863092167E-02;
1.566200000000000E+08;9.938451030760875E-01;-9.654777277577549E-02;
1.581100000000000E+08;9.956041579728993E-01;-9.711410440440224E-02;
1.596000000000000E+08;9.944131478929245E-01;-9.690979527960193E-02;
1.610900000000000E+08;9.950591319599346E-01;-9.849160512485765E-02;
1.625800000000000E+08;9.941411106221398E-01;-9.939272449251177E-02;
1.640700000000000E+08;9.941440221384376E-01;-1.006601963804487E-01;
1.655600000000000E+08;9.950377709700100E-01;-1.020767571498693E-01;
1.670500000000000E+08;9.946210601913497E-01;-1.022507432974298E-01;
1.685400000000000E+08;9.948097475438940E-01;-1.045267596129166E-01;
1.700300000000000E+08;9.948022922952070E-01;-1.048198839557877E-01;
1.715200000000000E+08;9.935408673135587E-01;-1.058008670942559E-01;
1.730100000000000E+08;9.934488252796722E-01;-1.058572774450840E-01;
1.745000000000000E+08;9.948330991513689E-01;-1.075461750702057E-01;
1.759900000000000E+08;9.934685682377987E-01;-1.067422820232933E-01;
1.774800000000000E+08;9.933281384818695E-01;-1.102395090608320E-01;
1.789700000000000E+08;9.942657783766307E-01;-1.099163707512377E-01;
1.804600000000000E+08;9.932041098936547E-01;-1.113089409756084E-01;
1.819500000000000E+08;9.921991567391429E-01;-1.117069433004473E-01;
1.834400000000000E+08;9.943752892945380E-01;-1.137597111387378E-01;
1.849300000000000E+08;9.932548258946455E-01;-1.145546551036874E-01;
1.864200000000000E+08;9.932125944272063E-01;-1.147485483452384E-01;
1.879100000000000E+08;9.929797947148294E-01;-1.166503496590097E-01;
1.894000000000000E+08;9.918310236214950E-01;-1.181635223546825E-01;
1.908900000000000E+08;9.925096558782628E-01;-1.177841810624420E-01;
1.923800000000000E+08;9.932323648867577E-01;-1.185226845087739E-01;
1.938700000000000E+08;9.931316388789972E-01;-1.213264426413160E-01;
1.953600000000000E+08;9.917131581496702E-01;-1.216072432176929E-01;
1.968500000000000E+08;9.921574972933823E-01;-1.224992918199479E-01;
1.983400000000000E+08;9.927561093566667E-01;-1.215586191102079E-01;
1.998300000000000E+08;9.923191473414336E-01;-1.213155016642119E-01;
2.013200000000000E+08;9.920095123696947E-01;-1.241902409753585E-01;
2.028100000000000E+08;9.919550265405958E-01;-1.237863421512741E-01;
2.043000000000000E+08;9.918448474545257E-01;-1.255619466946340E-01;
2.057900000000000E+08;9.916414532540750E-01;-1.270034023324385E-01;
2.072800000000000E+08;9.913866210053708E-01;-1.280521296089200E-01;
2.087700000000000E+08;9.921304724380653E-01;-1.286187994614495E-01;
2.102600000000000E+08;9.916637668414059E-01;-1.296989839876911E-01;
2.117500000000000E+08;9.914826345217093E-01;-1.317352910686861E-01;
2.132400000000000E+08;9.913510841584865E-01;-1.318708966642022E-01;
2.147300000000000E+08;9.909332143998504E-01;-1.336479141356934E-01;
2.162200000000000E+08;9.913582171582993E-01;-1.339217425092058E-01;
2.177100000000000E+08;9.896883278818279E-01;-1.345262443474261E-01;
2.192000000000000E+08;9.901118132377799E-01;-1.361962906084176E-01;
2.206900000000000E+08;9.912558423222869E-01;-1.371382234856895E-01;
2.221800000000000E+08;9.912617573687098E-01;-1.376086781539593E-01;
2.236700000000000E+08;9.898025027649662E-01;-1.390852572437031E-01;
2.251600000000000E+08;9.896076227778909E-01;-1.395967974121479E-01;
2.266500000000000E+08;9.906539862851481E-01;-1.400948374038913E-01;
2.281400000000000E+08;9.897696323836532E-01;-1.407728725093326E-01;
2.296300000000000E+08;9.900175175607364E-01;-1.417384314116870E-01;
2.311200000000000E+08;9.903469160770526E-01;-1.434659395238194E-01;
2.326100000000000E+08;9.890453614115509E-01;-1.434565797306653E-01;
2.341000000000000E+08;9.887093167479747E-01;-1.453530950600407E-01;
2.355900000000000E+08;9.886119301944938E-01;-1.449886946506038E-01;
2.370800000000000E+08;9.884077222423232E-01;-1.466283144589098E-01;
2.385700000000000E+08;9.889845319175087E-01;-1.479354712507257E-01;
2.400600000000000E+08;9.881986946398597E-01;-1.488717682906963E-01;
2.415500000000000E+08;9.884550839930979E-01;-1.492384375311470E-01;
2.430400000000000E+08;9.882612158560127E-01;-1.503880015470707E-01;
2.445300000000000E+08;9.887809921192354E-01;-1.502372463186598E-01;
2.460200000000000E+08;9.886335968736107E-01;-1.507662018062925E-01;
2.475100000000000E+08;9.885452374719056E-01;-1.521757584931434E-01;
2.490000000000000E+08;9.873451579972942E-01;-1.530352894662962E-01;
2.504900000000000E+08;9.882961021149838E-01;-1.544224439080738E-01;
2.519800000000000E+08;9.882418616208871E-01;-1.554200244586805E-01;
2.534700000000000E+08;9.866843147932426E-01;-1.561312820166486E-01;
2.549600000000000E+08;9.869144934856550E-01;-1.567465429121455E-01;
2.564500000000000E+08;9.871449359609398E-01;-1.576539170896885E-01;
2.579400000000000E+08;9.870854183825027E-01;-1.578194175551004E-01;
2.594300000000000E+08;9.876305905049656E-01;-1.597885774793791E-01;
2.609200000000000E+08;9.868994886550181E-01;-1.595544848523507E-01;
2.624100000000000E+08;9.864202049211978E-01;-1.616635805057077E-01;
2.639000000000000E+08;9.869487792740789E-01;-1.620389598322511E-01;
2.653900000000000E+08;9.875981758407577E-01;-1.632080458110719E-01;
2.668800000000000E+08;9.855336781989100E-01;-1.634846786104103E-01;
2.683700000000000E+08;9.864548058584366E-01;-1.642438463275447E-01;
2.698600000000000E+08;9.861887604739704E-01;-1.653512410721895E-01;
2.713500000000000E+08;9.861256440600888E-01;-1.670872750050825E-01;
2.728400000000000E+08;9.860570576219875E-01;-1.670792942562506E-01;
2.743300000000000E+08;9.855969924590858E-01;-1.677832334562505E-01;
2.758200000000000E+08;9.853654909718934E-01;-1.686389283914300E-01;
2.773100000000000E+08;9.863328049877235E-01;-1.699804894433150E-01;
2.788000000000000E+08;9.855481243259981E-01;-1.712037252729047E-01;
2.802900000000000E+08;9.848638535538101E-01;-1.721266532676570E-01;
2.817800000000000E+08;9.855172403437109E-01;-1.735884934031126E-01;
2.832700000000000E+08;9.844517477925926E-01;-1.735104542084490E-01;
2.847600000000000E+08;9.843711792079769E-01;-1.744932661548332E-01;
2.862500000000000E+08;9.846614164119487E-01;-1.755288894247728E-01;
2.877400000000000E+08;9.846198914308398E-01;-1.767687734880140E-01;
2.892300000000000E+08;9.841102934062336E-01;-1.772555939700765E-01;
2.907200000000000E+08;9.849453330827843E-01;-1.784628958041766E-01;
2.922100000000000E+08;9.839313097273338E-01;-1.798465298281066E-01;
2.937000000000000E+08;9.835778081533734E-01;-1.795518277278282E-01;
2.951900000000000E+08;9.839887026149359E-01;-1.804174980256537E-01;
2.966800000000000E+08;9.833195376893068E-01;-1.819902693885441E-01;
2.981700000000000E+08;9.835173863254648E-01;-1.829534442908619E-01;
2.996600000000000E+08;9.831130458445844E-01;-1.852079508192799E-01;
3.011500000000000E+08;9.826408602153789E-01;-1.849002409373691E-01;
3.026400000000000E+08;9.825004889015324E-01;-1.863812866038057E-01;
3.041300000000000E+08;9.824609843972446E-01;-1.869283262314564E-01;
3.056200000000000E+08;9.828846884968825E-01;-1.882606443308224E-01;
3.071100000000000E+08;9.825252721870286E-01;-1.892476939587996E-01;
3.086000000000000E+08;9.811419646183728E-01;-1.903946698730212E-01;
3.100900000000000E+08;9.819232115277770E-01;-1.908106847905107E-01;
3.115800000000000E+08;9.816744821673369E-01;-1.913265917897330E-01;
3.130700000000000E+08;9.819249362093061E-01;-1.916787713204275E-01;
3.145600000000000E+08;9.809536513559030E-01;-1.935085798738865E-01;
3.160500000000000E+08;9.814360208800216E-01;-1.938061931858693E-01;
3.175400000000000E+08;9.815591724744607E-01;-1.954058234769558E-01;
3.190300000000000E+08;9.810232588363184E-01;-1.958830854877120E-01;
3.205200000000000E+08;9.814892658407960E-01;-1.967542188654957E-01;
3.220100000000000E+08;9.803020242173949E-01;-1.975772673184786E-01;
3.235000000000000E+08;9.810026752180494E-01;-1.986140598440767E-01;
3.249900000000000E+08;9.798566531130664E-01;-2.005677196006491E-01;
3.264800000000000E+08;9.800248790111256E-01;-2.008873768918627E-01;
3.279700000000000E+08;9.798618952039015E-01;-2.016394389558778E-01;
3.294600000000000E+08;9.797916458283887E-01;-2.023846084178906E-01;
3.309500000000000E+08;9.788823392478991E-01;-2.045014725224291E-01;
3.324400000000000E+08;9.789895461362873E-01;-2.040556464530379E-01;
3.339300000000000E+08;9.783330250553843E-01;-2.067272564651730E-01;
3.354200000000000E+08;9.782163765449141E-01;-2.070303937032557E-01;
3.369100000000000E+08;9.778702396254293E-01;-2.083896116135779E-01;
3.384000000000000E+08;9.787620600781612E-01;-2.081097077049085E-01;
3.398900000000000E+08;9.781201227059256E-01;-2.093393111130932E-01;
3.413800000000000E+08;9.782600566968169E-01;-2.107246798550383E-01;
3.428700000000000E+08;9.771577207776942E-01;-2.120267852187218E-01;
3.443600000000000E+08;9.775667092135142E-01;-2.124833336199718E-01;
3.458500000000000E+08;9.777325402180370E-01;-2.133205338193059E-01;
3.473400000000000E+08;9.762244073985049E-01;-2.142830813125957E-01;
3.488300000000000E+08;9.770689487112971E-01;-2.150853884085255E-01;
3.503200000000000E+08;9.765886922021734E-01;-2.157623367864674E-01;
3.518100000000000E+08;9.758122023533232E-01;-2.174426105993386E-01;
3.533000000000000E+08;9.759953775149326E-01;-2.179886916024007E-01;
3.547900000000000E+08;9.765787825982182E-01;-2.192051045612411E-01;
3.562800000000000E+08;9.756257245736437E-01;-2.197202206211034E-01;
3.577700000000000E+08;9.753205254660745E-01;-2.203277291137345E-01;
3.592600000000000E+08;9.757659063329129E-01;-2.216018281148749E-01;
3.607500000000000E+08;9.750736727542813E-01;-2.226786431060068E-01;
3.622400000000000E+08;9.745456435626875E-01;-2.229643052092361E-01;
3.637300000000000E+08;9.747037444270552E-01;-2.238276234960019E-01;
3.652200000000000E+08;9.740758515117283E-01;-2.248812898986861E-01;
3.667100000000000E+08;9.746565748068916E-01;-2.258991295284729E-01;
3.682000000000000E+08;9.751362187419633E-01;-2.266135160904398E-01;
3.696900000000000E+08;9.744612825895026E-01;-2.272249315349534E-01;
3.711800000000000E+08;9.741962180751610E-01;-2.283643266584233E-01;
3.726700000000000E+08;9.738778071218700E-01;-2.293556385530678E-01;
3.741600000000000E+08;9.733436280246840E-01;-2.298975000933074E-01;
3.756500000000000E+08;9.729682595551731E-01;-2.309837713312719E-01;
3.771400000000000E+08;9.735222598409840E-01;-2.318451846402683E-01;
3.786300000000000E+08;9.732106712847414E-01;-2.327146698333138E-01;
3.801200000000000E+08;9.722789688187162E-01;-2.333169134148354E-01;
3.816100000000000E+08;9.727396417210922E-01;-2.344890335691278E-01;
3.831000000000000E+08;9.720135877595429E-01;-2.360774658002285E-01;
3.845900000000000E+08;9.724371641602884E-01;-2.358024160992656E-01;
3.860800000000000E+08;9.725757566353910E-01;-2.382129585185984E-01;
3.875700000000000E+08;9.719149292586476E-01;-2.381306083854370E-01;
3.890600000000000E+08;9.710609866068677E-01;-2.391788340725603E-01;
3.905500000000000E+08;9.713922160627683E-01;-2.399259339499128E-01;
3.920400000000000E+08;9.715285809446671E-01;-2.405091559053544E-01;
3.935300000000000E+08;9.713488923103318E-01;-2.407344824182633E-01;
3.950200000000000E+08;9.711515165591397E-01;-2.426934557458565E-01;
3.965100000000000E+08;9.702697109820997E-01;-2.431742820576620E-01;
3.980000000000000E+08;9.705111374464243E-01;-2.441340366113360E-01;
3.994900000000000E+08;9.694160886840505E-01;-2.452074274852742E-01;
4.009800000000000E+08;9.700731016304771E-01;-2.456113828701847E-01;
4.024700000000000E+08;9.696682500017780E-01;-2.468831518565330E-01;
4.039600000000000E+08;9.693421873100561E-01;-2.477761068206834E-01;
4.054500000000000E+08;9.689149626578220E-01;-2.482124472458540E-01;
4.069400000000000E+08;9.690312387998763E-01;-2.497089476253554E-01;
4.084300000000000E+08;9.680515503455177E-01;-2.502133073221892E-01;
4.099200000000000E+08;9.688474587613752E-01;-2.510074544915329E-01;
4.114100000000000E+08;9.681983023911764E-01;-2.526238957508539E-01;
4.129000000000000E+08;9.676078988475287E-01;-2.536958577283628E-01;
4.143900000000000E+08;9.673912612421717E-01;-2.536419512113223E-01;
4.158800000000000E+08;9.673097509075852E-01;-2.555165471881983E-01;
4.173700000000000E+08;9.674121120571827E-01;-2.562221139968456E-01;
4.188600000000000E+08;9.672493938907210E-01;-2.575914366063838E-01;
4.203500000000000E+08;9.663932024658265E-01;-2.580245729736534E-01;
4.218400000000000E+08;9.660988933324031E-01;-2.587201650755835E-01;
4.233300000000000E+08;9.661689010056292E-01;-2.601410123436789E-01;
4.248200000000000E+08;9.658341206120896E-01;-2.599192585607167E-01;
4.263100000000000E+08;9.653156648808500E-01;-2.612906616123208E-01;
4.278000000000000E+08;9.653396311025142E-01;-2.623546018637921E-01;
4.292900000000000E+08;9.656732812804435E-01;-2.625398571738645E-01;
4.307800000000000E+08;9.658076365312465E-01;-2.640551862551520E-01;
4.322700000000000E+08;9.650031714979921E-01;-2.646439931799690E-01;
4.337600000000000E+08;9.642583010527583E-01;-2.649163437897829E-01;
4.352500000000000E+08;9.641138358404554E-01;-2.655770948893760E-01;
4.367400000000000E+08;9.635054003045211E-01;-2.667107026196067E-01;
4.382300000000000E+08;9.639766279929961E-01;-2.681525608804852E-01;
4.397200000000000E+08;9.640583434653804E-01;-2.686505537673895E-01;
4.412100000000000E+08;9.630868460225280E-01;-2.694746107260910E-01;
4.427000000000000E+08;9.630868527903955E-01;-2.709974602344201E-01;
4.441900000000000E+08;9.631396661886931E-01;-2.719407320069729E-01;
4.456800000000000E+08;9.626541202868284E-01;-2.724867423966797E-01;
4.471700000000000E+08;9.625533437974135E-01;-2.743606695464204E-01;
4.486600000000000E+08;9.616374571895369E-01;-2.750046717446068E-01;
4.501500000000000E+08;9.613962799098527E-01;-2.754539711261390E-01;
4.516400000000000E+08;9.611027817555091E-01;-2.767911898555026E-01;
4.531300000000000E+08;9.609106901172922E-01;-2.777397587623657E-01;
4.546200000000000E+08;9.612315509215021E-01;-2.786362354869778E-01;
4.561100000000000E+08;9.600730730267162E-01;-2.793105793454936E-01;
4.576000000000000E+08;9.603426518034969E-01;-2.804196551356022E-01;
4.590900000000000E+08;9.597331628870945E-01;-2.820214229035339E-01;
4.605800000000000E+08;9.590552600879471E-01;-2.825447742958619E-01;
4.620700000000000E+08;9.598221178241226E-01;-2.837076765076172E-01;
4.635600000000000E+08;9.590809565449486E-01;-2.844734351863895E-01;
4.650500000000000E+08;9.583456564979695E-01;-2.857413283124717E-01;
4.665400000000000E+08;9.578600962317270E-01;-2.859686180995361E-01;
4.680300000000000E+08;9.579740468341137E-01;-2.872460716137517E-01;
4.695200000000000E+08;9.578079209187982E-01;-2.886628877256217E-01;
4.710100000000000E+08;9.578088000247224E-01;-2.886454269624289E-01;
4.725000000000000E+08;9.572522455272783E-01;-2.903193766383146E-01;
4.739900000000000E+08;9.565392186055593E-01;-2.913952545503968E-01;
4.754800000000000E+08;9.570911458329275E-01;-2.921587650979054E-01;
4.769700000000000E+08;9.564715773049105E-01;-2.934725726879419E-01;
4.784600000000000E+08;9.557903210115174E-01;-2.941977459872085E-01;
4.799500000000000E+08;9.557218070594911E-01;-2.949779699840388E-01;
4.814400000000000E+08;9.556202003006924E-01;-2.960098494170385E-01;
4.829300000000000E+08;9.554804733400236E-01;-2.976007161091365E-01;
4.844200000000000E+08;9.548148827698921E-01;-2.976264295780108E-01;
4.859100000000000E+08;9.550754536831446E-01;-2.991328850022892E-01;
4.874000000000000E+08;9.541354262447949E-01;-2.994804973244937E-01;
4.888900000000000E+08;9.542391309849625E-01;-3.007772785372812E-01;
4.903800000000000E+08;9.541507196896605E-01;-3.012093829222858E-01;
4.918700000000000E+08;9.530209899174117E-01;-3.025698044803949E-01;
4.933600000000000E+08;9.532250522528858E-01;-3.031882759240840E-01;
4.948500000000000E+08;9.535606319711287E-01;-3.040262995363624E-01;
4.963400000000000E+08;9.532828420556992E-01;-3.042863271532781E-01;
4.978300000000000E+08;9.533291593425670E-01;-3.054823190933716E-01;
4.993200000000000E+08;9.522814900632891E-01;-3.061087927412045E-01;
5.008100000000000E+08;9.529713664784113E-01;-3.078078406873045E-01;
5.023000000000000E+08;9.522721749670094E-01;-3.081998654288004E-01;
5.037900000000000E+08;9.519621259228015E-01;-3.091149399558399E-01;
5.052800000000000E+08;9.513583122551755E-01;-3.093357011383126E-01;
5.067700000000000E+08;9.518181203842621E-01;-3.095602322233785E-01;
5.082600000000000E+08;9.508360361633655E-01;-3.114066750562210E-01;
5.097500000000000E+08;9.505451028884245E-01;-3.116157936019027E-01;
5.112400000000000E+08;9.499344888681981E-01;-3.130370827383203E-01;
5.127300000000000E+08;9.497348904911376E-01;-3.133596242825886E-01;
5.142200000000000E+08;9.495266033437824E-01;-3.151726197064460E-01;
5.157100000000000E+08;9.493848217833069E-01;-3.156350776151530E-01;
5.172000000000000E+08;9.494540502107514E-01;-3.164635450301151E-01;
5.186900000000000E+08;9.484310818021411E-01;-3.170662744086946E-01;
5.201800000000000E+08;9.483905917830345E-01;-3.189487300860475E-01;
5.216700000000000E+08;9.478813330195326E-01;-3.196098800867803E-01;
5.231600000000000E+08;9.478040448707444E-01;-3.195396138852915E-01;
5.246500000000000E+08;9.481454809188067E-01;-3.208291705762902E-01;
5.261400000000000E+08;9.475038780307191E-01;-3.217223200786118E-01;
5.276300000000000E+08;9.472054649355054E-01;-3.225830699712465E-01;
5.291200000000000E+08;9.464719175678585E-01;-3.234484751849933E-01;
