# Version 1.00
#
freq[Hz];re:Trc1_S11;im:Trc1_S11;
1.000000000000000E+08;9.989581974374808E-01;-6.845831456364841E-02;
1.014900000000000E+08;9.976424173002777E-01;-6.910936396362245E-02;
1.029800000000000E+08;9.966200680551162E-01;-7.008180248898017E-02;
1.044700000000000E+08;9.964011667430730E-01;-7.161183681556063E-02;
1.059600000000000E+08;9.981720896750118E-01;-7.257651367517837E-02;
1.074500000000000E+08;9.989610954001017E-01;-7.400149857440999E-02;
1.089400000000000E+08;9.979528140188056E-01;-7.371877395625040E-02;
1.104300000000000E+08;9.966817535638026E-01;-7.574356639307568E-02;
1.119200000000000E+08;9.951886901025080E-01;-7.657408166907870E-02;
1.134100000000000E+08;9.962412642171974E-01;-7.797178277317426E-02;
1.149000000000000E+08;9.976481719659085E-01;-7.935833540707798E-02;
1.163900000000000E+08;9.981345803033453E-01;-7.969205795096246E-02;
1.178800000000000E+08;9.964658844449128E-01;-8.218126749073867E-02;
1.193700000000000E+08;9.969312969052317E-01;-8.277554127436157E-02;
1.208600000000000E+08;9.966682890504397E-01;-8.430143938362723E-02;
1.223500000000000E+08;9.968685412602099E-01;-8.518813856694857E-02;
1.238400000000000E+08;9.957459103623685E-01;-8.408261765258104E-02;
1.253300000000000E+08;9.964190270814508E-01;-8.622714381193973E-02;
1.268200000000000E+08;9.964337714256071E-01;-8.705365620716268E-02;
1.283100000000000E+08;9.977933371211055E-01;-8.863486556160287E-02;
1.298000000000000E+08;9.975197216770032E-01;-8.871295186761122E-02;
1.312900000000000E+08;9.950690753416999E-01;-9.117466129030384E-02;
1.327800000000000E+08;9.962552816070331E-01;-9.167907555167494E-02;
1.342700000000000E+08;9.959717133671346E-01;-9.170874716000263E-02;
1.357600000000000E+08;9.964210520716569E-01;-9.280236967337704E-02;
1.372500000000000E+08;9.948182306656325E-01;-9.471583823056919E-02;
1.387400000000000E+08;9.955268795020945E-01;-9.602673071585802E-02;
1.402300000000000E+08;9.950898800565039E-01;-9.657290428408506E-02;
1.417200000000000E+08;9.959813558748493E-01;-9.810673060324264E-02;
1.432100000000000E+08;9.953631816500432E-01;-9.996969028755640E-02;
1.447000000000000E+08;9.951647577350814E-01;-9.928016995101528E-02;
1.461900000000000E+08;9.954553322868244E-01;-1.009867708003458E-01;
1.476800000000000E+08;9.955320547418489E-01;-1.019115645239203E-01;
1.491700000000000E+08;9.949178566580825E-01;-1.035155690795471E-01;
1.506600000000000E+08;9.955553831462184E-01;-1.040548757039492E-01;
1.521500000000000E+08;9.931636163854590E-01;-1.048682218755377E-01;
1.536400000000000E+08;9.949413423523916E-01;-1.065099025674602E-01;
1.551300000000000E+08;9.934210651888945E-01;-1.056801184918782E-01;
1.566200000000000E+08;9.938411102938827E-01;-1.074905402299107E-01;
1.581100000000000E+08;9.944831725597754E-01;-1.084838714839018E-01;
1.596000000000000E+08;9.937926884183387E-01;-1.097897099379199E-01;
1.610900000000000E+08;9.952617611696561E-01;-1.105892665760767E-01;
1.625800000000000E+08;9.930016302464999E-01;-1.114705878307681E-01;
1.640700000000000E+08;9.935162653239873E-01;-1.129880778141059E-01;
1.655600000000000E+08;9.937009645980307E-01;-1.139811991105934E-01;
1.670500000000000E+08;9.934979072099034E-01;-1.155491508888607E-01;
1.685400000000000E+08;9.936752287198489E-01;-1.155651626647324E-01;
1.700300000000000E+08;9.932527913331101E-01;-1.176617502155218E-01;
1.715200000000000E+08;9.923579045832395E-01;-1.175609035912948E-01;
1.730100000000000E+08;9.920527611817556E-01;-1.188939287004943E-01;
1.745000000000000E+08;9.938628231204307E-01;-1.201719590686866E-01;
1.759900000000000E+08;9.919764855114005E-01;-1.205656049264301E-01;
1.774800000000000E+08;9.930235227216150E-01;-1.228464659067797E-01;
1.789700000000000E+08;9.934652768743830E-01;-1.223430484886673E-01;
1.804600000000000E+08;9.926245867251011E-01;-1.242193772440090E-01;
1.819500000000000E+08;9.914962927177401E-01;-1.249835282071657E-01;
1.834400000000000E+08;9.930258552601925E-01;-1.266455824612996E-01;
1.849300000000000E+08;9.925533376919192E-01;-1.273917124269014E-01;
1.864200000000000E+08;9.917183306550595E-01;-1.282808868929898E-01;
1.879100000000000E+08;9.917022001264677E-01;-1.289443431591885E-01;
1.894000000000000E+08;9.909662687537214E-01;-1.309068751420933E-01;
1.908900000000000E+08;9.910586304857598E-01;-1.310954401706503E-01;
1.923800000000000E+08;9.913061003581181E-01;-1.321038127201524E-01;
1.938700000000000E+08;9.924136900854982E-01;-1.340595496293898E-01;
1.953600000000000E+08;9.907085795847324E-01;-1.344410787550199E-01;
1.968500000000000E+08;9.916954328242676E-01;-1.353550617139977E-01;
1.983400000000000E+08;9.922268780736714E-01;-1.357227928506927E-01;
1.998300000000000E+08;9.911587157892756E-01;-1.355783527748317E-01;
2.013200000000000E+08;9.908545558870906E-01;-1.388694950094251E-01;
2.028100000000000E+08;9.913385739792395E-01;-1.392672248988095E-01;
2.043000000000000E+08;9.905461254881149E-01;-1.397164436796167E-01;
2.057900000000000E+08;9.900175368377869E-01;-1.416316402405648E-01;
2.072800000000000E+08;9.904060440241939E-01;-1.415887694332919E-01;
2.087700000000000E+08;9.905425364079609E-01;-1.430935287466478E-01;
2.102600000000000E+08;9.897180165242919E-01;-1.434382453045375E-01;
2.117500000000000E+08;9.900798632796163E-01;-1.453714468012038E-01;
2.132400000000000E+08;9.896705645988738E-01;-1.463784475127405E-01;
2.147300000000000E+08;9.901139321633127E-01;-1.478686098480163E-01;
2.162200000000000E+08;9.894218907151542E-01;-1.483837947988097E-01;
2.177100000000000E+08;9.880879757271696E-01;-1.486369013095106E-01;
2.192000000000000E+08;9.887598486433035E-01;-1.510250710594271E-01;
2.206900000000000E+08;9.885725750474068E-01;-1.518380763841234E-01;
2.221800000000000E+08;9.888953259964119E-01;-1.528872280532974E-01;
2.236700000000000E+08;9.880610696446784E-01;-1.539322118519127E-01;
2.251600000000000E+08;9.885219011619620E-01;-1.544441375653106E-01;
2.266500000000000E+08;9.890244172320648E-01;-1.559132452655458E-01;
2.281400000000000E+08;9.879403301889341E-01;-1.565007172854547E-01;
2.296300000000000E+08;9.886227083364781E-01;-1.574001918748101E-01;
2.311200000000000E+08;9.884869576896287E-01;-1.594432129999408E-01;
2.326100000000000E+08;9.878900365024996E-01;-1.595151880101938E-01;
2.341000000000000E+08;9.874655304794272E-01;-1.614123302566875E-01;
2.355900000000000E+08;9.871920119246813E-01;-1.615259720648536E-01;
2.370800000000000E+08;9.862496981661153E-01;-1.629354239671685E-01;
2.385700000000000E+08;9.864320856284904E-01;-1.650230920443949E-01;
2.400600000000000E+08;9.857987938656153E-01;-1.650825855216240E-01;
2.415500000000000E+08;9.863237700220253E-01;-1.662834029637903E-01;
2.430400000000000E+08;9.865476657859938E-01;-1.676491484272419E-01;
2.445300000000000E+08;9.864689049063867E-01;-1.678643300637651E-01;
2.460200000000000E+08;9.864164021225718E-01;-1.685617165450223E-01;
2.475100000000000E+08;9.857110020359037E-01;-1.697618042231473E-01;
2.490000000000000E+08;9.845867358618974E-01;-1.708543967982393E-01;
2.504900000000000E+08;9.857057264578130E-01;-1.723160904405311E-01;
2.519800000000000E+08;9.856823256868590E-01;-1.732384386763955E-01;
2.534700000000000E+08;9.851757774203896E-01;-1.746484544342530E-01;
2.549600000000000E+08;9.848075695411915E-01;-1.757025950441651E-01;
2.564500000000000E+08;9.843947718770650E-01;-1.763573766533693E-01;
2.579400000000000E+08;9.845402208247470E-01;-1.770509760424651E-01;
2.594300000000000E+08;9.845087778469461E-01;-1.788504448637437E-01;
2.609200000000000E+08;9.838086665278445E-01;-1.787893387347687E-01;
2.624100000000000E+08;9.835779757685402E-01;-1.807969472023764E-01;
2.639000000000000E+08;9.836950920306544E-01;-1.820130709598485E-01;
2.653900000000000E+08;9.842766779234600E-01;-1.833457665680702E-01;
2.668800000000000E+08;9.823720321877988E-01;-1.833924893378148E-01;
2.683700000000000E+08;9.835169184597783E-01;-1.845790405522380E-01;
2.698600000000000E+08;9.831701457449041E-01;-1.854712944797359E-01;
2.713500000000000E+08;9.827772867408708E-01;-1.875799226811505E-01;
2.728400000000000E+08;9.834241294186297E-01;-1.878677365901309E-01;
2.743300000000000E+08;9.821135773161108E-01;-1.883785094352629E-01;
2.758200000000000E+08;9.820257255334777E-01;-1.891888006708861E-01;
2.773100000000000E+08;9.827367608392137E-01;-1.907482724895501E-01;
2.788000000000000E+08;9.817245726170681E-01;-1.925943665997630E-01;
2.802900000000000E+08;9.809869249093623E-01;-1.932697012230880E-01;
2.817800000000000E+08;9.819346720581121E-01;-1.946844270841741E-01;
2.832700000000000E+08;9.807428993808550E-01;-1.950328820179234E-01;
2.847600000000000E+08;9.806291084380544E-01;-1.960180545510438E-01;
2.862500000000000E+08;9.809683848325619E-01;-1.968843426308661E-01;
2.877400000000000E+08;9.807117404390702E-01;-1.983343198516387E-01;
2.892300000000000E+08;9.802779834297290E-01;-1.986943249255146E-01;
2.907200000000000E+08;9.806907530598092E-01;-2.005503066013150E-01;
2.922100000000000E+08;9.800466928891313E-01;-2.014274590942583E-01;
2.937000000000000E+08;9.797082462432807E-01;-2.013744260268516E-01;
2.951900000000000E+08;9.800774207562076E-01;-2.025079051027513E-01;
2.966800000000000E+08;9.792532431577939E-01;-2.033979081622148E-01;
2.981700000000000E+08;9.793604827276111E-01;-2.050459303497255E-01;
2.996600000000000E+08;9.791482186619805E-01;-2.065041374660537E-01;
3.011500000000000E+08;9.786262759063991E-01;-2.069801327904078E-01;
3.026400000000000E+08;9.784109975252111E-01;-2.082687619038984E-01;
3.041300000000000E+08;9.782663216726244E-01;-2.090433990243357E-01;
3.056200000000000E+08;9.791769408437826E-01;-2.106200403918384E-01;
3.071100000000000E+08;9.779701200141458E-01;-2.115115609245740E-01;
3.086000000000000E+08;9.767199234500645E-01;-2.128650123706876E-01;
3.100900000000000E+08;9.773350827144783E-01;-2.132007172606634E-01;
3.115800000000000E+08;9.774063823221808E-01;-2.146401696315033E-01;
3.130700000000000E+08;9.775403495245690E-01;-2.151708590959797E-01;
3.145600000000000E+08;9.767136032688712E-01;-2.166412994019942E-01;
3.160500000000000E+08;9.773002284760341E-01;-2.170643836290521E-01;
3.175400000000000E+08;9.767715004107359E-01;-2.186922695706435E-01;
3.190300000000000E+08;9.768109649442307E-01;-2.194698159180208E-01;
3.205200000000000E+08;9.764689462984568E-01;-2.198737284630765E-01;
3.220100000000000E+08;9.758094180696278E-01;-2.209533890935533E-01;
3.235000000000000E+08;9.761285683882378E-01;-2.218702459356440E-01;
3.249900000000000E+08;9.754448738453039E-01;-2.240457534710244E-01;
3.264800000000000E+08;9.752847136258923E-01;-2.243477705902142E-01;
3.279700000000000E+08;9.754838221005699E-01;-2.253219327333495E-01;
3.294600000000000E+08;9.746563728799261E-01;-2.260340950809258E-01;
3.309500000000000E+08;9.734990338275344E-01;-2.277305086851715E-01;
3.324400000000000E+08;9.742765439732071E-01;-2.281822859426115E-01;
3.339300000000000E+08;9.735464595720279E-01;-2.303089283858043E-01;
3.354200000000000E+08;9.736338466817160E-01;-2.307146904591971E-01;
3.369100000000000E+08;9.727610200495970E-01;-2.322316116075605E-01;
3.384000000000000E+08;9.735961483142622E-01;-2.317329077848165E-01;
3.398900000000000E+08;9.729334730288395E-01;-2.333837378627875E-01;
3.413800000000000E+08;9.734557753202516E-01;-2.343593797070060E-01;
3.428700000000000E+08;9.723046588856064E-01;-2.361067321181764E-01;
3.443600000000000E+08;9.721061463596542E-01;-2.365307512740064E-01;
3.458500000000000E+08;9.724601995870142E-01;-2.378057342489528E-01;
3.473400000000000E+08;9.715697618185439E-01;-2.390368191936729E-01;
3.488300000000000E+08;9.717370377563282E-01;-2.396516907822095E-01;
3.503200000000000E+08;9.714619288112112E-01;-2.399278639264180E-01;
3.518100000000000E+08;9.702893817921171E-01;-2.420672447555734E-01;
3.533000000000000E+08;9.707370968934053E-01;-2.428832845789532E-01;
3.547900000000000E+08;9.708710737270596E-01;-2.439633400591020E-01;
3.562800000000000E+08;9.693492867250045E-01;-2.444834302959028E-01;
3.577700000000000E+08;9.696858415633762E-01;-2.455568697449017E-01;
3.592600000000000E+08;9.700425279810493E-01;-2.471741785879277E-01;
3.607500000000000E+08;9.695365755586235E-01;-2.484370874526761E-01;
3.622400000000000E+08;9.682839838134741E-01;-2.489878356378978E-01;
3.637300000000000E+08;9.683211691322577E-01;-2.500018162940738E-01;
3.652200000000000E+08;9.678479759678643E-01;-2.502593233386989E-01;
3.667100000000000E+08;9.684880642986097E-01;-2.522981019652610E-01;
3.682000000000000E+08;9.688815445730420E-01;-2.526851883009654E-01;
3.696900000000000E+08;9.678460746626709E-01;-2.534896116753637E-01;
3.711800000000000E+08;9.672092017976124E-01;-2.552708869776567E-01;
3.726700000000000E+08;9.671008572152315E-01;-2.561580992576705E-01;
3.741600000000000E+08;9.669715617221364E-01;-2.569801882504408E-01;
3.756500000000000E+08;9.663966415991962E-01;-2.582771357684547E-01;
3.771400000000000E+08;9.666776174586739E-01;-2.592991545329966E-01;
3.786300000000000E+08;9.658591875922071E-01;-2.600931261555560E-01;
3.801200000000000E+08;9.655508036103236E-01;-2.607425125840276E-01;
3.816100000000000E+08;9.654981492504542E-01;-2.621721849111884E-01;
3.831000000000000E+08;9.649723563420922E-01;-2.631784797546596E-01;
3.845900000000000E+08;9.654734127882159E-01;-2.642213044785272E-01;
3.860800000000000E+08;9.650631198273931E-01;-2.668268734213127E-01;
3.875700000000000E+08;9.645307026765193E-01;-2.666890947434977E-01;
3.890600000000000E+08;9.634460785815330E-01;-2.675672592856176E-01;
3.905500000000000E+08;9.637517285823584E-01;-2.686574455353374E-01;
3.920400000000000E+08;9.635780446555243E-01;-2.696407459688814E-01;
3.935300000000000E+08;9.638568652832745E-01;-2.700669393364133E-01;
3.950200000000000E+08;9.634526504165551E-01;-2.718890318906004E-01;
3.965100000000000E+08;9.622863962615380E-01;-2.726681115091156E-01;
3.980000000000000E+08;9.626979126842696E-01;-2.736281735014516E-01;
3.994900000000000E+08;9.614831092569819E-01;-2.749834392130066E-01;
4.009800000000000E+08;9.617609565740605E-01;-2.756868617573497E-01;
4.024700000000000E+08;9.614996329296830E-01;-2.768182703918383E-01;
4.039600000000000E+08;9.608975549481611E-01;-2.778268079722407E-01;
4.054500000000000E+08;9.606856936730115E-01;-2.783277117380501E-01;
4.069400000000000E+08;9.605368832787297E-01;-2.799445627664344E-01;
4.084300000000000E+08;9.598164024209513E-01;-2.804456998348157E-01;
4.099200000000000E+08;9.601689381892013E-01;-2.815666482619364E-01;
4.114100000000000E+08;9.598228297463913E-01;-2.832050867484895E-01;
4.129000000000000E+08;9.589104345739573E-01;-2.841942100063659E-01;
4.143900000000000E+08;9.588849464226684E-01;-2.846704705091349E-01;
4.158800000000000E+08;9.586826663526009E-01;-2.863534745202058E-01;
4.173700000000000E+08;9.587883195239382E-01;-2.869034709734931E-01;
4.188600000000000E+08;9.584396922749653E-01;-2.881666831067928E-01;
4.203500000000000E+08;9.578948306604214E-01;-2.888992961886894E-01;
4.218400000000000E+08;9.574869395487524E-01;-2.895644593279659E-01;
4.233300000000000E+08;9.572694271929860E-01;-2.912201000114714E-01;
4.248200000000000E+08;9.567797523050404E-01;-2.916584575326690E-01;
4.263100000000000E+08;9.565538770367139E-01;-2.926409851289857E-01;
4.278000000000000E+08;9.565795767729851E-01;-2.941881182756402E-01;
4.292900000000000E+08;9.565896510156126E-01;-2.948964562269721E-01;
4.307800000000000E+08;9.564287694771479E-01;-2.964478220138604E-01;
4.322700000000000E+08;9.555365314066562E-01;-2.973048381239133E-01;
4.337600000000000E+08;9.548307022081978E-01;-2.981263927788954E-01;
4.352500000000000E+08;9.546364911954367E-01;-2.987007411128322E-01;
4.367400000000000E+08;9.543501531173562E-01;-3.000162159437824E-01;
4.382300000000000E+08;9.548383777222462E-01;-3.014907696204449E-01;
4.397200000000000E+08;9.542065099302770E-01;-3.022094583981932E-01;
4.412100000000000E+08;9.533319889629928E-01;-3.029915974821087E-01;
4.427000000000000E+08;9.534311516980768E-01;-3.043137754955114E-01;
4.441900000000000E+08;9.529746255803193E-01;-3.052542683429769E-01;
4.456800000000000E+08;9.526923007242822E-01;-3.054775232863705E-01;
4.471700000000000E+08;9.526231496655049E-01;-3.079334175141089E-01;
4.486600000000000E+08;9.515867348718263E-01;-3.084379851593096E-01;
4.501500000000000E+08;9.514758003922876E-01;-3.088574788133856E-01;
4.516400000000000E+08;9.510248209095264E-01;-3.102618012621642E-01;
4.531300000000000E+08;9.509655031140205E-01;-3.114143065765366E-01;
4.546200000000000E+08;9.513895681846635E-01;-3.128397989876388E-01;
4.561100000000000E+08;9.503305955437896E-01;-3.124713520423964E-01;
4.576000000000000E+08;9.501530171093708E-01;-3.140996619405487E-01;
4.590900000000000E+08;9.497461394564338E-01;-3.154787938493592E-01;
4.605800000000000E+08;9.494134281650417E-01;-3.159377491031461E-01;
4.620700000000000E+08;9.498597644251150E-01;-3.170752259838948E-01;
4.635600000000000E+08;9.488174193618925E-01;-3.179627153197903E-01;
4.650500000000000E+08;9.483882808400561E-01;-3.193286883946124E-01;
4.665400000000000E+08;9.477696677295178E-01;-3.196702239129106E-01;
4.680300000000000E+08;9.478467884305656E-01;-3.212467310201670E-01;
4.695200000000000E+08;9.478772269603369E-01;-3.223677291557616E-01;
4.710100000000000E+08;9.474430276863502E-01;-3.227519024769786E-01;
4.725000000000000E+08;9.468872245476766E-01;-3.245342670092394E-01;
4.739900000000000E+08;9.461157784262968E-01;-3.252125106688163E-01;
4.754800000000000E+08;9.465316165508805E-01;-3.263929736131588E-01;
4.769700000000000E+08;9.457926484042468E-01;-3.277358699836149E-01;
4.784600000000000E+08;9.446666889498933E-01;-3.282829878135185E-01;
4.799500000000000E+08;9.445039834907316E-01;-3.294173327094139E-01;
4.814400000000000E+08;9.448609017831072E-01;-3.305941067966643E-01;
4.829300000000000E+08;9.441529704685022E-01;-3.319668023457575E-01;
4.844200000000000E+08;9.435586770858139E-01;-3.322916668490912E-01;
4.859100000000000E+08;9.432669406207591E-01;-3.335459045277359E-01;
4.874000000000000E+08;9.427375429012622E-01;-3.343254855127731E-01;
4.888900000000000E+08;9.426800817979250E-01;-3.360004042560034E-01;
4.903800000000000E+08;9.422657964582462E-01;-3.364093211163428E-01;
4.918700000000000E+08;9.412316326123743E-01;-3.379584607331888E-01;
4.933600000000000E+08;9.412427515431512E-01;-3.391643059044016E-01;
4.948500000000000E+08;9.416705331477184E-01;-3.395971237881655E-01;
4.963400000000000E+08;9.413184171491913E-01;-3.401994093590116E-01;
4.978300000000000E+08;9.406804871513256E-01;-3.417714746998857E-01;
4.993200000000000E+08;9.397527387832676E-01;-3.423971239251857E-01;
5.008100000000000E+08;9.404102653383311E-01;-3.442893841416790E-01;
5.023000000000000E+08;9.396873820717160E-01;-3.444837558644428E-01;
5.037900000000000E+08;9.393235255676551E-01;-3.457427823596572E-01;
5.052800000000000E+08;9.385638028937446E-01;-3.464542212498053E-01;
5.067700000000000E+08;9.389059503985325E-01;-3.468838800311270E-01;
5.082600000000000E+08;9.376833425008965E-01;-3.487613639851772E-01;
5.097500000000000E+08;9.372975440053305E-01;-3.492147361434751E-01;
5.112400000000000E+08;9.367640376594745E-01;-3.503090337998636E-01;
5.127300000000000E+08;9.367024345359766E-01;-3.512795536549322E-01;
5.142200000000000E+08;9.361460506702238E-01;-3.530698321113884E-01;
5.157100000000000E+08;9.357623893134046E-01;-3.536160082795504E-01;
5.172000000000000E+08;9.357355854522867E-01;-3.548501516111889E-01;
5.186900000000000E+08;9.346641346473334E-01;-3.554836542658574E-01;
5.201800000000000E+08;9.341042994132722E-01;-3.574058607074880E-01;
5.216700000000000E+08;9.337840524033111E-01;-3.582234987480989E-01;
5.231600000000000E+08;9.337475546770643E-01;-3.581155963298280E-01;
5.246500000000000E+08;9.341063134836688E-01;-3.597540644383347E-01;
5.261400000000000E+08;9.331886498570355E-01;-3.610100242681821E-01;
5.276300000000000E+08;9.327720661823555E-01;-3.620902134498425E-01;
5.291200000000000E+08;9.322364171271688E-01;-3.629338705749593E-01;
