a
a
freq[Hz];re:Trc1_S21;im:Trc1_S21;re:Trc2_S11;im:Trc2_S11;
1.000000000000000E+09;-7.767583669645126E-06;-3.726013052053020E-05;-2.970752419286201E-02;-8.988316848456678E-01;
1.042000000000000E+09;-2.737128134421371E-05;-4.822687008854461E-05;-8.306383910407146E-01;3.188546572649770E-01;
1.084000000000000E+09;-4.418269153055149E-05;4.385229114822604E-05;5.758369891436219E-01;6.794438203940079E-01;
1.126000000000000E+09;1.648630315634635E-05;-8.310474194382501E-06;4.328901731105941E-01;-7.829511974989737E-01;
1.168000000000000E+09;-4.471299361228400E-05;-4.724970406838373E-05;-8.706944696232514E-01;-1.477369055898738E-01;
1.210000000000000E+09;-2.669448957178219E-05;-4.027062539465232E-05;1.338691342815428E-01;8.751037070038529E-01;
1.252000000000000E+09;-3.068835900178601E-05;8.448420764253731E-05;7.755418686864395E-01;-4.331161418868030E-01;
1.294000000000000E+09;2.803061195375716E-06;-1.697794621662802E-05;-6.660662090117303E-01;-5.696141356745021E-01;
1.336000000000000E+09;2.062411104041801E-05;5.371740903696506E-06;-3.401258624813161E-01;8.100318514161614E-01;
1.378000000000000E+09;-7.170734436551802E-06;7.055732646337376E-06;8.822787457174001E-01;5.608118848166984E-02;
1.420000000000000E+09;2.780787364168572E-05;-2.519499208940420E-05;-2.608617910239870E-01;-8.315990133232872E-01;
1.462000000000000E+09;-2.206641728536582E-05;-4.050792477459295E-05;-6.968216148907335E-01;5.240498220180408E-01;
1.504000000000000E+09;-8.114643501742778E-06;3.582541474352637E-05;7.275393687391403E-01;4.941882870035975E-01;
1.546000000000000E+09;2.363445286627967E-05;-8.463762467323735E-05;2.045659603315440E-01;-8.442946692940249E-01;
1.588000000000000E+09;-3.559360628006441E-05;-7.371581667189897E-05;-8.603525486181258E-01;9.592302756786472E-02;
1.630000000000000E+09;-4.560866825744742E-06;1.940058149018974E-05;3.632416916002563E-01;7.911191563779595E-01;
1.672000000000000E+09;-4.174121395181223E-05;-2.547905535378506E-05;6.179742470881245E-01;-6.054974549975799E-01;
1.714000000000000E+09;6.774179252772464E-06;9.446226365470113E-05;-7.768279034270649E-01;-3.631409938608482E-01;
1.756000000000000E+09;-2.217686820859613E-05;8.484787083820419E-06;-1.033104715309271E-01;8.615379902926457E-01;
1.798000000000000E+09;4.590515739507952E-05;5.158667715864690E-05;8.457133753862230E-01;-1.826347446154833E-01;
1.840000000000000E+09;1.722279135790910E-05;-3.345054847080139E-06;-4.682227873557155E-01;-7.173093580065854E-01;
1.882000000000000E+09;2.225866116055371E-05;3.895852875312224E-05;-5.293669299665708E-01;6.796565881715073E-01;
1.924000000000000E+09;-7.204704494519092E-05;5.342437035631543E-06;8.149867714047773E-01;2.864254054991651E-01;
1.966000000000000E+09;1.922578692711540E-05;-4.359762256756834E-05;-2.627835594346642E-02;-8.491267295951087E-01;
2.008000000000000E+09;2.283613351712673E-05;2.616061841425791E-05;-7.971438299744045E-01;3.101895949226526E-01;
2.050000000000000E+09;2.888186442157068E-05;-7.530520850059708E-06;5.420569815485311E-01;6.613765324785090E-01;
2.092000000000000E+09;-7.421829213075931E-05;1.764216935467088E-06;4.249825865148237E-01;-7.304517898764760E-01;
2.134000000000000E+09;-6.267932252970402E-05;-1.113038396376952E-05;-8.401094700521213E-01;-1.417440557195812E-01;
2.176000000000000E+09;3.656290598213693E-05;5.964333865002713E-05;1.203379287254353E-01;8.469966649845677E-01;
2.218000000000000E+09;-2.037705302465548E-05;1.092313266379878E-04;7.460967507958435E-01;-3.939797657778684E-01;
2.260000000000000E+09;4.206354375164208E-05;-2.068935731819599E-05;-6.354763904397979E-01;-5.590744976558324E-01;
2.302000000000000E+09;3.579210851437918E-05;7.519997562984827E-05;-3.341014003541683E-01;7.799332355624293E-01;
2.344000000000000E+09;-8.485737625492705E-05;1.099740810459854E-04;8.388930432180921E-01;7.224603849379806E-02;
2.386000000000000E+09;7.642840188446551E-05;-5.405020645055083E-05;-2.322331976715896E-01;-8.088636365002295E-01;
2.428000000000000E+09;-2.187139503531394E-05;-8.846066902339307E-05;-7.001953058844023E-01;4.701232102065311E-01;
2.470000000000000E+09;-3.671032488844888E-05;-1.188752847578817E-04;6.690660840350122E-01;5.033860233122800E-01;
2.512000000000000E+09;-8.327290741832357E-05;3.335809610454891E-05;2.201221663271904E-01;-8.047243341472800E-01;
2.554000000000000E+09;-1.813871356685706E-04;6.005368575554592E-05;-8.394514926880626E-01;6.036568284693490E-02;
2.596000000000000E+09;1.264853027706711E-04;8.962471427394943E-06;2.976867966041162E-01;7.828298352894256E-01;
2.638000000000000E+09;-2.713287515945644E-06;3.626739274305352E-06;6.393160247899388E-01;-5.322062107889063E-01;
2.680000000000000E+09;-6.946323174883430E-06;-2.663194893962394E-05;-7.442395757820515E-01;-3.903030176029497E-01;
2.722000000000000E+09;-1.606836238682084E-06;5.008138782791284E-05;-1.550761508230346E-01;8.268242092387550E-01;
2.764000000000000E+09;1.565278003941269E-05;7.598629812027822E-06;8.211782925906482E-01;-1.258807103001237E-01;
2.806000000000000E+09;-1.013247510152419E-05;-1.716958753643172E-05;-4.128553856474210E-01;-7.218440631495228E-01;
2.848000000000000E+09;6.156771994327061E-05;2.204778257051246E-05;-5.526875868183185E-01;6.185630297549530E-01;
2.890000000000000E+09;9.738965330017608E-06;-8.468523440378057E-06;7.546292877670573E-01;3.232836702554811E-01;
2.932000000000000E+09;-4.285996033614600E-05;5.042605000299935E-05;3.292601389360651E-02;-8.270291485437413E-01;
2.974000000000000E+09;4.431211752506597E-05;-5.301392244877833E-05;-7.880542280753843E-01;2.453045097899430E-01;
3.016000000000000E+09;3.853324544470721E-05;-5.439553414832906E-05;4.734997314390391E-01;6.657431699859726E-01;
3.058000000000000E+09;8.123883490669280E-05;-5.784753502729305E-05;4.726360356510428E-01;-6.783169946932867E-01;
3.100000000000000E+09;8.804360460427533E-05;-1.877576028690731E-05;-7.931389454644822E-01;-2.108315080656633E-01;
3.142000000000000E+09;-7.793851504602224E-05;1.120821949872911E-04;6.114201716696378E-02;8.095343950589650E-01;
3.184000000000000E+09;-4.163966567349912E-05;-4.901339470826562E-05;7.458641194308273E-01;-3.431715443818904E-01;
3.226000000000000E+09;-5.802237816574911E-05;8.039533869301833E-05;-5.742166246296788E-01;-5.883588251724229E-01;
3.268000000000000E+09;2.585820880371998E-05;-1.671633395806796E-05;-3.791019063483339E-01;7.192440657248449E-01;
3.310000000000000E+09;-7.684218993687681E-05;9.741022045430001E-07;8.055217931320391E-01;1.177222871546569E-01;
3.352000000000000E+09;-7.447964561965028E-06;-4.682323717337493E-05;-1.802064005994751E-01;-8.019120499469413E-01;
3.394000000000000E+09;-7.764770677277073E-05;1.045134134886629E-04;-6.887220086149783E-01;4.273779193660106E-01;
3.436000000000000E+09;2.024010089240076E-06;1.722658917490737E-04;6.256815465774640E-01;5.195455305799207E-01;
3.478000000000000E+09;5.467602646346806E-05;3.976605231621669E-05;2.709164241097708E-01;-7.723378423953947E-01;
3.520000000000000E+09;-1.220100906727411E-04;4.501225779038244E-05;-8.073164050979066E-01;1.005958411123599E-02;
3.562000000000000E+09;-3.117868140079804E-05;7.033310916645968E-05;2.598845840812551E-01;7.637144357565493E-01;
3.604000000000000E+09;4.985448405387686E-05;-1.161504531560875E-04;6.437753369485055E-01;-5.015614363475823E-01;
3.646000000000000E+09;9.726165945199862E-06;-1.818148692641252E-05;-6.851736926305544E-01;-4.193021735172814E-01;
3.688000000000000E+09;-1.198266246447961E-04;2.239299397825746E-05;-1.784985496122081E-01;7.782215697982825E-01;
3.730000000000000E+09;1.709248512056040E-05;-2.703147984716907E-05;8.042363768252780E-01;-7.509950201873462E-02;
3.772000000000000E+09;-5.866005492850470E-06;5.244058193291931E-05;-3.529956458431167E-01;-7.161880970715625E-01;
3.814000000000000E+09;7.453069789305396E-07;-6.321428332028459E-06;-5.443170403402979E-01;5.784310734410819E-01;
3.856000000000000E+09;-7.436500339043347E-05;-1.514566762858870E-05;7.261815734944992E-01;3.538932843593544E-01;
3.898000000000000E+09;-3.260518176175237E-05;-9.772225300089683E-06;9.334697150611110E-02;-7.974715658354277E-01;
3.940000000000000E+09;1.493469256957401E-05;-5.063250535339921E-05;-7.658440886412597E-01;1.948728726063596E-01;
3.982000000000000E+09;-1.190487883801674E-04;7.522945282215101E-05;4.359669896871878E-01;6.714021752532991E-01;
4.024000000000000E+09;4.033334744081563E-05;-1.223342593824834E-06;4.879447320945622E-01;-6.322050201429120E-01;
4.066000000000000E+09;7.484678973420453E-05;-5.196612409109629E-05;-7.581289791527283E-01;-2.187725401533675E-01;
4.108000000000000E+09;9.168226283904051E-05;8.370420041554330E-05;2.370445058512154E-02;7.944687862724211E-01;
4.150000000000000E+09;3.505695722082327E-05;-8.603616729579836E-05;7.549035476068225E-01;-2.625577705343272E-01;
4.192000000000000E+09;-2.324518788604287E-05;1.177714966224814E-06;-5.198124445680459E-01;-5.870175741339982E-01;
4.234000000000000E+09;-8.288687347142783E-05;6.457547050552100E-05;-3.803552239985244E-01;6.960534745534144E-01;
4.276000000000000E+09;1.441907571111918E-04;2.698531496641898E-06;7.828698455648533E-01;1.748922710447077E-01;
4.318000000000000E+09;2.612479718709028E-05;2.839362423116922E-05;-1.051041872087998E-01;-7.793477784040591E-01;
4.360000000000000E+09;-2.204347916707463E-05;-2.643952578411623E-05;-6.829399580922544E-01;3.919023672214383E-01;
4.402000000000000E+09;6.895619030767025E-05;-3.123113117325559E-05;5.831703005013100E-01;5.451762260666370E-01;
4.444000000000000E+09;-6.784964339253363E-05;3.804152075679127E-06;3.233617227860152E-01;-7.147243201798377E-01;
4.486000000000000E+09;-1.063783409648307E-04;7.979885941687886E-05;-7.773094477000444E-01;-1.979952024795547E-02;
4.528000000000000E+09;7.615652356479661E-06;-3.294979404444383E-05;2.307421047415760E-01;7.523291157799817E-01;
4.570000000000000E+09;-1.023151219485951E-04;-3.019795091069210E-05;6.442563951896723E-01;-4.380329800675492E-01;
4.612000000000000E+09;5.117020010842506E-06;-1.201913115407448E-07;-6.421703013449563E-01;-4.310622833863870E-01;
4.654000000000000E+09;-5.260882627206197E-05;-1.753121454322733E-05;-2.011203303734956E-01;7.578849791152794E-01;
4.696000000000000E+09;4.110545703869368E-05;1.057872125858441E-04;7.847499757796930E-01;-2.213018467717491E-02;
4.738000000000000E+09;-7.659734083731836E-05;-4.195642152979976E-05;-3.111091240405626E-01;-7.095025984165958E-01;
4.780000000000000E+09;8.952755604569935E-05;-1.976774875402093E-05;-5.574716582367153E-01;5.523699061092824E-01;
4.822000000000000E+09;1.025779912015846E-04;-4.442153222475927E-06;6.833956533212076E-01;3.825472174424454E-01;
4.864000000000000E+09;-6.281111196408920E-06;-5.020581363153504E-06;1.217165063026789E-01;-7.594607323431525E-01;
4.906000000000000E+09;8.245084411513167E-05;-5.660105752458011E-05;-7.490184243278231E-01;1.828244910244776E-01;
4.948000000000000E+09;1.046233449357749E-04;1.835708677953164E-04;3.967110657795436E-01;6.714761651567319E-01;
4.990000000000000E+09;4.981885509394577E-05;-6.206307900266183E-05;5.137746183346605E-01;-5.738088005178359E-01;
5.032000000000000E+09;8.633120796321292E-05;-3.233828925004714E-05;-7.291793481449631E-01;-2.599426635949944E-01;
5.074000000000000E+09;-2.177116553056932E-04;-3.813406440857659E-05;-3.648666356602886E-04;7.804984897788028E-01;
5.116000000000000E+09;-3.005593108980494E-05;-1.385690416137972E-04;7.441533918853915E-01;-2.216193827023445E-01;
5.158000000000000E+09;1.539395792550834E-04;-1.020304518443477E-05;-4.731288882418743E-01;-6.129148768236545E-01;
5.200000000000000E+09;1.460760216875637E-04;-1.347634935795419E-04;-4.102061404684380E-01;6.567290632048737E-01;
5.242000000000000E+09;1.254896927615809E-04;1.752693562492088E-04;7.408200532551521E-01;2.040764194495174E-01;
5.284000000000000E+09;1.030319385519908E-04;-7.144610682799046E-05;-7.118967895721148E-02;-7.626641708689266E-01;
5.326000000000000E+09;-5.694142694319362E-05;-2.790489948986777E-05;-6.791880082755013E-01;3.526182897375049E-01;
5.368000000000000E+09;1.364098760297137E-05;9.468658522713392E-05;5.340713958640076E-01;5.431383451297938E-01;
5.410000000000000E+09;-2.242256063288815E-05;1.224939247084650E-04;3.453072914425762E-01;-6.830599152898206E-01;
5.452000000000000E+09;-1.519917551972793E-04;-3.266745036761092E-05;-7.606539496792133E-01;-6.645183034385478E-02;
5.494000000000000E+09;-5.882424224881774E-05;3.947993269820278E-05;1.836879556355842E-01;7.419330866773478E-01;
5.536000000000000E+09;8.792833470473280E-05;-1.616442660376043E-05;6.513305615805460E-01;-4.029229088744599E-01;
5.578000000000000E+09;-7.000772119132255E-05;-1.048354908143316E-04;-6.052324232936305E-01;-4.683561853056213E-01;
5.620000000000000E+09;1.288442144347078E-04;-1.405319262319778E-04;-2.336414959884922E-01;7.212950540869644E-01;
5.662000000000000E+09;-1.710564627105869E-04;1.673811655546123E-04;7.600585321323792E-01;2.100728905368556E-03;
5.704000000000000E+09;-2.397743143162343E-04;-7.800003741627141E-05;-2.622354510391320E-01;-7.103597585269992E-01;
5.746000000000000E+09;-1.110045998870607E-05;1.197219300479710E-05;-5.599336761057103E-01;4.978654012660003E-01;
5.788000000000000E+09;-2.682469060503971E-04;-1.162278296642967E-04;6.485963498323652E-01;3.831601781945661E-01;
5.830000000000000E+09;-9.290619707689637E-05;-2.028636453636181E-04;1.690995407675811E-01;-7.449929962158101E-01;
5.872000000000000E+09;2.011454087008060E-04;-2.685416179517830E-05;-7.475379746920020E-01;1.189046769214337E-01;
5.914000000000000E+09;-1.326508145497566E-04;4.975699426527396E-06;3.647991086424883E-01;6.636534507383576E-01;
5.956000000000000E+09;-3.614542715888439E-05;-1.478157639706577E-04;5.261789233254479E-01;-5.561693637813909E-01;
5.998000000000000E+09;6.329777386890288E-05;-1.282848086430987E-04;-6.914894758008010E-01;-2.907112836328969E-01;
6.040000000000000E+09;1.495468869897188E-05;1.327578529507037E-04;-2.618908563344980E-02;7.389169333340209E-01;
6.082000000000000E+09;3.492234772321040E-04;1.026127885295799E-04;7.264253245865917E-01;-2.081054842161135E-01;
6.124000000000000E+09;-1.367481743279598E-04;9.858845650582901E-05;-4.320573164024917E-01;-6.117739042302052E-01;
6.166000000000000E+09;-2.547281840754281E-04;7.185506622716028E-05;-4.011184332194824E-01;6.221138320009376E-01;
6.208000000000000E+09;-4.574619833384929E-05;1.635745963823544E-04;7.261555574966129E-01;1.910238246683339E-01;
6.250000000000000E+09;1.418641731403813E-04;-5.015264368326170E-05;-4.696005607980640E-02;-7.545689861411954E-01;
6.292000000000000E+09;-1.449696323637231E-04;7.263165681805283E-05;-6.767762523825062E-01;3.115482501562028E-01;
6.334000000000000E+09;2.431262521320352E-04;-2.707875267477931E-05;5.177278716957116E-01;5.394486128530475E-01;
6.376000000000000E+09;-2.284363817148935E-04;3.453064235766323E-04;3.553413517276158E-01;-6.650545083887935E-01;
6.418000000000000E+09;-1.719408725538189E-04;-1.165187157420154E-04;-7.329432486459730E-01;-9.667763823643746E-02;
6.460000000000000E+09;-7.363209037552781E-06;1.484134468451939E-04;1.669149552045566E-01;7.207706558664952E-01;
6.502000000000000E+09;1.576690989179565E-04;-7.992432409538785E-05;6.529852479761895E-01;-3.699689422014605E-01;
6.544000000000000E+09;-3.155820222445508E-05;-1.611190860733578E-04;-5.606615051945016E-01;-4.789013373935629E-01;
6.586000000000000E+09;1.722015979639969E-05;1.281500516901347E-04;-2.223974041530065E-01;7.054665967580926E-01;
6.628000000000000E+09;6.508468477951867E-05;-1.614825900164897E-04;7.525568278240535E-01;4.725174674657807E-03;
6.670000000000000E+09;1.778651618042889E-05;2.870055274898272E-04;-2.252829469720619E-01;-7.083528051339468E-01;
6.712000000000000E+09;-6.908392264463679E-05;1.932476936977712E-04;-5.638548437845931E-01;4.659272369563589E-01;
6.754000000000000E+09;8.034811691112887E-05;-8.543689956802813E-05;6.354705248025532E-01;3.888467151539166E-01;
6.796000000000000E+09;4.442805067718457E-05;-1.736588770802155E-05;1.869050144888036E-01;-7.166830354615068E-01;
6.838000000000000E+09;3.390306358988444E-04;1.319381442287107E-04;-7.206582432793892E-01;9.633935019706787E-02;
6.880000000000000E+09;2.164165071567613E-05;-9.416493510779507E-05;3.383892322030390E-01;6.517748762025044E-01;
6.922000000000000E+09;8.845086281170230E-05;8.437552167758000E-05;5.350967872532961E-01;-5.026488980524311E-01;
6.964000000000000E+09;-1.551731100121279E-04;2.020243546421514E-05;-6.533772811173402E-01;-3.080312285325387E-01;
7.006000000000000E+09;-2.409050730000593E-05;2.826700452924625E-05;-4.193550143322389E-02;7.366281717797789E-01;
7.048000000000000E+09;1.379288872085039E-05;-4.695549923417932E-05;7.320305791286902E-01;-1.644489808635044E-01;
7.090000000000000E+09;9.412649789883775E-05;1.095890257942422E-04;-3.952336551552803E-01;-6.198517037740479E-01;
7.132000000000000E+09;1.069574893175925E-04;-3.263616115688689E-05;-4.093704978991090E-01;5.978763695921707E-01;
7.174000000000000E+09;4.806684884492938E-05;2.722079477231013E-05;7.063831868237233E-01;2.093178855155740E-01;
7.216000000000000E+09;-1.635400040412687E-04;-1.456143319906415E-04;-3.524319667741024E-03;-7.214517639861464E-01;
7.258000000000000E+09;-4.892616603163034E-05;-1.064656477270672E-04;-6.639158731737905E-01;2.718175563563989E-01;
7.300000000000000E+09;4.517273815977861E-05;-1.156230204648601E-04;4.702292007269184E-01;5.557977237855600E-01;
7.342000000000000E+09;-5.664070858681332E-05;2.544890498844194E-05;3.984367664885839E-01;-6.048207181931791E-01;
7.384000000000000E+09;-9.019694898204372E-05;-1.667248792079151E-04;-7.076526256298921E-01;-1.341517807984168E-01;
7.426000000000000E+09;1.000202239725544E-05;2.139001888642022E-05;1.359338192015648E-01;7.221424662664945E-01;
7.468000000000000E+09;1.127177688419498E-04;-8.136363932605188E-05;6.507399566440100E-01;-3.371539415581378E-01;
7.510000000000000E+09;3.780261560348480E-05;7.850731138456765E-05;-5.462577818190076E-01;-4.747130307571326E-01;
7.552000000000000E+09;1.274939273317122E-04;-1.264453181909476E-04;-2.320216164460809E-01;6.837746644048242E-01;
7.594000000000000E+09;-1.520221083163435E-05;-1.018590777666254E-04;7.212023263932941E-01;3.031454218115217E-02;
7.636000000000000E+09;2.579157948576146E-05;-1.585331844971608E-04;-1.967274284091241E-01;-6.880934440943830E-01;
7.678000000000000E+09;5.956988498942391E-05;-5.819416162693274E-05;-5.821862952265627E-01;4.261311039849104E-01;
7.720000000000000E+09;-6.210280170399112E-06;9.407678987049327E-05;5.775432767246350E-01;4.231396852370788E-01;
7.762000000000000E+09;-4.590058655372400E-05;-6.041148488256962E-05;1.980421839946302E-01;-6.896994574290018E-01;
7.804000000000000E+09;1.819310875028000E-04;2.629751213845581E-05;-7.212337687226865E-01;8.234597555600377E-02;
7.846000000000000E+09;2.869772386851951E-04;-8.263064107893603E-05;3.044602341074202E-01;6.660879355285900E-01;
7.888000000000000E+09;-4.485467771943979E-05;1.076434893957447E-04;5.445714852630855E-01;-4.773401429238268E-01;
7.930000000000000E+09;-8.429509682034514E-05;9.789031233451337E-06;-6.323512235971590E-01;-3.375326311555482E-01;
7.972000000000000E+09;-1.027983034337633E-04;-8.403380785741444E-05;-8.566817699735867E-02;7.192798333592357E-01;
8.014000000000000E+09;-9.145772629917181E-05;-8.445440812421795E-05;6.973922817839788E-01;-1.363609897945438E-01;
8.056000000000000E+09;-2.433599410184874E-05;-2.615856200036244E-05;-3.634519439921343E-01;-6.085241066909889E-01;
8.098000000000000E+09;-1.672664143133193E-04;-2.506663120526339E-04;-4.439087183180909E-01;5.561150712051356E-01;
8.140000000000000E+09;3.081744027656076E-04;8.217842797377797E-05;6.669993270554622E-01;2.481371321662324E-01;
8.182000000000000E+09;2.526771887654614E-06;-1.217466999293681E-04;8.362692517089073E-03;-7.161242010179780E-01;
8.224000000000000E+09;-6.812645563226216E-05;1.701610110889635E-06;-6.803653170104036E-01;2.543366969076276E-01;
8.266000000000000E+09;6.917272313678782E-05;-1.436498125498765E-04;4.529057917073089E-01;5.610385808460234E-01;
8.308000000000000E+09;-4.961793472016576E-05;1.880896268565315E-04;3.843754678342291E-01;-6.045574218174101E-01;
8.350000000000000E+09;3.406242213579411E-05;2.176011007722633E-04;-7.021508508802039E-01;-1.407385160537029E-01;
